#Parameters = {d=60; L=50}
#"Frequency / GHz"	"S1,1 (d=60) [Re]"	"S1,1 (d=60) [Im]"	"Ref.Imp. [Re]"	"Ref.Imp. [Im]"
#---------------------------------------------------------------------------------------
0.0000000000000	1.0000000000000	-0.0000000000000	73.000000000000	0.0000000000000
0.0040000001899898	0.99995601177216	-0.0089401807636023	73.000000000000	0.0000000000000
0.0080000003799796	0.99982440471649	-0.017878891900182	73.000000000000	0.0000000000000
0.012000000104308	0.99960517883301	-0.026814663782716	73.000000000000	0.0000000000000
0.016000000759959	0.99929839372635	-0.035746037960052	73.000000000000	0.0000000000000
0.019999999552965	0.99890428781509	-0.044671565294266	73.000000000000	0.0000000000000
0.024000000208616	0.99842309951782	-0.053589817136526	73.000000000000	0.0000000000000
0.028000000864267	0.99785542488098	-0.062499385327101	73.000000000000	0.0000000000000
0.032000001519918	0.99720120429993	-0.071398869156837	73.000000000000	0.0000000000000
0.035999998450279	0.99646127223969	-0.080286949872971	73.000000000000	0.0000000000000
0.039999999105930	0.99563592672348	-0.089162260293961	73.000000000000	0.0000000000000
0.043999999761581	0.99472588300705	-0.098023518919945	73.000000000000	0.0000000000000
0.048000000417233	0.99373143911362	-0.10686948895454	73.000000000000	0.0000000000000
0.052000001072884	0.99265348911285	-0.11569894105196	73.000000000000	0.0000000000000
0.056000001728535	0.99149274826050	-0.12451073527336	73.000000000000	0.0000000000000
0.059999998658895	0.99024975299835	-0.13330371677876	73.000000000000	0.0000000000000
0.064000003039837	0.98892527818680	-0.14207683503628	73.000000000000	0.0000000000000
0.068000003695488	0.98752015829086	-0.15082901716232	73.000000000000	0.0000000000000
0.071999996900558	0.98603516817093	-0.15955936908722	73.000000000000	0.0000000000000
0.075999997556210	0.98447120189667	-0.16826693713665	73.000000000000	0.0000000000000
0.079999998211861	0.98282909393311	-0.17695085704327	73.000000000000	0.0000000000000
0.083999998867512	0.98110961914062	-0.18561033904552	73.000000000000	0.0000000000000
0.087999999523163	0.97931385040283	-0.19424463808537	73.000000000000	0.0000000000000
0.092000000178814	0.97744238376617	-0.20285303890705	73.000000000000	0.0000000000000
0.096000000834465	0.97549635171890	-0.21143491566181	73.000000000000	0.0000000000000
0.10000000149012	0.97347640991211	-0.21998971700668	73.000000000000	0.0000000000000
0.10400000214577	0.97138381004333	-0.22851689159870	73.000000000000	0.0000000000000
0.10800000280142	0.96921920776367	-0.23701600730419	73.000000000000	0.0000000000000
0.11200000345707	0.96698319911957	-0.24548660218716	73.000000000000	0.0000000000000
0.11599999666214	0.96467703580856	-0.25392836332321	73.000000000000	0.0000000000000
0.11999999731779	0.96230137348175	-0.26234096288681	73.000000000000	0.0000000000000
0.12399999797344	0.95985698699951	-0.27072408795357	73.000000000000	0.0000000000000
0.12800000607967	0.95734465122223	-0.27907761931419	73.000000000000	0.0000000000000
0.13199999928474	0.95476508140564	-0.28740134835243	73.000000000000	0.0000000000000
0.13600000739098	0.95211899280548	-0.29569512605667	73.000000000000	0.0000000000000
0.14000000059605	0.94940716028214	-0.30395886301994	73.000000000000	0.0000000000000
0.14399999380112	0.94663000106812	-0.31219252943993	73.000000000000	0.0000000000000
0.14800000190735	0.94378823041916	-0.32039606571198	73.000000000000	0.0000000000000
0.15199999511242	0.94088232517242	-0.32856947183609	73.000000000000	0.0000000000000
0.15600000321865	0.93791288137436	-0.33671277761459	73.000000000000	0.0000000000000
0.15999999642372	0.93488013744354	-0.34482604265213	73.000000000000	0.0000000000000
0.16400000452995	0.93178468942642	-0.35290929675102	73.000000000000	0.0000000000000
0.16799999773502	0.92862677574158	-0.36096265912056	73.000000000000	0.0000000000000
0.17200000584126	0.92540675401688	-0.36898615956306	73.000000000000	0.0000000000000
0.17599999904633	0.92212480306625	-0.37697988748550	73.000000000000	0.0000000000000
0.18000000715256	0.91878104209900	-0.38494393229485	73.000000000000	0.0000000000000
0.18400000035763	0.91537576913834	-0.39287841320038	73.000000000000	0.0000000000000
0.18799999356270	0.91190886497498	-0.40078330039978	73.000000000000	0.0000000000000
0.19200000166893	0.90838062763214	-0.40865874290466	73.000000000000	0.0000000000000
0.19599999487400	0.90479087829590	-0.41650477051735	73.000000000000	0.0000000000000
0.20000000298023	0.90113973617554	-0.42432132363319	73.000000000000	0.0000000000000
0.20399999618530	0.89742678403854	-0.43210843205452	73.000000000000	0.0000000000000
0.20800000429153	0.89365226030350	-0.43986612558365	73.000000000000	0.0000000000000
0.21199999749660	0.88981568813324	-0.44759428501129	73.000000000000	0.0000000000000
0.21600000560284	0.88591694831848	-0.45529273152351	73.000000000000	0.0000000000000
0.21999999880791	0.88195568323135	-0.46296146512032	73.000000000000	0.0000000000000
0.22400000691414	0.87793189287186	-0.47060021758080	73.000000000000	0.0000000000000
0.22800000011921	0.87384498119354	-0.47820881009102	73.000000000000	0.0000000000000
0.23199999332428	0.86969465017319	-0.48578694462776	73.000000000000	0.0000000000000
0.23600000143051	0.86548066139221	-0.49333426356316	73.000000000000	0.0000000000000
0.23999999463558	0.86120253801346	-0.50085049867630	73.000000000000	0.0000000000000
0.24400000274181	0.85685968399048	-0.50833511352539	73.000000000000	0.0000000000000
0.24799999594688	0.85245221853256	-0.51578766107559	73.000000000000	0.0000000000000
0.25200000405312	0.84797918796539	-0.52320772409439	73.000000000000	0.0000000000000
0.25600001215935	0.84344065189362	-0.53059452772141	73.000000000000	0.0000000000000
0.25999999046326	0.83883565664291	-0.53794759511948	73.000000000000	0.0000000000000
0.26399999856949	0.83416426181793	-0.54526609182358	73.000000000000	0.0000000000000
0.26800000667572	0.82942575216293	-0.55254942178726	73.000000000000	0.0000000000000
0.27200001478195	0.82461994886398	-0.55979669094086	73.000000000000	0.0000000000000
0.27599999308586	0.81974661350250	-0.56700706481934	73.000000000000	0.0000000000000
0.28000000119209	0.81480515003204	-0.57417953014374	73.000000000000	0.0000000000000
0.28400000929832	0.80979520082474	-0.58131325244904	73.000000000000	0.0000000000000
0.28799998760223	0.80471664667130	-0.58840721845627	73.000000000000	0.0000000000000
0.29199999570847	0.79956930875778	-0.59546029567719	73.000000000000	0.0000000000000
0.29600000381470	0.79435276985168	-0.60247135162354	73.000000000000	0.0000000000000
0.30000001192093	0.78906702995300	-0.60943937301636	73.000000000000	0.0000000000000
0.30399999022484	0.78371202945709	-0.61636298894882	73.000000000000	0.0000000000000
0.30799999833107	0.77828747034073	-0.62324112653732	73.000000000000	0.0000000000000
0.31200000643730	0.77279365062714	-0.63007247447968	73.000000000000	0.0000000000000
0.31600001454353	0.76723027229309	-0.63685566186905	73.000000000000	0.0000000000000
0.31999999284744	0.76159763336182	-0.64358961582184	73.000000000000	0.0000000000000
0.32400000095367	0.75589591264725	-0.65027272701263	73.000000000000	0.0000000000000
0.32800000905991	0.75012516975403	-0.65690380334854	73.000000000000	0.0000000000000
0.33199998736382	0.74428582191467	-0.66348141431808	73.000000000000	0.0000000000000
0.33599999547005	0.73837798833847	-0.67000418901443	73.000000000000	0.0000000000000
0.34000000357628	0.73240250349045	-0.67647069692612	73.000000000000	0.0000000000000
0.34400001168251	0.72635936737061	-0.68287968635559	73.000000000000	0.0000000000000
0.34799998998642	0.72024935483932	-0.68922960758209	73.000000000000	0.0000000000000
0.35199999809265	0.71407300233841	-0.69551926851273	73.000000000000	0.0000000000000
0.35600000619888	0.70783102512360	-0.70174705982208	73.000000000000	0.0000000000000
0.36000001430511	0.70152407884598	-0.70791178941727	73.000000000000	0.0000000000000
0.36399999260902	0.69515299797058	-0.71401214599609	73.000000000000	0.0000000000000
0.36800000071526	0.68871849775314	-0.72004675865173	73.000000000000	0.0000000000000
0.37200000882149	0.68222182989120	-0.72601437568665	73.000000000000	0.0000000000000
0.37599998712540	0.67566347122192	-0.73191380500793	73.000000000000	0.0000000000000
0.37999999523163	0.66904467344284	-0.73774373531342	73.000000000000	0.0000000000000
0.38400000333786	0.66236662864685	-0.74350303411484	73.000000000000	0.0000000000000
0.38800001144409	0.65563029050827	-0.74919068813324	73.000000000000	0.0000000000000
0.39199998974800	0.64883691072464	-0.75480544567108	73.000000000000	0.0000000000000
0.39599999785423	0.64198750257492	-0.76034635305405	73.000000000000	0.0000000000000
0.40000000596046	0.63508361577988	-0.76581245660782	73.000000000000	0.0000000000000
0.40400001406670	0.62812626361847	-0.77120280265808	73.000000000000	0.0000000000000
0.40799999237061	0.62111681699753	-0.77651667594910	73.000000000000	0.0000000000000
0.41200000047684	0.61405682563782	-0.78175300359726	73.000000000000	0.0000000000000
0.41600000858307	0.60694736242294	-0.78691130876541	73.000000000000	0.0000000000000
0.41999998688698	0.59979003667831	-0.79199057817459	73.000000000000	0.0000000000000
0.42399999499321	0.59258621931076	-0.79699057340622	73.000000000000	0.0000000000000
0.42800000309944	0.58533716201782	-0.80191045999527	73.000000000000	0.0000000000000
0.43200001120567	0.57804435491562	-0.80674988031387	73.000000000000	0.0000000000000
0.43599998950958	0.57070934772491	-0.81150829792023	73.000000000000	0.0000000000000
0.43999999761581	0.56333333253860	-0.81618547439575	73.000000000000	0.0000000000000
0.44400000572205	0.55591791868210	-0.82078111171722	73.000000000000	0.0000000000000
0.44800001382828	0.54846447706223	-0.82529479265213	73.000000000000	0.0000000000000
0.45199999213219	0.54097437858582	-0.82972645759583	73.000000000000	0.0000000000000
0.45600000023842	0.53344881534576	-0.83407592773438	73.000000000000	0.0000000000000
0.46000000834465	0.52588927745819	-0.83834332227707	73.000000000000	0.0000000000000
0.46399998664856	0.51829725503922	-0.84252822399139	73.000000000000	0.0000000000000
0.46799999475479	0.51067358255386	-0.84663110971451	73.000000000000	0.0000000000000
0.47200000286102	0.50301986932755	-0.85065186023712	73.000000000000	0.0000000000000
0.47600001096725	0.49533715844154	-0.85459065437317	73.000000000000	0.0000000000000
0.47999998927116	0.48762667179108	-0.85844767093658	73.000000000000	0.0000000000000
0.48399999737740	0.47988948225975	-0.86222302913666	73.000000000000	0.0000000000000
0.48800000548363	0.47212675213814	-0.86591696739197	73.000000000000	0.0000000000000
0.49200001358986	0.46433949470520	-0.86952990293503	73.000000000000	0.0000000000000
0.49599999189377	0.45652869343758	-0.87306219339371	73.000000000000	0.0000000000000
0.50000000000000	0.44869494438171	-0.87651395797729	73.000000000000	0.0000000000000
0.50400000810623	0.44083985686302	-0.87988555431366	73.000000000000	0.0000000000000
0.50800001621246	0.43296331167221	-0.88317745923996	73.000000000000	0.0000000000000
0.51200002431870	0.42506685853004	-0.88639008998871	73.000000000000	0.0000000000000
0.51599997282028	0.41715097427368	-0.88952368497849	73.000000000000	0.0000000000000
0.51999998092651	0.40921601653099	-0.89257872104645	73.000000000000	0.0000000000000
0.52399998903275	0.40126276016235	-0.89555555582047	73.000000000000	0.0000000000000
0.52799999713898	0.39329180121422	-0.89845448732376	73.000000000000	0.0000000000000
0.53200000524521	0.38530391454697	-0.90127587318420	73.000000000000	0.0000000000000
0.53600001335144	0.37729892134666	-0.90402013063431	73.000000000000	0.0000000000000
0.54000002145767	0.36927780508995	-0.90668737888336	73.000000000000	0.0000000000000
0.54400002956390	0.36124035716057	-0.90927821397781	73.000000000000	0.0000000000000
0.54799997806549	0.35318717360497	-0.91179251670837	73.000000000000	0.0000000000000
0.55199998617172	0.34511840343475	-0.91423082351685	73.000000000000	0.0000000000000
0.55599999427795	0.33703455328941	-0.91659319400787	73.000000000000	0.0000000000000
0.56000000238419	0.32893529534340	-0.91887962818146	73.000000000000	0.0000000000000
0.56400001049042	0.32082137465477	-0.92109042406082	73.000000000000	0.0000000000000
0.56800001859665	0.31269240379333	-0.92322552204132	73.000000000000	0.0000000000000
0.57200002670288	0.30454882979393	-0.92528504133224	73.000000000000	0.0000000000000
0.57599997520447	0.29639050364494	-0.92726874351501	73.000000000000	0.0000000000000
0.57999998331070	0.28821766376495	-0.92917656898499	73.000000000000	0.0000000000000
0.58399999141693	0.28003007173538	-0.93100857734680	73.000000000000	0.0000000000000
0.58799999952316	0.27182796597481	-0.93276435136795	73.000000000000	0.0000000000000
0.59200000762939	0.26361182332039	-0.93444353342056	73.000000000000	0.0000000000000
0.59600001573563	0.25538083910942	-0.93604600429535	73.000000000000	0.0000000000000
0.60000002384186	0.24713580310345	-0.93757122755051	73.000000000000	0.0000000000000
0.60399997234344	0.23887622356415	-0.93901884555817	73.000000000000	0.0000000000000
0.60799998044968	0.23060256242752	-0.94038826227188	73.000000000000	0.0000000000000
0.61199998855591	0.22231476008892	-0.94167906045914	73.000000000000	0.0000000000000
0.61599999666214	0.21401335299015	-0.94289052486420	73.000000000000	0.0000000000000
0.62000000476837	0.20569787919521	-0.94402194023132	73.000000000000	0.0000000000000
0.62400001287460	0.19736887514591	-0.94507277011871	73.000000000000	0.0000000000000
0.62800002098083	0.18902678787708	-0.94604206085205	73.000000000000	0.0000000000000
0.63200002908707	0.18067176640034	-0.94692921638489	73.000000000000	0.0000000000000
0.63599997758865	0.17230404913425	-0.94773328304291	73.000000000000	0.0000000000000
0.63999998569489	0.16392400860786	-0.94845330715179	73.000000000000	0.0000000000000
0.64399999380112	0.15553204715252	-0.94908845424652	73.000000000000	0.0000000000000
0.64800000190735	0.14712989330292	-0.94963777065277	73.000000000000	0.0000000000000
0.65200001001358	0.13871617615223	-0.95010030269623	73.000000000000	0.0000000000000
0.65600001811981	0.13029268383980	-0.95047503709793	73.000000000000	0.0000000000000
0.66000002622604	0.12185993045568	-0.95076096057892	73.000000000000	0.0000000000000
0.66399997472763	0.11341929435730	-0.95095700025558	73.000000000000	0.0000000000000
0.66799998283386	0.10497091710567	-0.95106226205826	73.000000000000	0.0000000000000
0.67199999094009	0.096516273915768	-0.95107561349869	73.000000000000	0.0000000000000
0.67599999904633	0.088055536150932	-0.95099622011185	73.000000000000	0.0000000000000
0.68000000715256	0.079590238630772	-0.95082294940948	73.000000000000	0.0000000000000
0.68400001525879	0.071121998131275	-0.95055472850800	73.000000000000	0.0000000000000
0.68800002336502	0.062651969492435	-0.95019072294235	73.000000000000	0.0000000000000
0.69199997186661	0.054181363433599	-0.94972991943359	73.000000000000	0.0000000000000
0.69599997997284	0.045710969716311	-0.94917154312134	73.000000000000	0.0000000000000
0.69999998807907	0.037243414670229	-0.94851469993591	73.000000000000	0.0000000000000
0.70399999618530	0.028779547661543	-0.94775837659836	73.000000000000	0.0000000000000
0.70800000429153	0.020320694893599	-0.94690203666687	73.000000000000	0.0000000000000
0.71200001239777	0.011868673376739	-0.94594490528107	73.000000000000	0.0000000000000
0.71600002050400	0.0034257646184415	-0.94488632678986	73.000000000000	0.0000000000000
0.72000002861023	-0.0050066211260855	-0.94372570514679	73.000000000000	0.0000000000000
0.72399997711182	-0.013426602818072	-0.94246250391006	73.000000000000	0.0000000000000
0.72799998521805	-0.021831389516592	-0.94109648466110	73.000000000000	0.0000000000000
0.73199999332428	-0.030221300199628	-0.93962687253952	73.000000000000	0.0000000000000
0.73600000143051	-0.038592621684074	-0.93805378675461	73.000000000000	0.0000000000000
0.74000000953674	-0.046943411231041	-0.93637681007385	73.000000000000	0.0000000000000
0.74400001764297	-0.055272173136473	-0.93459606170654	73.000000000000	0.0000000000000
0.74800002574921	-0.063576951622963	-0.93271112442017	73.000000000000	0.0000000000000
0.75199997425079	-0.071855343878269	-0.93072247505188	73.000000000000	0.0000000000000
0.75599998235703	-0.080105409026146	-0.92862999439240	73.000000000000	0.0000000000000
0.75999999046326	-0.088324755430222	-0.92643409967422	73.000000000000	0.0000000000000
0.76399999856949	-0.096511885523796	-0.92413508892059	73.000000000000	0.0000000000000
0.76800000667572	-0.10466401278973	-0.92173343896866	73.000000000000	0.0000000000000
0.77200001478195	-0.11278008669615	-0.91922962665558	73.000000000000	0.0000000000000
0.77600002288818	-0.12085688859224	-0.91662424802780	73.000000000000	0.0000000000000
0.77999997138977	-0.12889388203621	-0.91391807794571	73.000000000000	0.0000000000000
0.78399997949600	-0.13688795268536	-0.91111201047897	73.000000000000	0.0000000000000
0.78799998760223	-0.14483763277531	-0.90820682048798	73.000000000000	0.0000000000000
0.79199999570847	-0.15274119377136	-0.90520352125168	73.000000000000	0.0000000000000
0.79600000381470	-0.16059686243534	-0.90210306644440	73.000000000000	0.0000000000000
0.80000001192093	-0.16840253770351	-0.89890682697296	73.000000000000	0.0000000000000
0.80400002002716	-0.17615731060505	-0.89561581611633	73.000000000000	0.0000000000000
0.80800002813339	-0.18385875225067	-0.89223122596741	73.000000000000	0.0000000000000
0.81199997663498	-0.19150565564632	-0.88875466585159	73.000000000000	0.0000000000000
0.81599998474121	-0.19909691810608	-0.88518732786179	73.000000000000	0.0000000000000
0.81999999284744	-0.20663098990917	-0.88153064250946	73.000000000000	0.0000000000000
0.82400000095367	-0.21410602331161	-0.87778627872467	73.000000000000	0.0000000000000
0.82800000905991	-0.22152222692966	-0.87395542860031	73.000000000000	0.0000000000000
0.83200001716614	-0.22887785732746	-0.87003976106644	73.000000000000	0.0000000000000
0.83600002527237	-0.23617152869701	-0.86604094505310	73.000000000000	0.0000000000000
0.83999997377396	-0.24340322613716	-0.86196041107178	73.000000000000	0.0000000000000
0.84399998188019	-0.25057172775269	-0.85779988765717	73.000000000000	0.0000000000000
0.84799998998642	-0.25767657160759	-0.85356080532074	73.000000000000	0.0000000000000
0.85199999809265	-0.26471707224846	-0.84924477338791	73.000000000000	0.0000000000000
0.85600000619888	-0.27169287204742	-0.84485328197479	73.000000000000	0.0000000000000
0.86000001430511	-0.27860376238823	-0.84038800001144	73.000000000000	0.0000000000000
0.86400002241135	-0.28544938564301	-0.83585023880005	73.000000000000	0.0000000000000
0.86799997091293	-0.29222962260246	-0.83124148845673	73.000000000000	0.0000000000000
0.87199997901917	-0.29894500970840	-0.82656306028366	73.000000000000	0.0000000000000
0.87599998712540	-0.30559456348419	-0.82181662321091	73.000000000000	0.0000000000000
0.87999999523163	-0.31217932701111	-0.81700307130814	73.000000000000	0.0000000000000
0.88400000333786	-0.31869912147522	-0.81212359666824	73.000000000000	0.0000000000000
0.88800001144409	-0.32515460252762	-0.80717939138412	73.000000000000	0.0000000000000
0.89200001955032	-0.33154588937759	-0.80217140913010	73.000000000000	0.0000000000000
0.89600002765656	-0.33787330985069	-0.79710072278976	73.000000000000	0.0000000000000
0.89999997615814	-0.34413787722588	-0.79196798801422	73.000000000000	0.0000000000000
0.90399998426437	-0.35033959150314	-0.78677392005920	73.000000000000	0.0000000000000
0.90799999237061	-0.35647955536842	-0.78151911497116	73.000000000000	0.0000000000000
0.91200000047684	-0.36255812644958	-0.77620398998260	73.000000000000	0.0000000000000
0.91600000858307	-0.36857628822327	-0.77082890272141	73.000000000000	0.0000000000000
0.92000001668930	-0.37453430891037	-0.76539421081543	73.000000000000	0.0000000000000
0.92400002479553	-0.38043296337128	-0.75989985466003	73.000000000000	0.0000000000000
0.92799997329712	-0.38627293705940	-0.75434595346451	73.000000000000	0.0000000000000
0.93199998140335	-0.39205548167229	-0.74873185157776	73.000000000000	0.0000000000000
