#Parameters = {d=70; L=50}
#"Frequency / GHz"	"S1,1 (d=70) [Re]"	"S1,1 (d=70) [Im]"	"Ref.Imp. [Re]"	"Ref.Imp. [Im]"
#---------------------------------------------------------------------------------------
0.0000000000000	0.99625462293625	-0.0000000000000	73.000000000000	0.0000000000000
0.0040000001899898	0.99622011184692	-0.0087102297693491	73.000000000000	0.0000000000000
0.0080000003799796	0.99611687660217	-0.017420383170247	73.000000000000	0.0000000000000
0.012000000104308	0.99594449996948	-0.026130372658372	73.000000000000	0.0000000000000
0.016000000759959	0.99570327997208	-0.034840121865273	73.000000000000	0.0000000000000
0.019999999552965	0.99539273977280	-0.043549530208111	73.000000000000	0.0000000000000
0.024000000208616	0.99501287937164	-0.052258487790823	73.000000000000	0.0000000000000
0.028000000864267	0.99456351995468	-0.060966875404119	73.000000000000	0.0000000000000
0.032000001519918	0.99404430389404	-0.069674551486969	73.000000000000	0.0000000000000
0.035999998450279	0.99345511198044	-0.078381367027760	73.000000000000	0.0000000000000
0.039999999105930	0.99279540777206	-0.087087109684944	73.000000000000	0.0000000000000
0.043999999761581	0.99206513166428	-0.095791615545750	73.000000000000	0.0000000000000
0.048000000417233	0.99126362800598	-0.10449462383986	73.000000000000	0.0000000000000
0.052000001072884	0.99039083719254	-0.11319587379694	73.000000000000	0.0000000000000
0.056000001728535	0.98944604396820	-0.12189505994320	73.000000000000	0.0000000000000
0.059999998658895	0.98842895030975	-0.13059186935425	73.000000000000	0.0000000000000
0.064000003039837	0.98733907938004	-0.13928590714931	73.000000000000	0.0000000000000
0.068000003695488	0.98617595434189	-0.14797683060169	73.000000000000	0.0000000000000
0.071999996900558	0.98493915796280	-0.15666411817074	73.000000000000	0.0000000000000
0.075999997556210	0.98362803459167	-0.16534733772278	73.000000000000	0.0000000000000
0.079999998211861	0.98224216699600	-0.17402595281601	73.000000000000	0.0000000000000
0.083999998867512	0.98078095912933	-0.18269939720631	73.000000000000	0.0000000000000
0.087999999523163	0.97924399375916	-0.19136704504490	73.000000000000	0.0000000000000
0.092000000178814	0.97763073444366	-0.20002828538418	73.000000000000	0.0000000000000
0.096000000834465	0.97594058513641	-0.20868238806725	73.000000000000	0.0000000000000
0.10000000149012	0.97417306900024	-0.21732860803604	73.000000000000	0.0000000000000
0.10400000214577	0.97232776880264	-0.22596617043018	73.000000000000	0.0000000000000
0.10800000280142	0.97040402889252	-0.23459427058697	73.000000000000	0.0000000000000
0.11200000345707	0.96840149164200	-0.24321202933788	73.000000000000	0.0000000000000
0.11599999666214	0.96631956100464	-0.25181847810745	73.000000000000	0.0000000000000
0.11999999731779	0.96415805816650	-0.26041275262833	73.000000000000	0.0000000000000
0.12399999797344	0.96191638708115	-0.26899379491806	73.000000000000	0.0000000000000
0.12800000607967	0.95959413051605	-0.27756065130234	73.000000000000	0.0000000000000
0.13199999928474	0.95719099044800	-0.28611212968826	73.000000000000	0.0000000000000
0.13600000739098	0.95470654964447	-0.29464715719223	73.000000000000	0.0000000000000
0.14000000059605	0.95214051008224	-0.30316469073296	73.000000000000	0.0000000000000
0.14399999380112	0.94949275255203	-0.31166341900826	73.000000000000	0.0000000000000
0.14800000190735	0.94676291942596	-0.32014220952988	73.000000000000	0.0000000000000
0.15199999511242	0.94395089149475	-0.32859984040260	73.000000000000	0.0000000000000
0.15600000321865	0.94105666875839	-0.33703505992889	73.000000000000	0.0000000000000
0.15999999642372	0.93807977437973	-0.34544655680656	73.000000000000	0.0000000000000
0.16400000452995	0.93502056598663	-0.35383301973343	73.000000000000	0.0000000000000
0.16799999773502	0.93187880516052	-0.36219322681427	73.000000000000	0.0000000000000
0.17200000584126	0.92865455150604	-0.37052571773529	73.000000000000	0.0000000000000
0.17599999904633	0.92534798383713	-0.37882918119431	73.000000000000	0.0000000000000
0.18000000715256	0.92195922136307	-0.38710239529610	73.000000000000	0.0000000000000
0.18400000035763	0.91848844289780	-0.39534381031990	73.000000000000	0.0000000000000
0.18799999356270	0.91493594646454	-0.40355217456818	73.000000000000	0.0000000000000
0.19200000166893	0.91130197048187	-0.41172614693642	73.000000000000	0.0000000000000
0.19599999487400	0.90758681297302	-0.41986435651779	73.000000000000	0.0000000000000
0.20000000298023	0.90379118919373	-0.42796540260315	73.000000000000	0.0000000000000
0.20399999618530	0.89991497993469	-0.43602800369263	73.000000000000	0.0000000000000
0.20800000429153	0.89595931768417	-0.44405084848404	73.000000000000	0.0000000000000
0.21199999749660	0.89192438125610	-0.45203259587288	73.000000000000	0.0000000000000
0.21600000560284	0.88781076669693	-0.45997196435928	73.000000000000	0.0000000000000
0.21999999880791	0.88361924886703	-0.46786767244339	73.000000000000	0.0000000000000
0.22400000691414	0.87935048341751	-0.47571852803230	73.000000000000	0.0000000000000
0.22800000011921	0.87500536441803	-0.48352333903313	73.000000000000	0.0000000000000
0.23199999332428	0.87058436870575	-0.49128082394600	73.000000000000	0.0000000000000
0.23600000143051	0.86608868837357	-0.49898990988731	73.000000000000	0.0000000000000
0.23999999463558	0.86151874065399	-0.50664949417114	73.000000000000	0.0000000000000
0.24400000274181	0.85687571763992	-0.51425838470459	73.000000000000	0.0000000000000
0.24799999594688	0.85216057300568	-0.52181571722031	73.000000000000	0.0000000000000
0.25200000405312	0.84737408161163	-0.52932035923004	73.000000000000	0.0000000000000
0.25600001215935	0.84251743555069	-0.53677147626877	73.000000000000	0.0000000000000
0.25999999046326	0.83759152889252	-0.54416805505753	73.000000000000	0.0000000000000
0.26399999856949	0.83259743452072	-0.55150938034058	73.000000000000	0.0000000000000
0.26800000667572	0.82753604650497	-0.55879449844360	73.000000000000	0.0000000000000
0.27200001478195	0.82240879535675	-0.56602269411087	73.000000000000	0.0000000000000
0.27599999308586	0.81721645593643	-0.57319319248199	73.000000000000	0.0000000000000
0.28000000119209	0.81196022033691	-0.58030545711517	73.000000000000	0.0000000000000
0.28400000929832	0.80664116144180	-0.58735883235931	73.000000000000	0.0000000000000
0.28799998760223	0.80126059055328	-0.59435266256332	73.000000000000	0.0000000000000
0.29199999570847	0.79581922292709	-0.60128647089005	73.000000000000	0.0000000000000
0.29600000381470	0.79031854867935	-0.60815984010696	73.000000000000	0.0000000000000
0.30000001192093	0.78475964069366	-0.61497235298157	73.000000000000	0.0000000000000
0.30399999022484	0.77914333343506	-0.62172359228134	73.000000000000	0.0000000000000
0.30799999833107	0.77347075939178	-0.62841320037842	73.000000000000	0.0000000000000
0.31200000643730	0.76774322986603	-0.63504111766815	73.000000000000	0.0000000000000
0.31600001454353	0.76196157932281	-0.64160692691803	73.000000000000	0.0000000000000
0.31999999284744	0.75612682104111	-0.64811044931412	73.000000000000	0.0000000000000
0.32400000095367	0.75024014711380	-0.65455162525177	73.000000000000	0.0000000000000
0.32800000905991	0.74430227279663	-0.66093009710312	73.000000000000	0.0000000000000
0.33199998736382	0.73831421136856	-0.66724616289139	73.000000000000	0.0000000000000
0.33599999547005	0.73227715492249	-0.67349958419800	73.000000000000	0.0000000000000
0.34000000357628	0.72619152069092	-0.67969036102295	73.000000000000	0.0000000000000
0.34400001168251	0.72005856037140	-0.68581849336624	73.000000000000	0.0000000000000
0.34799998998642	0.71387887001038	-0.69188421964645	73.000000000000	0.0000000000000
0.35199999809265	0.70765316486359	-0.69788736104965	73.000000000000	0.0000000000000
0.35600000619888	0.70138245820999	-0.70382815599442	73.000000000000	0.0000000000000
0.36000001430511	0.69506710767746	-0.70970672369003	73.000000000000	0.0000000000000
0.36399999260902	0.68870794773102	-0.71552318334579	73.000000000000	0.0000000000000
0.36800000071526	0.68230563402176	-0.72127771377563	73.000000000000	0.0000000000000
0.37200000882149	0.67586064338684	-0.72697043418884	73.000000000000	0.0000000000000
0.37599998712540	0.66937339305878	-0.73260140419006	73.000000000000	0.0000000000000
0.37999999523163	0.66284435987473	-0.73817098140717	73.000000000000	0.0000000000000
0.38400000333786	0.65627408027649	-0.74367916584015	73.000000000000	0.0000000000000
0.38800001144409	0.64966315031052	-0.74912607669830	73.000000000000	0.0000000000000
0.39199998974800	0.64301139116287	-0.75451201200485	73.000000000000	0.0000000000000
0.39599999785423	0.63631933927536	-0.75983703136444	73.000000000000	0.0000000000000
0.40000000596046	0.62958747148514	-0.76510125398636	73.000000000000	0.0000000000000
0.40400001406670	0.62281572818756	-0.77030473947525	73.000000000000	0.0000000000000
0.40799999237061	0.61600428819656	-0.77544760704041	73.000000000000	0.0000000000000
0.41200000047684	0.60915344953537	-0.78052979707718	73.000000000000	0.0000000000000
0.41600000858307	0.60226297378540	-0.78555142879486	73.000000000000	0.0000000000000
0.41999998688698	0.59533339738846	-0.79051256179810	73.000000000000	0.0000000000000
0.42399999499321	0.58836454153061	-0.79541307687759	73.000000000000	0.0000000000000
0.42800000309944	0.58135640621185	-0.80025279521942	73.000000000000	0.0000000000000
0.43200001120567	0.57430875301361	-0.80503177642822	73.000000000000	0.0000000000000
0.43599998950958	0.56722205877304	-0.80974978208542	73.000000000000	0.0000000000000
0.43999999761581	0.56009578704834	-0.81440663337708	73.000000000000	0.0000000000000
0.44400000572205	0.55293023586273	-0.81900209188461	73.000000000000	0.0000000000000
0.44800001382828	0.54572486877441	-0.82353585958481	73.000000000000	0.0000000000000
0.45199999213219	0.53847992420197	-0.82800763845444	73.000000000000	0.0000000000000
0.45600000023842	0.53119528293610	-0.83241695165634	73.000000000000	0.0000000000000
0.46000000834465	0.52387070655823	-0.83676344156265	73.000000000000	0.0000000000000
0.46399998664856	0.51650613546371	-0.84104651212692	73.000000000000	0.0000000000000
0.46799999475479	0.50910145044327	-0.84526592493057	73.000000000000	0.0000000000000
0.47200000286102	0.50165659189224	-0.84942084550858	73.000000000000	0.0000000000000
0.47600001096725	0.49417141079903	-0.85351067781448	73.000000000000	0.0000000000000
0.47999998927116	0.48664587736130	-0.85753494501114	73.000000000000	0.0000000000000
0.48399999737740	0.47908002138138	-0.86149257421494	73.000000000000	0.0000000000000
0.48800000548363	0.47147357463837	-0.86538302898407	73.000000000000	0.0000000000000
0.49200001358986	0.46382674574852	-0.86920553445816	73.000000000000	0.0000000000000
0.49599999189377	0.45613950490952	-0.87295895814896	73.000000000000	0.0000000000000
0.50000000000000	0.44841170310974	-0.87664276361465	73.000000000000	0.0000000000000
0.50400000810623	0.44064408540726	-0.88025557994843	73.000000000000	0.0000000000000
0.50800001621246	0.43283599615097	-0.88379675149918	73.000000000000	0.0000000000000
0.51200002431870	0.42498803138733	-0.88726502656937	73.000000000000	0.0000000000000
0.51599997282028	0.41710039973259	-0.89065945148468	73.000000000000	0.0000000000000
0.51999998092651	0.40917330980301	-0.89397895336151	73.000000000000	0.0000000000000
0.52399998903275	0.40120705962181	-0.89722222089767	73.000000000000	0.0000000000000
0.52799999713898	0.39320191740990	-0.90038830041885	73.000000000000	0.0000000000000
0.53200000524521	0.38515865802765	-0.90347599983215	73.000000000000	0.0000000000000
0.53600001335144	0.37707751989365	-0.90648394823074	73.000000000000	0.0000000000000
0.54000002145767	0.36895918846130	-0.90941119194031	73.000000000000	0.0000000000000
0.54400002956390	0.36080422997475	-0.91225624084473	73.000000000000	0.0000000000000
0.54799997806549	0.35261332988739	-0.91501796245575	73.000000000000	0.0000000000000
0.55199998617172	0.34438708424568	-0.91769516468048	73.000000000000	0.0000000000000
0.55599999427795	0.33612629771233	-0.92028647661209	73.000000000000	0.0000000000000
0.56000000238419	0.32783216238022	-0.92279088497162	73.000000000000	0.0000000000000
0.56400001049042	0.31950548291206	-0.92520689964294	73.000000000000	0.0000000000000
0.56800001859665	0.31114700436592	-0.92753338813782	73.000000000000	0.0000000000000
0.57200002670288	0.30275833606720	-0.92976927757263	73.000000000000	0.0000000000000
0.57599997520447	0.29434013366699	-0.93191331624985	73.000000000000	0.0000000000000
0.57999998331070	0.28589376807213	-0.93396413326263	73.000000000000	0.0000000000000
0.58399999141693	0.27742069959641	-0.93592089414597	73.000000000000	0.0000000000000
0.58799999952316	0.26892170310020	-0.93778234720230	73.000000000000	0.0000000000000
0.59200000762939	0.26039898395538	-0.93954753875732	73.000000000000	0.0000000000000
0.59600001573563	0.25185313820839	-0.94121533632278	73.000000000000	0.0000000000000
0.60000002384186	0.24328617751598	-0.94278478622437	73.000000000000	0.0000000000000
0.60399997234344	0.23469975590706	-0.94425499439240	73.000000000000	0.0000000000000
0.60799998044968	0.22609548270702	-0.94562512636185	73.000000000000	0.0000000000000
0.61199998855591	0.21747457981110	-0.94689428806305	73.000000000000	0.0000000000000
0.61599999666214	0.20883919298649	-0.94806170463562	73.000000000000	0.0000000000000
0.62000000476837	0.20019060373306	-0.94912672042847	73.000000000000	0.0000000000000
0.62400001287460	0.19153124094009	-0.95008867979050	73.000000000000	0.0000000000000
0.62800002098083	0.18286243081093	-0.95094698667526	73.000000000000	0.0000000000000
0.63200002908707	0.17418646812439	-0.95170128345490	73.000000000000	0.0000000000000
0.63599997758865	0.16550464928150	-0.95235097408295	73.000000000000	0.0000000000000
0.63999998569489	0.15681904554367	-0.95289576053619	73.000000000000	0.0000000000000
0.64399999380112	0.14813244342804	-0.95333522558212	73.000000000000	0.0000000000000
0.64800000190735	0.13944536447525	-0.95366942882538	73.000000000000	0.0000000000000
0.65200001001358	0.13076098263264	-0.95389807224274	73.000000000000	0.0000000000000
0.65600001811981	0.12208081036806	-0.95402109622955	73.000000000000	0.0000000000000
0.66000002622604	0.11340619623661	-0.95403856039047	73.000000000000	0.0000000000000
0.66399997472763	0.10473954677582	-0.95395070314407	73.000000000000	0.0000000000000
0.66799998283386	0.096083648502827	-0.95375734567642	73.000000000000	0.0000000000000
0.67199999094009	0.087438553571701	-0.95345914363861	73.000000000000	0.0000000000000
0.67599999904633	0.078807979822159	-0.95305609703064	73.000000000000	0.0000000000000
0.68000000715256	0.070192895829678	-0.95254892110825	73.000000000000	0.0000000000000
0.68400001525879	0.061595607548952	-0.95193779468536	73.000000000000	0.0000000000000
0.68800002336502	0.053017079830170	-0.95122343301773	73.000000000000	0.0000000000000
0.69199997186661	0.044460043311119	-0.95040643215179	73.000000000000	0.0000000000000
0.69599997997284	0.035925876349211	-0.94948750734329	73.000000000000	0.0000000000000
0.69999998807907	0.027416381984949	-0.94846725463867	73.000000000000	0.0000000000000
0.70399999618530	0.018932888284326	-0.94734674692154	73.000000000000	0.0000000000000
0.70800000429153	0.010476708412170	-0.94612652063370	73.000000000000	0.0000000000000
0.71200001239777	0.0020504824351519	-0.94480770826340	73.000000000000	0.0000000000000
0.71600002050400	-0.0063454299233854	-0.94339126348495	73.000000000000	0.0000000000000
0.72000002861023	-0.014709344133735	-0.94187813997269	73.000000000000	0.0000000000000
0.72399997711182	-0.023039598017931	-0.94026929140091	73.000000000000	0.0000000000000
0.72799998521805	-0.031335014849901	-0.93856602907181	73.000000000000	0.0000000000000
0.73199999332428	-0.039594445377588	-0.93676930665970	73.000000000000	0.0000000000000
0.73600000143051	-0.047817207872868	-0.93488025665283	73.000000000000	0.0000000000000
0.74000000953674	-0.056001767516136	-0.93290007114410	73.000000000000	0.0000000000000
0.74400001764297	-0.064147502183914	-0.93082988262177	73.000000000000	0.0000000000000
0.74800002574921	-0.072252929210663	-0.92867106199265	73.000000000000	0.0000000000000
0.75199997425079	-0.080317504703999	-0.92642462253571	73.000000000000	0.0000000000000
0.75599998235703	-0.088341541588306	-0.92409163713455	73.000000000000	0.0000000000000
0.75999999046326	-0.096322812139988	-0.92167365550995	73.000000000000	0.0000000000000
0.76399999856949	-0.10426168143749	-0.91917151212692	73.000000000000	0.0000000000000
0.76800000667572	-0.11215768009424	-0.91658645868301	73.000000000000	0.0000000000000
0.77200001478195	-0.12000952661037	-0.91391974687576	73.000000000000	0.0000000000000
0.77600002288818	-0.12781767547131	-0.91117238998413	73.000000000000	0.0000000000000
0.77999997138977	-0.13558211922646	-0.90834516286850	73.000000000000	0.0000000000000
0.78399997949600	-0.14330209791660	-0.90543949604034	73.000000000000	0.0000000000000
0.78799998760223	-0.15097722411156	-0.90245628356934	73.000000000000	0.0000000000000
0.79199999570847	-0.15860840678215	-0.89939624071121	73.000000000000	0.0000000000000
0.79600000381470	-0.16619491577148	-0.89626038074493	73.000000000000	0.0000000000000
0.80000001192093	-0.17373679578304	-0.89304947853088	73.000000000000	0.0000000000000
0.80400002002716	-0.18123416602612	-0.88976430892944	73.000000000000	0.0000000000000
0.80800002813339	-0.18868751823902	-0.88640558719635	73.000000000000	0.0000000000000
0.81199997663498	-0.19609692692757	-0.88297373056412	73.000000000000	0.0000000000000
0.81599998474121	-0.20346291363239	-0.87946927547455	73.000000000000	0.0000000000000
0.81999999284744	-0.21078465878963	-0.87589293718338	73.000000000000	0.0000000000000
0.82400000095367	-0.21806387603283	-0.87224465608597	73.000000000000	0.0000000000000
0.82800000905991	-0.22529979050159	-0.86852502822876	73.000000000000	0.0000000000000
0.83200001716614	-0.23249317705631	-0.86473393440247	73.000000000000	0.0000000000000
0.83600002527237	-0.23964443802834	-0.86087179183960	73.000000000000	0.0000000000000
0.83999997377396	-0.24675349891186	-0.85693830251694	73.000000000000	0.0000000000000
0.84399998188019	-0.25382152199745	-0.85293346643448	73.000000000000	0.0000000000000
0.84799998998642	-0.26084825396538	-0.84885692596436	73.000000000000	0.0000000000000
0.85199999809265	-0.26783362030983	-0.84470868110657	73.000000000000	0.0000000000000
0.85600000619888	-0.27477893233299	-0.84048801660538	73.000000000000	0.0000000000000
0.86000001430511	-0.28168347477913	-0.83619475364685	73.000000000000	0.0000000000000
0.86400002241135	-0.28854766488075	-0.83182799816132	73.000000000000	0.0000000000000
0.86799997091293	-0.29537191987038	-0.82738727331161	73.000000000000	0.0000000000000
0.87199997901917	-0.30215612053871	-0.82287162542343	73.000000000000	0.0000000000000
0.87599998712540	-0.30890050530434	-0.81828022003174	73.000000000000	0.0000000000000
0.87999999523163	-0.31560477614403	-0.81361222267151	73.000000000000	0.0000000000000
0.88400000333786	-0.32226866483688	-0.80886667966843	73.000000000000	0.0000000000000
0.88800001144409	-0.32889246940613	-0.80404222011566	73.000000000000	0.0000000000000
0.89200001955032	-0.33547535538673	-0.79913789033890	73.000000000000	0.0000000000000
0.89600002765656	-0.34201741218567	-0.79415214061737	73.000000000000	0.0000000000000
0.89999997615814	-0.34851795434952	-0.78908377885818	73.000000000000	0.0000000000000
0.90399998426437	-0.35497584939003	-0.78393179178238	73.000000000000	0.0000000000000
0.90799999237061	-0.36139088869095	-0.77869421243668	73.000000000000	0.0000000000000
0.91200000047684	-0.36776247620583	-0.77336961030960	73.000000000000	0.0000000000000
0.91600000858307	-0.37408909201622	-0.76795679330826	73.000000000000	0.0000000000000
0.92000001668930	-0.38036987185478	-0.76245397329330	73.000000000000	0.0000000000000
0.92400002479553	-0.38660347461700	-0.75685954093933	73.000000000000	0.0000000000000
0.92799997329712	-0.39278849959373	-0.75117206573486	73.000000000000	0.0000000000000
0.93199998140335	-0.39892321825027	-0.74538987874985	73.000000000000	0.0000000000000
