#Parameters = {D=8; L=80; d_a=10; e_m=9; e_s=30; gap=1.5; m_x=30; m_y=40; m_z=100; mu_m=1; mu_s=1; s_d=2}
#"Frequency / GHz"	"S1,1 [Re]"	"S1,1 [Im]"	"Ref.Imp. [Re]"	"Ref.Imp. [Im]"
#-------------------------------------------------------------------------
0.0000000000000	1.0000000000000	-0.0000000000000	73.000000000000	0.0000000000000
0.0040000001899898	0.99992775917053	-0.011374196037650	73.000000000000	0.0000000000000
0.0080000003799796	0.99971127510071	-0.022745698690414	73.000000000000	0.0000000000000
0.012000000104308	0.99935066699982	-0.034111820161343	73.000000000000	0.0000000000000
0.016000000759959	0.99884611368179	-0.045469898730516	73.000000000000	0.0000000000000
0.019999999552965	0.99819827079773	-0.056817285716534	73.000000000000	0.0000000000000
0.024000000208616	0.99740761518478	-0.068151399493217	73.000000000000	0.0000000000000
0.028000000864267	0.99647468328476	-0.079469665884972	73.000000000000	0.0000000000000
0.032000001519918	0.99540024995804	-0.090769574046135	73.000000000000	0.0000000000000
0.035999998450279	0.99418526887894	-0.10204870998859	73.000000000000	0.0000000000000
0.039999999105930	0.99283069372177	-0.11330468207598	73.000000000000	0.0000000000000
0.043999999761581	0.99133753776550	-0.12453519552946	73.000000000000	0.0000000000000
0.048000000417233	0.98970681428909	-0.13573801517487	73.000000000000	0.0000000000000
0.052000001072884	0.98793995380402	-0.14691106975079	73.000000000000	0.0000000000000
0.056000001728535	0.98603826761246	-0.15805231034756	73.000000000000	0.0000000000000
0.059999998658895	0.98400306701660	-0.16915981471539	73.000000000000	0.0000000000000
0.064000003039837	0.98183566331863	-0.18023173511028	73.000000000000	0.0000000000000
0.068000003695488	0.97953754663467	-0.19126640260220	73.000000000000	0.0000000000000
0.071999996900558	0.97711044549942	-0.20226217806339	73.000000000000	0.0000000000000
0.075999997556210	0.97455543279648	-0.21321757137775	73.000000000000	0.0000000000000
0.079999998211861	0.97187453508377	-0.22413127124310	73.000000000000	0.0000000000000
0.083999998867512	0.96906906366348	-0.23500196635723	73.000000000000	0.0000000000000
0.087999999523163	0.96614074707031	-0.24582855403423	73.000000000000	0.0000000000000
0.092000000178814	0.96309089660645	-0.25661000609398	73.000000000000	0.0000000000000
0.096000000834465	0.95992124080658	-0.26734539866447	73.000000000000	0.0000000000000
0.10000000149012	0.95663315057755	-0.27803397178650	73.000000000000	0.0000000000000
0.10400000214577	0.95322841405869	-0.28867506980896	73.000000000000	0.0000000000000
0.10800000280142	0.94970810413361	-0.29926809668541	73.000000000000	0.0000000000000
0.11200000345707	0.94607371091843	-0.30981254577637	73.000000000000	0.0000000000000
0.11599999666214	0.94232660531998	-0.32030814886093	73.000000000000	0.0000000000000
0.11999999731779	0.93846809864044	-0.33075451850891	73.000000000000	0.0000000000000
0.12399999797344	0.93449908494949	-0.34115150570869	73.000000000000	0.0000000000000
0.12800000607967	0.93042093515396	-0.35149905085564	73.000000000000	0.0000000000000
0.13199999928474	0.92623442411423	-0.36179706454277	73.000000000000	0.0000000000000
0.13600000739098	0.92194062471390	-0.37204560637474	73.000000000000	0.0000000000000
0.14000000059605	0.91754013299942	-0.38224476575851	73.000000000000	0.0000000000000
0.14399999380112	0.91303372383118	-0.39239460229874	73.000000000000	0.0000000000000
0.14800000190735	0.90842193365097	-0.40249538421631	73.000000000000	0.0000000000000
0.15199999511242	0.90370523929596	-0.41254723072052	73.000000000000	0.0000000000000
0.15600000321865	0.89888387918472	-0.42255041003227	73.000000000000	0.0000000000000
0.15999999642372	0.89395821094513	-0.43250516057014	73.000000000000	0.0000000000000
0.16400000452995	0.88892817497253	-0.44241166114807	73.000000000000	0.0000000000000
0.16799999773502	0.88379371166229	-0.45227015018463	73.000000000000	0.0000000000000
0.17200000584126	0.87855476140976	-0.46208083629608	73.000000000000	0.0000000000000
0.17599999904633	0.87321102619171	-0.47184383869171	73.000000000000	0.0000000000000
0.18000000715256	0.86776196956635	-0.48155936598778	73.000000000000	0.0000000000000
0.18400000035763	0.86220711469650	-0.49122732877731	73.000000000000	0.0000000000000
0.18799999356270	0.85654580593109	-0.50084793567657	73.000000000000	0.0000000000000
0.19200000166893	0.85077738761902	-0.51042091846466	73.000000000000	0.0000000000000
0.19599999487400	0.84490102529526	-0.51994621753693	73.000000000000	0.0000000000000
0.20000000298023	0.83891546726227	-0.52942365407944	73.000000000000	0.0000000000000
0.20399999618530	0.83282011747360	-0.53885275125504	73.000000000000	0.0000000000000
0.20800000429153	0.82661348581314	-0.54823321104050	73.000000000000	0.0000000000000
0.21199999749660	0.82029420137405	-0.55756437778473	73.000000000000	0.0000000000000
0.21600000560284	0.81386142969131	-0.56684553623199	73.000000000000	0.0000000000000
0.21999999880791	0.80731356143951	-0.57607591152191	73.000000000000	0.0000000000000
0.22400000691414	0.80064916610718	-0.58525454998016	73.000000000000	0.0000000000000
0.22800000011921	0.79386693239212	-0.59438031911850	73.000000000000	0.0000000000000
0.23199999332428	0.78696507215500	-0.60345208644867	73.000000000000	0.0000000000000
0.23600000143051	0.77994239330292	-0.61246836185455	73.000000000000	0.0000000000000
0.23999999463558	0.77279722690582	-0.62142753601074	73.000000000000	0.0000000000000
0.24400000274181	0.76552784442902	-0.63032805919647	73.000000000000	0.0000000000000
0.24799999594688	0.75813311338425	-0.63916802406311	73.000000000000	0.0000000000000
0.25200000405312	0.75061130523682	-0.64794534444809	73.000000000000	0.0000000000000
0.25600001215935	0.74296087026596	-0.65665793418884	73.000000000000	0.0000000000000
0.25999999046326	0.73518073558807	-0.66530340909958	73.000000000000	0.0000000000000
0.26399999856949	0.72726887464523	-0.67387926578522	73.000000000000	0.0000000000000
0.26800000667572	0.71922451257706	-0.68238288164139	73.000000000000	0.0000000000000
0.27200001478195	0.71104609966278	-0.69081145524979	73.000000000000	0.0000000000000
0.27599999308586	0.70273274183273	-0.69916200637817	73.000000000000	0.0000000000000
0.28000000119209	0.69428300857544	-0.70743155479431	73.000000000000	0.0000000000000
0.28400000929832	0.68569636344910	-0.71561670303345	73.000000000000	0.0000000000000
0.28799998760223	0.67697173357010	-0.72371429204941	73.000000000000	0.0000000000000
0.29199999570847	0.66810834407806	-0.73172056674957	73.000000000000	0.0000000000000
0.29600000381470	0.65910547971725	-0.73963218927383	73.000000000000	0.0000000000000
0.30000001192093	0.64996290206909	-0.74744522571564	73.000000000000	0.0000000000000
0.30399999022484	0.64068043231964	-0.75515604019165	73.000000000000	0.0000000000000
0.30799999833107	0.63125759363174	-0.76276051998138	73.000000000000	0.0000000000000
0.31200000643730	0.62169444561005	-0.77025479078293	73.000000000000	0.0000000000000
0.31600001454353	0.61199140548706	-0.77763479948044	73.000000000000	0.0000000000000
0.31999999284744	0.60214847326279	-0.78489619493484	73.000000000000	0.0000000000000
0.32400000095367	0.59216648340225	-0.79203510284424	73.000000000000	0.0000000000000
0.32800000905991	0.58204597234726	-0.79904705286026	73.000000000000	0.0000000000000
0.33199998736382	0.57178777456284	-0.80592787265778	73.000000000000	0.0000000000000
0.33599999547005	0.56139314174652	-0.81267303228378	73.000000000000	0.0000000000000
0.34000000357628	0.55086326599121	-0.81927841901779	73.000000000000	0.0000000000000
0.34400001168251	0.54019939899445	-0.82573968172073	73.000000000000	0.0000000000000
0.34799998998642	0.52940332889557	-0.83205246925354	73.000000000000	0.0000000000000
0.35199999809265	0.51847690343857	-0.83821249008179	73.000000000000	0.0000000000000
0.35600000619888	0.50742191076279	-0.84421551227570	73.000000000000	0.0000000000000
0.36000001430511	0.49624085426331	-0.85005730390549	73.000000000000	0.0000000000000
0.36399999260902	0.48493558168411	-0.85573363304138	73.000000000000	0.0000000000000
0.36800000071526	0.47350931167603	-0.86124038696289	73.000000000000	0.0000000000000
0.37200000882149	0.46196413040161	-0.86657351255417	73.000000000000	0.0000000000000
0.37599998712540	0.45030304789543	-0.87172913551331	73.000000000000	0.0000000000000
0.37999999523163	0.43852916359901	-0.87670320272446	73.000000000000	0.0000000000000
0.38400000333786	0.42664536833763	-0.88149201869965	73.000000000000	0.0000000000000
0.38800001144409	0.41465535759926	-0.88609176874161	73.000000000000	0.0000000000000
0.39199998974800	0.40256240963936	-0.89049917459488	73.000000000000	0.0000000000000
0.39599999785423	0.39037030935287	-0.89471030235291	73.000000000000	0.0000000000000
0.40000000596046	0.37808251380920	-0.89872211217880	73.000000000000	0.0000000000000
0.40400001406670	0.36570239067078	-0.90253126621246	73.000000000000	0.0000000000000
0.40799999237061	0.35323497653008	-0.90613454580307	73.000000000000	0.0000000000000
0.41200000047684	0.34068307280540	-0.90952920913696	73.000000000000	0.0000000000000
0.41600000858307	0.32805177569389	-0.91271215677261	73.000000000000	0.0000000000000
0.41999998688698	0.31534466147423	-0.91568082571030	73.000000000000	0.0000000000000
0.42399999499321	0.30256623029709	-0.91843259334564	73.000000000000	0.0000000000000
0.42800000309944	0.28972107172012	-0.92096495628357	73.000000000000	0.0000000000000
0.43200001120567	0.27681267261505	-0.92327576875687	73.000000000000	0.0000000000000
0.43599998950958	0.26384654641151	-0.92536252737045	73.000000000000	0.0000000000000
0.43999999761581	0.25082647800446	-0.92722356319427	73.000000000000	0.0000000000000
0.44400000572205	0.23775711655617	-0.92885684967041	73.000000000000	0.0000000000000
0.44800001382828	0.22464303672314	-0.93026053905487	73.000000000000	0.0000000000000
0.45199999213219	0.21148844063282	-0.93143296241760	73.000000000000	0.0000000000000
0.45600000023842	0.19829846918583	-0.93237262964249	73.000000000000	0.0000000000000
0.46000000834465	0.18507747352123	-0.93307816982269	73.000000000000	0.0000000000000
0.46399998664856	0.17182978987694	-0.93354815244675	73.000000000000	0.0000000000000
0.46799999475479	0.15856009721756	-0.93378150463104	73.000000000000	0.0000000000000
0.47200000286102	0.14527307450771	-0.93377697467804	73.000000000000	0.0000000000000
0.47600001096725	0.13197281956673	-0.93353372812271	73.000000000000	0.0000000000000
0.47999998927116	0.11866416037083	-0.93305081129074	73.000000000000	0.0000000000000
0.48399999737740	0.10535171627998	-0.93232738971710	73.000000000000	0.0000000000000
0.48800000548363	0.092039696872234	-0.93136262893677	73.000000000000	0.0000000000000
0.49200001358986	0.078732609748840	-0.93015593290329	73.000000000000	0.0000000000000
0.49599999189377	0.065434575080872	-0.92870664596558	73.000000000000	0.0000000000000
0.50000000000000	0.052150625735521	-0.92701423168182	73.000000000000	0.0000000000000
0.50400000810623	0.038884509354830	-0.92507803440094	73.000000000000	0.0000000000000
0.50800001621246	0.025641145184636	-0.92289775609970	73.000000000000	0.0000000000000
0.51200002431870	0.012424401007593	-0.92047280073166	73.000000000000	0.0000000000000
0.51599997282028	-0.00076092197559774	-0.91780292987823	73.000000000000	0.0000000000000
0.51999998092651	-0.013910843059421	-0.91488772630692	73.000000000000	0.0000000000000
0.52399998903275	-0.027021097019315	-0.91172671318054	73.000000000000	0.0000000000000
0.52799999713898	-0.040087345987558	-0.90831959247589	73.000000000000	0.0000000000000
0.53200000524521	-0.053104754537344	-0.90466618537903	73.000000000000	0.0000000000000
0.53600001335144	-0.066069707274437	-0.90076601505280	73.000000000000	0.0000000000000
0.54000002145767	-0.078977182507515	-0.89661872386932	73.000000000000	0.0000000000000
0.54400002956390	-0.091823428869247	-0.89222407341003	73.000000000000	0.0000000000000
0.54799997806549	-0.10460326820612	-0.88758206367493	73.000000000000	0.0000000000000
0.55199998617172	-0.11731352657080	-0.88269168138504	73.000000000000	0.0000000000000
0.55599999427795	-0.12994801998138	-0.87755334377289	73.000000000000	0.0000000000000
0.56000000238419	-0.14250335097313	-0.87216627597809	73.000000000000	0.0000000000000
0.56400001049042	-0.15497435629368	-0.86653047800064	73.000000000000	0.0000000000000
0.56800001859665	-0.16735658049583	-0.86064553260803	73.000000000000	0.0000000000000
0.57200002670288	-0.17964498698711	-0.85451114177704	73.000000000000	0.0000000000000
0.57599997520447	-0.19183483719826	-0.84812712669373	73.000000000000	0.0000000000000
0.57999998331070	-0.20392088592052	-0.84149330854416	73.000000000000	0.0000000000000
0.58399999141693	-0.21589842438698	-0.83460932970047	73.000000000000	0.0000000000000
0.58799999952316	-0.22776192426682	-0.82747519016266	73.000000000000	0.0000000000000
0.59200000762939	-0.23950557410717	-0.82009071111679	73.000000000000	0.0000000000000
0.59600001573563	-0.25112506747246	-0.81245565414429	73.000000000000	0.0000000000000
0.60000002384186	-0.26261353492737	-0.80457031726837	73.000000000000	0.0000000000000
0.60399997234344	-0.27396586537361	-0.79643458127975	73.000000000000	0.0000000000000
0.60799998044968	-0.28517603874207	-0.78804868459702	73.000000000000	0.0000000000000
0.61199998855591	-0.29623815417290	-0.77941274642944	73.000000000000	0.0000000000000
0.61599999666214	-0.30714547634125	-0.77052724361420	73.000000000000	0.0000000000000
0.62000000476837	-0.31789210438728	-0.76139259338379	73.000000000000	0.0000000000000
0.62400001287460	-0.32847124338150	-0.75200951099396	73.000000000000	0.0000000000000
0.62800002098083	-0.33887630701065	-0.74237859249115	73.000000000000	0.0000000000000
0.63200002908707	-0.34909981489182	-0.73250114917755	73.000000000000	0.0000000000000
0.63599997758865	-0.35913538932800	-0.72237789630890	73.000000000000	0.0000000000000
0.63999998569489	-0.36897590756416	-0.71201014518738	73.000000000000	0.0000000000000
0.64399999380112	-0.37861341238022	-0.70139986276627	73.000000000000	0.0000000000000
0.64800000190735	-0.38804090023041	-0.69054841995239	73.000000000000	0.0000000000000
0.65200001001358	-0.39725080132484	-0.67945784330368	73.000000000000	0.0000000000000
0.65600001811981	-0.40623447299004	-0.66813069581985	73.000000000000	0.0000000000000
0.66000002622604	-0.41498494148254	-0.65656918287277	73.000000000000	0.0000000000000
0.66399997472763	-0.42349401116371	-0.64477622509003	73.000000000000	0.0000000000000
0.66799998283386	-0.43175300955772	-0.63275516033173	73.000000000000	0.0000000000000
0.67199999094009	-0.43975421786308	-0.62050920724869	73.000000000000	0.0000000000000
0.67599999904633	-0.44748899340630	-0.60804253816605	73.000000000000	0.0000000000000
0.68000000715256	-0.45494922995567	-0.59535878896713	73.000000000000	0.0000000000000
0.68400001525879	-0.46212622523308	-0.58246284723282	73.000000000000	0.0000000000000
0.68800002336502	-0.46901205182076	-0.56935936212540	73.000000000000	0.0000000000000
0.69199997186661	-0.47559744119644	-0.55605393648148	73.000000000000	0.0000000000000
0.69599997997284	-0.48187449574471	-0.54255199432373	73.000000000000	0.0000000000000
0.69999998807907	-0.48783442378044	-0.52885961532593	73.000000000000	0.0000000000000
0.70399999618530	-0.49346917867661	-0.51498347520828	73.000000000000	0.0000000000000
0.70800000429153	-0.49876987934113	-0.50093048810959	73.000000000000	0.0000000000000
0.71200001239777	-0.50372898578644	-0.48670771718025	73.000000000000	0.0000000000000
0.71600002050400	-0.50833761692047	-0.47232320904732	73.000000000000	0.0000000000000
0.72000002861023	-0.51258826255798	-0.45778536796570	73.000000000000	0.0000000000000
0.72399997711182	-0.51647305488586	-0.44310235977173	73.000000000000	0.0000000000000
0.72799998521805	-0.51998400688171	-0.42828372120857	73.000000000000	0.0000000000000
0.73199999332428	-0.52311414480209	-0.41333869099617	73.000000000000	0.0000000000000
0.73600000143051	-0.52585583925247	-0.39827758073807	73.000000000000	0.0000000000000
0.74000000953674	-0.52820241451263	-0.38311052322388	73.000000000000	0.0000000000000
0.74400001764297	-0.53014737367630	-0.36784824728966	73.000000000000	0.0000000000000
0.74800002574921	-0.53168410062790	-0.35250237584114	73.000000000000	0.0000000000000
0.75199997425079	-0.53280693292618	-0.33708438277245	73.000000000000	0.0000000000000
0.75599998235703	-0.53350996971130	-0.32160633802414	73.000000000000	0.0000000000000
0.75999999046326	-0.53378808498383	-0.30608060956001	73.000000000000	0.0000000000000
0.76399999856949	-0.53363656997681	-0.29051998257637	73.000000000000	0.0000000000000
0.76800000667572	-0.53305137157440	-0.27493774890900	73.000000000000	0.0000000000000
0.77200001478195	-0.53202807903290	-0.25934731960297	73.000000000000	0.0000000000000
0.77600002288818	-0.53056371212006	-0.24376243352890	73.000000000000	0.0000000000000
0.77999997138977	-0.52865540981293	-0.22819732129574	73.000000000000	0.0000000000000
0.78399997949600	-0.52630084753036	-0.21266624331474	73.000000000000	0.0000000000000
0.78799998760223	-0.52349805831909	-0.19718383252621	73.000000000000	0.0000000000000
0.79199999570847	-0.52024620771408	-0.18176501989365	73.000000000000	0.0000000000000
0.79600000381470	-0.51654452085495	-0.16642479598522	73.000000000000	0.0000000000000
0.80000001192093	-0.51239305734634	-0.15117843449116	73.000000000000	0.0000000000000
0.80400002002716	-0.50779259204865	-0.13604097068310	73.000000000000	0.0000000000000
0.80800002813339	-0.50274419784546	-0.12102834880352	73.000000000000	0.0000000000000
0.81199997663498	-0.49725008010864	-0.10615570843220	73.000000000000	0.0000000000000
0.81599998474121	-0.49131280183792	-0.091438733041286	73.000000000000	0.0000000000000
0.81999999284744	-0.48493552207947	-0.076893076300621	73.000000000000	0.0000000000000
0.82400000095367	-0.47812226414680	-0.062534265220165	73.000000000000	0.0000000000000
0.82800000905991	-0.47087770700455	-0.048377662897110	73.000000000000	0.0000000000000
0.83200001716614	-0.46320709586143	-0.034438963979483	73.000000000000	0.0000000000000
0.83600002527237	-0.45511656999588	-0.020733145996928	73.000000000000	0.0000000000000
0.83999997377396	-0.44661265611649	-0.0072757671587169	73.000000000000	0.0000000000000
0.84399998188019	-0.43770274519920	0.0059186914004385	73.000000000000	0.0000000000000
0.84799998998642	-0.42839494347572	0.018835278227925	73.000000000000	0.0000000000000
0.85199999809265	-0.41869786381721	0.031459525227547	73.000000000000	0.0000000000000
0.85600000619888	-0.40862089395523	0.043777439743280	73.000000000000	0.0000000000000
0.86000001430511	-0.39817389845848	0.055775132030249	73.000000000000	0.0000000000000
0.86400002241135	-0.38736769556999	0.067439280450344	73.000000000000	0.0000000000000
0.86799997091293	-0.37621334195137	0.078756697475910	73.000000000000	0.0000000000000
0.87199997901917	-0.36472272872925	0.089714944362640	73.000000000000	0.0000000000000
0.87599998712540	-0.35290822386742	0.10030175745487	73.000000000000	0.0000000000000
0.87999999523163	-0.34078279137611	0.11050566285849	73.000000000000	0.0000000000000
0.88400000333786	-0.32835987210274	0.12031544744968	73.000000000000	0.0000000000000
0.88800001144409	-0.31565350294113	0.12972065806389	73.000000000000	0.0000000000000
0.89200001955032	-0.30267804861069	0.13871127367020	73.000000000000	0.0000000000000
0.89600002765656	-0.28944844007492	0.14727802574635	73.000000000000	0.0000000000000
0.89999997615814	-0.27598002552986	0.15541210770607	73.000000000000	0.0000000000000
0.90399998426437	-0.26228851079941	0.16310554742813	73.000000000000	0.0000000000000
0.90799999237061	-0.24838995933533	0.17035089433193	73.000000000000	0.0000000000000
0.91200000047684	-0.23430076241493	0.17714144289494	73.000000000000	0.0000000000000
0.91600000858307	-0.22003750503063	0.18347133696079	73.000000000000	0.0000000000000
0.92000001668930	-0.20561727881432	0.18933519721031	73.000000000000	0.0000000000000
0.92400002479553	-0.19105708599091	0.19472853839397	73.000000000000	0.0000000000000
0.92799997329712	-0.17637430131435	0.19964759051800	73.000000000000	0.0000000000000
