#Parameters = {D=8; L=80; d_a=10; e_m=9; e_s=30; gap=1.5; m_x=30; m_y=40; m_z=100; mu_m=1; mu_s=1; s_d=2}
#"Frequency / GHz"	"S1,1 [Re]"	"S1,1 [Im]"	"Ref.Imp. [Re]"	"Ref.Imp. [Im]"
#-------------------------------------------------------------------------
0.0000000000000	0.99996650218964	-0.0000000000000	73.000000000000	0.0000000000000
0.0040000001899898	0.99990034103394	-0.011441161856055	73.000000000000	0.0000000000000
0.0080000003799796	0.99970215559006	-0.022881081327796	73.000000000000	0.0000000000000
0.012000000104308	0.99937170743942	-0.034318514168262	73.000000000000	0.0000000000000
0.016000000759959	0.99890929460526	-0.045752212405205	73.000000000000	0.0000000000000
0.019999999552965	0.99831455945969	-0.057180937379599	73.000000000000	0.0000000000000
0.024000000208616	0.99758785963058	-0.068603456020355	73.000000000000	0.0000000000000
0.028000000864267	0.99672895669937	-0.080018498003483	73.000000000000	0.0000000000000
0.032000001519918	0.99573802947998	-0.091424860060215	73.000000000000	0.0000000000000
0.035999998450279	0.99461501836777	-0.10282128304243	73.000000000000	0.0000000000000
0.039999999105930	0.99336004257202	-0.11420653760433	73.000000000000	0.0000000000000
0.043999999761581	0.99197286367416	-0.12557937204838	73.000000000000	0.0000000000000
0.048000000417233	0.99045372009277	-0.13693857192993	73.000000000000	0.0000000000000
0.052000001072884	0.98880267143250	-0.14828288555145	73.000000000000	0.0000000000000
0.056000001728535	0.98701959848404	-0.15961109101772	73.000000000000	0.0000000000000
0.059999998658895	0.98510456085205	-0.17092196643353	73.000000000000	0.0000000000000
0.064000003039837	0.98305761814117	-0.18221423029900	73.000000000000	0.0000000000000
0.068000003695488	0.98087882995605	-0.19348673522472	73.000000000000	0.0000000000000
0.071999996900558	0.97856807708740	-0.20473821461201	73.000000000000	0.0000000000000
0.075999997556210	0.97612547874451	-0.21596741676331	73.000000000000	0.0000000000000
0.079999998211861	0.97355097532272	-0.22717316448689	73.000000000000	0.0000000000000
0.083999998867512	0.97084462642670	-0.23835422098637	73.000000000000	0.0000000000000
0.087999999523163	0.96800643205643	-0.24950933456421	73.000000000000	0.0000000000000
0.092000000178814	0.96503633260727	-0.26063731312752	73.000000000000	0.0000000000000
0.096000000834465	0.96193438768387	-0.27173694968224	73.000000000000	0.0000000000000
0.10000000149012	0.95870047807693	-0.28280696272850	73.000000000000	0.0000000000000
0.10400000214577	0.95533472299576	-0.29384618997574	73.000000000000	0.0000000000000
0.10800000280142	0.95183694362640	-0.30485334992409	73.000000000000	0.0000000000000
0.11200000345707	0.94820713996887	-0.31582728028297	73.000000000000	0.0000000000000
0.11599999666214	0.94444519281387	-0.32676661014557	73.000000000000	0.0000000000000
0.11999999731779	0.94055116176605	-0.33767020702362	73.000000000000	0.0000000000000
0.12399999797344	0.93652474880219	-0.34853678941727	73.000000000000	0.0000000000000
0.12800000607967	0.93236595392227	-0.35936516523361	73.000000000000	0.0000000000000
0.13199999928474	0.92807477712631	-0.37015399336815	73.000000000000	0.0000000000000
0.13600000739098	0.92365103960037	-0.38090199232101	73.000000000000	0.0000000000000
0.14000000059605	0.91909438371658	-0.39160791039467	73.000000000000	0.0000000000000
0.14399999380112	0.91440474987030	-0.40227034687996	73.000000000000	0.0000000000000
0.14800000190735	0.90958207845688	-0.41288816928864	73.000000000000	0.0000000000000
0.15199999511242	0.90462607145309	-0.42345985770226	73.000000000000	0.0000000000000
0.15600000321865	0.89953649044037	-0.43398410081863	73.000000000000	0.0000000000000
0.15999999642372	0.89431297779083	-0.44445952773094	73.000000000000	0.0000000000000
0.16400000452995	0.88895529508591	-0.45488473773003	73.000000000000	0.0000000000000
0.16799999773502	0.88346326351166	-0.46525824069977	73.000000000000	0.0000000000000
0.17200000584126	0.87783652544022	-0.47557863593102	73.000000000000	0.0000000000000
0.17599999904633	0.87207472324371	-0.48584431409836	73.000000000000	0.0000000000000
0.18000000715256	0.86617749929428	-0.49605375528336	73.000000000000	0.0000000000000
0.18400000035763	0.86014461517334	-0.50620543956757	73.000000000000	0.0000000000000
0.18799999356270	0.85397541522980	-0.51629769802094	73.000000000000	0.0000000000000
0.19200000166893	0.84766960144043	-0.52632868289948	73.000000000000	0.0000000000000
0.19599999487400	0.84122687578201	-0.53629690408707	73.000000000000	0.0000000000000
0.20000000298023	0.83464658260345	-0.54620039463043	73.000000000000	0.0000000000000
0.20399999618530	0.82792842388153	-0.55603736639023	73.000000000000	0.0000000000000
0.20800000429153	0.82107174396515	-0.56580591201782	73.000000000000	0.0000000000000
0.21199999749660	0.81407630443573	-0.57550394535065	73.000000000000	0.0000000000000
0.21600000560284	0.80694150924683	-0.58512943983078	73.000000000000	0.0000000000000
0.21999999880791	0.79966688156128	-0.59468036890030	73.000000000000	0.0000000000000
0.22400000691414	0.79225200414658	-0.60415428876877	73.000000000000	0.0000000000000
0.22800000011921	0.78469622135162	-0.61354917287827	73.000000000000	0.0000000000000
0.23199999332428	0.77699923515320	-0.62286233901978	73.000000000000	0.0000000000000
0.23600000143051	0.76916056871414	-0.63209158182144	73.000000000000	0.0000000000000
0.23999999463558	0.76117998361588	-0.64123409986496	73.000000000000	0.0000000000000
0.24400000274181	0.75305664539337	-0.65028756856918	73.000000000000	0.0000000000000
0.24799999594688	0.74479055404663	-0.65924882888794	73.000000000000	0.0000000000000
0.25200000405312	0.73638141155243	-0.66811513900757	73.000000000000	0.0000000000000
0.25600001215935	0.72782856225967	-0.67688363790512	73.000000000000	0.0000000000000
0.25999999046326	0.71913218498230	-0.68555122613907	73.000000000000	0.0000000000000
0.26399999856949	0.71029192209244	-0.69411456584930	73.000000000000	0.0000000000000
0.26800000667572	0.70130747556686	-0.70257055759430	73.000000000000	0.0000000000000
0.27200001478195	0.69217938184738	-0.71091574430466	73.000000000000	0.0000000000000
0.27599999308586	0.68290716409683	-0.71914660930634	73.000000000000	0.0000000000000
0.28000000119209	0.67349141836166	-0.72725951671600	73.000000000000	0.0000000000000
0.28400000929832	0.66393184661865	-0.73525083065033	73.000000000000	0.0000000000000
0.28799998760223	0.65422928333282	-0.74311679601669	73.000000000000	0.0000000000000
0.29199999570847	0.64438414573669	-0.75085324048996	73.000000000000	0.0000000000000
0.29600000381470	0.63439691066742	-0.75845646858215	73.000000000000	0.0000000000000
0.30000001192093	0.62426841259003	-0.76592218875885	73.000000000000	0.0000000000000
0.30399999022484	0.61399966478348	-0.77324622869492	73.000000000000	0.0000000000000
0.30799999833107	0.60359150171280	-0.78042441606522	73.000000000000	0.0000000000000
0.31200000643730	0.59304511547089	-0.78745222091675	73.000000000000	0.0000000000000
0.31600001454353	0.58236223459244	-0.79432547092438	73.000000000000	0.0000000000000
0.31999999284744	0.57154417037964	-0.80103939771652	73.000000000000	0.0000000000000
0.32400000095367	0.56059277057648	-0.80758970975876	73.000000000000	0.0000000000000
0.32800000905991	0.54951000213623	-0.81397163867950	73.000000000000	0.0000000000000
0.33199998736382	0.53829813003540	-0.82018059492111	73.000000000000	0.0000000000000
0.33599999547005	0.52695935964584	-0.82621204853058	73.000000000000	0.0000000000000
0.34000000357628	0.51549637317657	-0.83206135034561	73.000000000000	0.0000000000000
0.34400001168251	0.50391209125519	-0.83772367238998	73.000000000000	0.0000000000000
0.34799998998642	0.49220952391624	-0.84319448471069	73.000000000000	0.0000000000000
0.35199999809265	0.48039239645004	-0.84846919775009	73.000000000000	0.0000000000000
0.35600000619888	0.46846356987953	-0.85354310274124	73.000000000000	0.0000000000000
0.36000001430511	0.45642700791359	-0.85841178894043	73.000000000000	0.0000000000000
0.36399999260902	0.44428691267967	-0.86307078599930	73.000000000000	0.0000000000000
0.36800000071526	0.43204760551453	-0.86751568317413	73.000000000000	0.0000000000000
0.37200000882149	0.41971355676651	-0.87174212932587	73.000000000000	0.0000000000000
0.37599998712540	0.40728968381882	-0.87574613094330	73.000000000000	0.0000000000000
0.37999999523163	0.39478060603142	-0.87952357530594	73.000000000000	0.0000000000000
0.38400000333786	0.38219183683395	-0.88307052850723	73.000000000000	0.0000000000000
0.38800001144409	0.36952874064445	-0.88638341426849	73.000000000000	0.0000000000000
0.39199998974800	0.35679730772972	-0.88945841789246	73.000000000000	0.0000000000000
0.39599999785423	0.34400317072868	-0.89229249954224	73.000000000000	0.0000000000000
0.40000000596046	0.33115270733833	-0.89488238096237	73.000000000000	0.0000000000000
0.40400001406670	0.31825205683708	-0.89722526073456	73.000000000000	0.0000000000000
0.40799999237061	0.30530780553818	-0.89931839704514	73.000000000000	0.0000000000000
0.41200000047684	0.29232668876648	-0.90115952491760	73.000000000000	0.0000000000000
0.41600000858307	0.27931571006775	-0.90274626016617	73.000000000000	0.0000000000000
0.41999998688698	0.26628163456917	-0.90407705307007	73.000000000000	0.0000000000000
0.42399999499321	0.25323218107224	-0.90515023469925	73.000000000000	0.0000000000000
0.42800000309944	0.24017404019833	-0.90596461296082	73.000000000000	0.0000000000000
0.43200001120567	0.22711502015591	-0.90651923418045	73.000000000000	0.0000000000000
0.43599998950958	0.21406237781048	-0.90681362152100	73.000000000000	0.0000000000000
0.43999999761581	0.20102362334728	-0.90684747695923	73.000000000000	0.0000000000000
0.44400000572205	0.18800647556782	-0.90662097930908	73.000000000000	0.0000000000000
0.44800001382828	0.17501845955849	-0.90613454580307	73.000000000000	0.0000000000000
0.45199999213219	0.16206713020802	-0.90538913011551	73.000000000000	0.0000000000000
0.45600000023842	0.14916035532951	-0.90438568592072	73.000000000000	0.0000000000000
0.46000000834465	0.13630519807339	-0.90312600135803	73.000000000000	0.0000000000000
0.46399998664856	0.12350944429636	-0.90161180496216	73.000000000000	0.0000000000000
0.46799999475479	0.11078021675348	-0.89984554052353	73.000000000000	0.0000000000000
0.47200000286102	0.098125368356705	-0.89782959222794	73.000000000000	0.0000000000000
0.47600001096725	0.085551157593727	-0.89556705951691	73.000000000000	0.0000000000000
0.47999998927116	0.073065005242825	-0.89306128025055	73.000000000000	0.0000000000000
0.48399999737740	0.060673348605633	-0.89031583070755	73.000000000000	0.0000000000000
0.48800000548363	0.048382870852947	-0.88733470439911	73.000000000000	0.0000000000000
0.49200001358986	0.036200113594532	-0.88412213325500	73.000000000000	0.0000000000000
0.49599999189377	0.024131009355187	-0.88068258762360	73.000000000000	0.0000000000000
0.50000000000000	0.012180880643427	-0.87702095508575	73.000000000000	0.0000000000000
0.50400000810623	0.00035569196916185	-0.87314230203629	73.000000000000	0.0000000000000
0.50800001621246	-0.011339638382196	-0.86905193328857	73.000000000000	0.0000000000000
0.51200002431870	-0.022900404408574	-0.86475539207458	73.000000000000	0.0000000000000
0.51599997282028	-0.034321911633015	-0.86025834083557	73.000000000000	0.0000000000000
0.51999998092651	-0.045600119978189	-0.85556650161743	73.000000000000	0.0000000000000
0.52399998903275	-0.056731406599283	-0.85068613290787	73.000000000000	0.0000000000000
0.52799999713898	-0.067712172865868	-0.84562307596207	73.000000000000	0.0000000000000
0.53200000524521	-0.078539647161961	-0.84038376808167	73.000000000000	0.0000000000000
0.53600001335144	-0.089211344718933	-0.83497440814972	73.000000000000	0.0000000000000
0.54000002145767	-0.099724739789963	-0.82940119504929	73.000000000000	0.0000000000000
0.54400002956390	-0.11007890850306	-0.82367026805878	73.000000000000	0.0000000000000
0.54799997806549	-0.12027121335268	-0.81778806447983	73.000000000000	0.0000000000000
0.55199998617172	-0.13030190765858	-0.81176054477692	73.000000000000	0.0000000000000
0.55599999427795	-0.14016951620579	-0.80559396743774	73.000000000000	0.0000000000000
0.56000000238419	-0.14987467229366	-0.79929411411285	73.000000000000	0.0000000000000
0.56400001049042	-0.15941660106182	-0.79286688566208	73.000000000000	0.0000000000000
0.56800001859665	-0.16879661381245	-0.78631764650345	73.000000000000	0.0000000000000
0.57200002670288	-0.17801569402218	-0.77965182065964	73.000000000000	0.0000000000000
0.57599997520447	-0.18707391619682	-0.77287471294403	73.000000000000	0.0000000000000
0.57999998331070	-0.19597427546978	-0.76599091291428	73.000000000000	0.0000000000000
0.58399999141693	-0.20471774041653	-0.75900495052338	73.000000000000	0.0000000000000
0.58799999952316	-0.21330630779266	-0.75192123651505	73.000000000000	0.0000000000000
0.59200000762939	-0.22174240648746	-0.74474352598190	73.000000000000	0.0000000000000
0.59600001573563	-0.23002913594246	-0.73747515678406	73.000000000000	0.0000000000000
0.60000002384186	-0.23816815018654	-0.73011952638626	73.000000000000	0.0000000000000
0.60399997234344	-0.24616277217865	-0.72267913818359	73.000000000000	0.0000000000000
0.60799998044968	-0.25401592254639	-0.71515649557114	73.000000000000	0.0000000000000
0.61199998855591	-0.26173031330109	-0.70755332708359	73.000000000000	0.0000000000000
0.61599999666214	-0.26930895447731	-0.69987124204636	73.000000000000	0.0000000000000
0.62000000476837	-0.27675491571426	-0.69211125373840	73.000000000000	0.0000000000000
0.62400001287460	-0.28407138586044	-0.68427377939224	73.000000000000	0.0000000000000
0.62800002098083	-0.29126110672951	-0.67635905742645	73.000000000000	0.0000000000000
0.63200002908707	-0.29832643270493	-0.66836714744568	73.000000000000	0.0000000000000
0.63599997758865	-0.30527007579803	-0.66029697656631	73.000000000000	0.0000000000000
0.63999998569489	-0.31209486722946	-0.65214771032333	73.000000000000	0.0000000000000
0.64399999380112	-0.31880220770836	-0.64391773939133	73.000000000000	0.0000000000000
0.64800000190735	-0.32539445161819	-0.63560533523560	73.000000000000	0.0000000000000
0.65200001001358	-0.33187296986580	-0.62720817327499	73.000000000000	0.0000000000000
0.65600001811981	-0.33823928236961	-0.61872363090515	73.000000000000	0.0000000000000
0.66000002622604	-0.34449326992035	-0.61014938354492	73.000000000000	0.0000000000000
0.66399997472763	-0.35063621401787	-0.60148179531097	73.000000000000	0.0000000000000
0.66799998283386	-0.35666799545288	-0.59271764755249	73.000000000000	0.0000000000000
0.67199999094009	-0.36258742213249	-0.58385360240936	73.000000000000	0.0000000000000
0.67599999904633	-0.36839407682419	-0.57488590478897	73.000000000000	0.0000000000000
0.68000000715256	-0.37408629059792	-0.56581044197083	73.000000000000	0.0000000000000
0.68400001525879	-0.37966176867485	-0.55662375688553	73.000000000000	0.0000000000000
0.68800002336502	-0.38511821627617	-0.54732167720795	73.000000000000	0.0000000000000
0.69199997186661	-0.39045223593712	-0.53790032863617	73.000000000000	0.0000000000000
0.69599997997284	-0.39566016197205	-0.52835571765900	73.000000000000	0.0000000000000
0.69999998807907	-0.40073767304420	-0.51868426799774	73.000000000000	0.0000000000000
0.70399999618530	-0.40567982196808	-0.50888240337372	73.000000000000	0.0000000000000
0.70800000429153	-0.41048118472099	-0.49894660711288	73.000000000000	0.0000000000000
0.71200001239777	-0.41513574123383	-0.48887395858765	73.000000000000	0.0000000000000
0.71600002050400	-0.41963696479797	-0.47866135835648	73.000000000000	0.0000000000000
0.72000002861023	-0.42397770285606	-0.46830675005913	73.000000000000	0.0000000000000
0.72399997711182	-0.42815014719963	-0.45780795812607	73.000000000000	0.0000000000000
0.72799998521805	-0.43214643001556	-0.44716319441795	73.000000000000	0.0000000000000
0.73199999332428	-0.43595796823502	-0.43637171387672	73.000000000000	0.0000000000000
0.73600000143051	-0.43957570195198	-0.42543277144432	73.000000000000	0.0000000000000
0.74000000953674	-0.44299045205116	-0.41434660553932	73.000000000000	0.0000000000000
0.74400001764297	-0.44619202613831	-0.40311411023140	73.000000000000	0.0000000000000
0.74800002574921	-0.44917055964470	-0.39173650741577	73.000000000000	0.0000000000000
0.75199997425079	-0.45191609859467	-0.38021597266197	73.000000000000	0.0000000000000
0.75599998235703	-0.45441782474518	-0.36855527758598	73.000000000000	0.0000000000000
0.75999999046326	-0.45666518807411	-0.35675832629204	73.000000000000	0.0000000000000
0.76399999856949	-0.45864731073380	-0.34482929110527	73.000000000000	0.0000000000000
0.76800000667572	-0.46035364270210	-0.33277362585068	73.000000000000	0.0000000000000
0.77200001478195	-0.46177297830582	-0.32059749960899	73.000000000000	0.0000000000000
0.77600002288818	-0.46289527416229	-0.30830752849579	73.000000000000	0.0000000000000
0.77999997138977	-0.46370953321457	-0.29591169953346	73.000000000000	0.0000000000000
0.78399997949600	-0.46420535445213	-0.28341883420944	73.000000000000	0.0000000000000
0.78799998760223	-0.46437314152718	-0.27083814144135	73.000000000000	0.0000000000000
0.79199999570847	-0.46420294046402	-0.25817999243736	73.000000000000	0.0000000000000
0.79600000381470	-0.46368563175201	-0.24545556306839	73.000000000000	0.0000000000000
0.80000001192093	-0.46281242370605	-0.23267672955990	73.000000000000	0.0000000000000
0.80400002002716	-0.46157479286194	-0.21985651552677	73.000000000000	0.0000000000000
0.80800002813339	-0.45996543765068	-0.20700812339783	73.000000000000	0.0000000000000
0.81199997663498	-0.45797732472420	-0.19414588809013	73.000000000000	0.0000000000000
0.81599998474121	-0.45560425519943	-0.18128450214863	73.000000000000	0.0000000000000
0.81999999284744	-0.45284080505371	-0.16843976080418	73.000000000000	0.0000000000000
0.82400000095367	-0.44968229532242	-0.15562762320042	73.000000000000	0.0000000000000
0.82800000905991	-0.44612517952919	-0.14286457002163	73.000000000000	0.0000000000000
0.83200001716614	-0.44216674566269	-0.13016779720783	73.000000000000	0.0000000000000
0.83600002527237	-0.43780514597893	-0.11755482107401	73.000000000000	0.0000000000000
0.83999997377396	-0.43303969502449	-0.10504361242056	73.000000000000	0.0000000000000
0.84399998188019	-0.42787072062492	-0.092651858925819	73.000000000000	0.0000000000000
0.84799998998642	-0.42229962348938	-0.080398291349411	73.000000000000	0.0000000000000
0.85199999809265	-0.41632899641991	-0.068301178514957	73.000000000000	0.0000000000000
0.85600000619888	-0.40996250510216	-0.056378949433565	73.000000000000	0.0000000000000
0.86000001430511	-0.40320500731468	-0.044649947434664	73.000000000000	0.0000000000000
0.86400002241135	-0.39606240391731	-0.033132690936327	73.000000000000	0.0000000000000
0.86799997091293	-0.38854187726974	-0.021845083683729	73.000000000000	0.0000000000000
0.87199997901917	-0.38065162301064	-0.010805160738528	73.000000000000	0.0000000000000
0.87599998712540	-0.37240111827850	-3.0309040084830e-05	73.000000000000	0.0000000000000
0.87999999523163	-0.36380079388618	0.010462450794876	73.000000000000	0.0000000000000
0.88400000333786	-0.35486239194870	0.020656574517488	73.000000000000	0.0000000000000
0.88800001144409	-0.34559845924377	0.030536245554686	73.000000000000	0.0000000000000
0.89200001955032	-0.33602276444435	0.040086213499308	73.000000000000	0.0000000000000
0.89600002765656	-0.32614994049072	0.049292027950287	73.000000000000	0.0000000000000
0.89999997615814	-0.31599569320679	0.058139890432358	73.000000000000	0.0000000000000
0.90399998426437	-0.30557638406754	0.066617444157600	73.000000000000	0.0000000000000
0.90799999237061	-0.29490938782692	0.074712656438351	73.000000000000	0.0000000000000
0.91200000047684	-0.28401285409927	0.082414835691452	73.000000000000	0.0000000000000
0.91600000858307	-0.27290537953377	0.089714482426643	73.000000000000	0.0000000000000
0.92000001668930	-0.26160642504692	0.096603006124496	73.000000000000	0.0000000000000
0.92400002479553	-0.25013583898544	0.10307307541370	73.000000000000	0.0000000000000
0.92799997329712	-0.23851403594017	0.10911861807108	73.000000000000	0.0000000000000
