# Version 1.00
#
freq[Hz];re:Trc1_S22;im:Trc1_S22;
1.000000000000000E+008;7.200655953824681E-001;-6.575142962773967E-001;
1.110000000000000E+008;6.625512217439739E-001;-7.112500761243236E-001;
1.220000000000000E+008;6.011540113490214E-001;-7.589948472602552E-001;
1.330000000000000E+008;5.359133432552804E-001;-8.064225806035524E-001;
1.440000000000000E+008;4.667063883019529E-001;-8.402045778093252E-001;
1.550000000000000E+008;3.961428200772166E-001;-8.738020985665030E-001;
1.660000000000000E+008;3.220124583597312E-001;-9.030433988442725E-001;
1.770000000000000E+008;2.393365291211622E-001;-9.224724401326362E-001;
1.880000000000000E+008;1.565753009133914E-001;-9.278219725832209E-001;
1.990000000000000E+008;8.300747412990203E-002;-9.176681941927074E-001;
2.100000000000000E+008;2.589236822121506E-002;-9.104830484567000E-001;
2.210000000000000E+008;-3.561430144090074E-002;-9.153242849448603E-001;
2.320000000000000E+008;-1.045013310280241E-001;-9.143233794180744E-001;
2.430000000000000E+008;-1.784891295150325E-001;-9.101065938401109E-001;
2.540000000000000E+008;-2.575235882176983E-001;-8.964083085412046E-001;
2.650000000000000E+008;-3.309497581584073E-001;-8.735433336698564E-001;
2.760000000000000E+008;-4.075785766247735E-001;-8.450432154055705E-001;
2.870000000000000E+008;-4.796722034383352E-001;-8.053225340666388E-001;
2.980000000000000E+008;-5.448227081571515E-001;-7.600005698040407E-001;
3.090000000000000E+008;-6.056819745774776E-001;-7.128411815537424E-001;
3.200000000000000E+008;-6.677105967352791E-001;-6.624083323135261E-001;
3.310000000000000E+008;-7.277989669939547E-001;-6.006104841197599E-001;
3.420000000000000E+008;-7.785474269792895E-001;-5.336321679086216E-001;
3.530000000000000E+008;-8.253157618368257E-001;-4.608505852742628E-001;
3.640000000000000E+008;-8.641508315207834E-001;-3.822285698520777E-001;
3.750000000000000E+008;-8.929189746926144E-001;-2.998751344098060E-001;
3.860000000000000E+008;-9.135145919377044E-001;-2.193844829718905E-001;
3.970000000000000E+008;-9.320807599645196E-001;-1.388864718762323E-001;
4.080000000000000E+008;-9.455754880885341E-001;-5.222813372449591E-002;
4.190000000000000E+008;-9.492624094188732E-001;3.867558064930170E-002;
4.300000000000000E+008;-9.419146910936526E-001;1.303031976962366E-001;
4.410000000000000E+008;-9.241749493857313E-001;2.204766924578713E-001;
4.520000000000000E+008;-8.981469677042954E-001;3.088039130035197E-001;
4.630000000000000E+008;-8.628287360892971E-001;3.942031704282416E-001;
4.740000000000000E+008;-8.188895501780045E-001;4.757802082301294E-001;
4.850000000000000E+008;-7.671157791325091E-001;5.526483697543521E-001;
4.960000000000000E+008;-7.069357571795742E-001;6.237099196275342E-001;
5.070000000000000E+008;-6.403130409520430E-001;6.879587059485128E-001;
5.180000000000000E+008;-5.677295851286374E-001;7.454804781999769E-001;
5.290000000000000E+008;-4.881227670567763E-001;7.950961011630369E-001;
5.400000000000000E+008;-4.049053378643992E-001;8.350202599047251E-001;
5.510000000000000E+008;-3.183547503260598E-001;8.652314827848783E-001;
5.620000000000000E+008;-2.311942960367528E-001;8.852332518753932E-001;
5.730000000000000E+008;-1.461337587731902E-001;8.951308012757518E-001;
5.840000000000000E+008;-6.462555903907005E-002;9.005963628435995E-001;
5.950000000000000E+008;2.046717492106601E-002;9.017129214690397E-001;
6.060000000000000E+008;1.064082201288412E-001;8.919872212433893E-001;
6.170000000000000E+008;1.890365863019789E-001;8.731989596812817E-001;
6.280000000000000E+008;2.710678363767167E-001;8.496299508050217E-001;
6.390000000000000E+008;3.518550024308281E-001;8.151549212077615E-001;
6.500000000000000E+008;4.274699836138182E-001;7.701788487280995E-001;
6.610000000000000E+008;4.938503054989629E-001;7.194585566779976E-001;
6.720000000000000E+008;5.541918297811401E-001;6.648983437113527E-001;
6.830000000000000E+008;6.090693590969171E-001;6.048406345114914E-001;
6.940000000000000E+008;6.529811785014908E-001;5.401579474961151E-001;
7.050000000000000E+008;6.910941867047702E-001;4.803759627085831E-001;
7.160000000000000E+008;7.296009280127808E-001;4.163982263569347E-001;
7.270000000000000E+008;7.616107284201893E-001;3.466528283392867E-001;
7.380000000000000E+008;7.842274058571518E-001;2.723345961624521E-001;
7.490000000000000E+008;7.981866953760235E-001;1.991303637273224E-001;
7.600000000000000E+008;8.033731702924972E-001;1.253041113979072E-001;
7.710000000000000E+008;8.047375903383117E-001;5.537808662993611E-002;
7.820000000000000E+008;8.018992902798232E-001;-1.861481088414632E-002;
7.930000000000000E+008;7.863848762504074E-001;-9.298904144402323E-002;
8.040000000000000E+008;7.628131872367282E-001;-1.598396824098113E-001;
8.150000000000000E+008;7.368911222520708E-001;-2.226931052090572E-001;
8.260000000000000E+008;7.057117334716999E-001;-2.826245695385049E-001;
8.370000000000000E+008;6.697315217603532E-001;-3.429464205614873E-001;
8.480000000000000E+008;6.205258178095463E-001;-3.972754508451684E-001;
8.590000000000000E+008;5.705748257924779E-001;-4.384301651490133E-001;
8.700000000000000E+008;5.174063042127887E-001;-4.729892784932424E-001;
8.810000000000000E+008;4.667262951614782E-001;-4.975649406974357E-001;
8.920000000000000E+008;4.227764320380267E-001;-5.210846880167713E-001;
9.030000000000000E+008;3.736092909606801E-001;-5.472549731456884E-001;
9.140000000000000E+008;3.167375621719806E-001;-5.658182485142033E-001;
9.250000000000000E+008;2.587360180309491E-001;-5.770264575694507E-001;
9.360000000000000E+008;1.976101059851551E-001;-5.748614099244830E-001;
9.470000000000000E+008;1.436899717492933E-001;-5.644449863427115E-001;
9.580000000000000E+008;9.528816079098736E-002;-5.441522634909419E-001;
9.690000000000000E+008;5.715186477550462E-002;-5.226302369221750E-001;
9.800000000000000E+008;2.070530188917255E-002;-5.012392900183721E-001;
9.910000000000000E+008;-5.487442173104989E-003;-4.673325275861367E-001;
1.002000000000000E+009;-2.004906653206646E-002;-4.501034690232704E-001;
1.013000000000000E+009;-4.126332930543929E-002;-4.297389242286494E-001;
1.024000000000000E+009;-5.991133772872576E-002;-4.072227754232551E-001;
1.035000000000000E+009;-7.685336386311617E-002;-3.746224325787265E-001;
1.046000000000000E+009;-6.781077052686858E-002;-3.389931853580193E-001;
1.057000000000000E+009;-4.833183511590170E-002;-3.237151038115502E-001;
1.068000000000000E+009;-3.353528651792000E-002;-3.273481923649875E-001;
1.079000000000000E+009;-3.123469831116789E-002;-3.351806470877687E-001;
1.090000000000000E+009;-3.539320158608669E-002;-3.393216989835750E-001;
1.101000000000000E+009;-3.767613564261704E-002;-3.422471929007783E-001;
1.112000000000000E+009;-3.842086640207885E-002;-3.457280060271400E-001;
1.123000000000000E+009;-3.916085011790078E-002;-3.586868246592135E-001;
1.134000000000000E+009;-4.859983978608341E-002;-3.752674109786109E-001;
1.145000000000000E+009;-6.564101774682730E-002;-3.864135348216067E-001;
1.156000000000000E+009;-7.884931749318369E-002;-3.952686116328857E-001;
1.167000000000000E+009;-9.309764982014264E-002;-4.133070986790531E-001;
1.178000000000000E+009;-1.193426284756488E-001;-4.289413602887721E-001;
1.189000000000000E+009;-1.488167603759767E-001;-4.404351022350503E-001;
1.200000000000000E+009;-1.816757930899699E-001;-4.461142423836854E-001;
1.211000000000000E+009;-2.109165373117643E-001;-4.516686685288926E-001;
1.222000000000000E+009;-2.465837623206126E-001;-4.591306561298207E-001;
1.233000000000000E+009;-2.902085383024828E-001;-4.595813696845698E-001;
1.244000000000000E+009;-3.351666658216193E-001;-4.524490646328342E-001;
1.255000000000000E+009;-3.821706367237215E-001;-4.354923830074853E-001;
1.266000000000000E+009;-4.224693227994054E-001;-4.073117615892580E-001;
1.277000000000000E+009;-4.529453057214777E-001;-3.784690126635731E-001;
1.288000000000000E+009;-4.817050404206903E-001;-3.550915010096321E-001;
1.299000000000000E+009;-5.167710982605964E-001;-3.303865780083712E-001;
1.310000000000000E+009;-5.530538433482506E-001;-2.945251978875393E-001;
1.321000000000000E+009;-5.804989600205489E-001;-2.534359343087775E-001;
1.332000000000000E+009;-6.049243777633667E-001;-2.147134561180376E-001;
1.343000000000000E+009;-6.309922239896689E-001;-1.713583983681997E-001;
1.354000000000000E+009;-6.518581375838116E-001;-1.236473760993078E-001;
1.365000000000000E+009;-6.655787918711101E-001;-7.327056464392624E-002;
1.376000000000000E+009;-6.774706516808325E-001;-2.434652516319203E-002;
1.387000000000000E+009;-6.866823689074324E-001;2.819081230877646E-002;
1.398000000000000E+009;-6.912016217286271E-001;8.342508179069789E-002;
1.409000000000000E+009;-6.893509792330179E-001;1.399837546712572E-001;
1.420000000000000E+009;-6.819185184513553E-001;1.989075909187880E-001;
1.431000000000000E+009;-6.660821722254962E-001;2.575697727544957E-001;
1.442000000000000E+009;-6.403569588316961E-001;3.127844651512616E-001;
1.453000000000000E+009;-6.116233845670470E-001;3.581462268160958E-001;
1.464000000000000E+009;-5.877115593138125E-001;4.016260472476406E-001;
1.475000000000000E+009;-5.624804281766683E-001;4.501546004816321E-001;
1.486000000000000E+009;-5.286563322957619E-001;5.024127907716701E-001;
1.497000000000000E+009;-4.848976856523191E-001;5.487425096081177E-001;
1.508000000000000E+009;-4.359822348178746E-001;5.871646113555968E-001;
1.519000000000000E+009;-3.881441868812700E-001;6.184893530896246E-001;
1.530000000000000E+009;-3.404860883052011E-001;6.499673351129708E-001;
1.541000000000000E+009;-2.882562531657646E-001;6.768949501125604E-001;
1.552000000000000E+009;-2.370908319885396E-001;7.017981166257516E-001;
1.563000000000000E+009;-1.773720977255777E-001;7.254915063429106E-001;
1.574000000000000E+009;-1.146224965336578E-001;7.387870477431104E-001;
1.585000000000000E+009;-5.245408168314508E-002;7.472392703588724E-001;
1.596000000000000E+009;1.141270659536137E-002;7.514573109618077E-001;
1.607000000000000E+009;7.688481109595756E-002;7.483676464433596E-001;
1.618000000000000E+009;1.415465914020803E-001;7.375067723984657E-001;
1.629000000000000E+009;2.018922737086414E-001;7.217960172064676E-001;
1.640000000000000E+009;2.623007080700797E-001;7.019722094977186E-001;
1.651000000000000E+009;3.189261853843021E-001;6.785057016560252E-001;
1.662000000000000E+009;3.786044804053103E-001;6.498514914042246E-001;
1.673000000000000E+009;4.328048259280881E-001;6.111800682689722E-001;
1.684000000000000E+009;4.791506910432613E-001;5.718905264871341E-001;
1.695000000000000E+009;5.236223391138095E-001;5.302328393039608E-001;
1.706000000000000E+009;5.661106317555361E-001;4.868241595681518E-001;
1.717000000000000E+009;6.048575139237127E-001;4.375330844189312E-001;
1.728000000000000E+009;6.389884120876073E-001;3.854341121723371E-001;
1.739000000000000E+009;6.678094792014055E-001;3.300689097522474E-001;
1.750000000000000E+009;6.924908227982850E-001;2.718965155224403E-001;
1.761000000000000E+009;7.101381815715274E-001;2.127690174276633E-001;
1.772000000000000E+009;7.231615119906056E-001;1.534000695027350E-001;
1.783000000000000E+009;7.319411778240228E-001;9.326856053208504E-002;
1.794000000000000E+009;7.349787853718425E-001;3.284656247532680E-002;
1.805000000000000E+009;7.318798111401556E-001;-2.663135026156598E-002;
1.816000000000000E+009;7.241230028632743E-001;-8.241453971233007E-002;
1.827000000000000E+009;7.147447056062538E-001;-1.353501555344516E-001;
1.838000000000000E+009;7.038331494331951E-001;-1.874873542969874E-001;
1.849000000000000E+009;6.901736928884361E-001;-2.409517427300522E-001;
1.860000000000000E+009;6.712872230852318E-001;-2.938198754874579E-001;
1.871000000000000E+009;6.486651914068790E-001;-3.440680387373097E-001;
1.882000000000000E+009;6.224214022857628E-001;-3.936957552399981E-001;
1.893000000000000E+009;5.929322798253562E-001;-4.403098398059939E-001;
1.904000000000000E+009;5.592081674803683E-001;-4.857434646456814E-001;
1.915000000000000E+009;5.218291541645588E-001;-5.272056186776457E-001;
1.926000000000000E+009;4.837259504934657E-001;-5.669760754460061E-001;
1.937000000000000E+009;4.403815046117955E-001;-6.056659187279571E-001;
1.948000000000000E+009;3.934779283530434E-001;-6.394273194732000E-001;
1.959000000000000E+009;3.449462912149688E-001;-6.685922806655352E-001;
1.970000000000000E+009;2.958386147884227E-001;-6.943775829860851E-001;
1.981000000000000E+009;2.447725922157537E-001;-7.179982881435224E-001;
1.992000000000000E+009;1.915373764367670E-001;-7.370308207700443E-001;
2.003000000000000E+009;1.366305508866496E-001;-7.518895002891148E-001;
2.014000000000000E+009;8.143161900459202E-002;-7.610361702219475E-001;
2.025000000000000E+009;2.742187545353230E-002;-7.667908997242852E-001;
2.036000000000000E+009;-2.765711028416603E-002;-7.685453764895017E-001;
2.047000000000000E+009;-8.140521201171937E-002;-7.677003546991624E-001;
2.058000000000000E+009;-1.383557265217226E-001;-7.635792069791191E-001;
2.069000000000000E+009;-1.932147142753642E-001;-7.518929647114365E-001;
2.080000000000000E+009;-2.451677144178963E-001;-7.390937425054006E-001;
2.091000000000000E+009;-2.971662994246120E-001;-7.218858770764574E-001;
2.102000000000000E+009;-3.516288290029954E-001;-7.018140614222653E-001;
2.113000000000000E+009;-4.006878028642517E-001;-6.762579688686666E-001;
2.124000000000000E+009;-4.481402586288549E-001;-6.482649761676677E-001;
2.135000000000000E+009;-4.940583633122232E-001;-6.169640408219518E-001;
2.146000000000000E+009;-5.371265028336889E-001;-5.816965761400508E-001;
2.157000000000000E+009;-5.771175737837395E-001;-5.442969022293123E-001;
2.168000000000000E+009;-6.138105986330054E-001;-5.029117022211767E-001;
2.179000000000000E+009;-6.454904554320926E-001;-4.608118986796355E-001;
2.190000000000000E+009;-6.755475470877225E-001;-4.174492759689944E-001;
2.201000000000000E+009;-7.029728759876153E-001;-3.723150892735472E-001;
2.212000000000000E+009;-7.275190661979475E-001;-3.250209915879254E-001;
2.223000000000000E+009;-7.486502747244063E-001;-2.764106364652303E-001;
2.234000000000000E+009;-7.671357357149469E-001;-2.262577217474370E-001;
2.245000000000000E+009;-7.822606629300066E-001;-1.744180380679444E-001;
2.256000000000000E+009;-7.933582207284994E-001;-1.214722769340166E-001;
2.267000000000000E+009;-7.995117197217524E-001;-6.849820129529553E-002;
2.278000000000000E+009;-8.035249340220225E-001;-1.629520903798844E-002;
2.289000000000000E+009;-8.039767102083335E-001;3.724147530339335E-002;
2.300000000000000E+009;-8.002521231881221E-001;9.114352312714036E-002;
2.311000000000000E+009;-7.937034237913728E-001;1.435427948604952E-001;
2.322000000000000E+009;-7.834661606534612E-001;1.964381470112191E-001;
2.333000000000000E+009;-7.689722008308025E-001;2.486988805365387E-001;
2.344000000000000E+009;-7.506330426906007E-001;2.992055638066030E-001;
2.355000000000000E+009;-7.286720165948130E-001;3.481864371490592E-001;
2.366000000000000E+009;-7.046252405383671E-001;3.947509957376593E-001;
2.377000000000000E+009;-6.770276920746171E-001;4.407805043081540E-001;
2.388000000000000E+009;-6.465551062002881E-001;4.843343381960811E-001;
2.399000000000000E+009;-6.131898707092131E-001;5.256436085340498E-001;
2.410000000000000E+009;-5.780262240693925E-001;5.652938084776423E-001;
2.421000000000000E+009;-5.392354342658882E-001;6.029922470939293E-001;
2.432000000000000E+009;-4.975986638669243E-001;6.370966841067932E-001;
2.443000000000000E+009;-4.555004820471292E-001;6.683365052118380E-001;
2.454000000000000E+009;-4.104936745092767E-001;6.984435382190777E-001;
2.465000000000000E+009;-3.630878074898813E-001;7.254543594623665E-001;
2.476000000000000E+009;-3.119506776940660E-001;7.489165573892828E-001;
2.487000000000000E+009;-2.603819240550850E-001;7.678419119193793E-001;
2.498000000000000E+009;-2.065217759881118E-001;7.841841744791321E-001;
2.509000000000000E+009;-1.507409208528538E-001;7.959137960430437E-001;
2.520000000000000E+009;-9.545456004844002E-002;8.042822970181522E-001;
2.531000000000000E+009;-3.779105616013415E-002;8.076262522336727E-001;
2.542000000000000E+009;1.754623066340542E-002;8.077459054051768E-001;
2.553000000000000E+009;7.509084110059869E-002;8.030352896468281E-001;
2.564000000000000E+009;1.303767452619983E-001;7.945472973486132E-001;
2.575000000000000E+009;1.859017599759076E-001;7.825177174178721E-001;
2.586000000000000E+009;2.405940557033632E-001;7.662068619115897E-001;
2.597000000000000E+009;2.940957424951374E-001;7.460524525315815E-001;
2.608000000000000E+009;3.461130749400140E-001;7.207975854328206E-001;
2.619000000000000E+009;3.946011006785072E-001;6.930655328825296E-001;
2.630000000000000E+009;4.420705100164188E-001;6.623751614518505E-001;
2.641000000000000E+009;4.876358419927475E-001;6.281519742860946E-001;
2.652000000000000E+009;5.303350191268906E-001;5.894007591136338E-001;
2.663000000000000E+009;5.695931573753990E-001;5.484266240987875E-001;
2.674000000000000E+009;6.070444913931170E-001;5.047606282121545E-001;
2.685000000000000E+009;6.409942015111083E-001;4.569478257393589E-001;
2.696000000000000E+009;6.711963420375516E-001;4.079134300758189E-001;
2.707000000000000E+009;6.982939621322375E-001;3.552018052871942E-001;
2.718000000000000E+009;7.203369235770708E-001;3.012552088557630E-001;
2.729000000000000E+009;7.386702778987064E-001;2.462724823245370E-001;
2.740000000000000E+009;7.528532904821395E-001;1.904019852918539E-001;
2.751000000000000E+009;7.629778491779149E-001;1.337558631431619E-001;
2.762000000000000E+009;7.685520433400582E-001;7.602615888482038E-002;
2.773000000000000E+009;7.702311541789676E-001;1.809529161839820E-002;
2.784000000000000E+009;7.669231286783400E-001;-4.056801314532925E-002;
2.795000000000000E+009;7.589913417594779E-001;-9.798540420735505E-002;
2.806000000000000E+009;7.470280072309008E-001;-1.539611099548126E-001;
2.817000000000000E+009;7.320539018695335E-001;-2.096480275647387E-001;
2.828000000000000E+009;7.122456335899573E-001;-2.647816859918522E-001;
2.839000000000000E+009;6.878504629117984E-001;-3.182350793822291E-001;
2.850000000000000E+009;6.590124245541122E-001;-3.687691834447212E-001;
2.861000000000000E+009;6.270240806916905E-001;-4.171118503861708E-001;
2.872000000000000E+009;5.916058465323202E-001;-4.629788943381712E-001;
2.883000000000000E+009;5.527639718619333E-001;-5.061531849416631E-001;
2.894000000000000E+009;5.100703554572129E-001;-5.460406641186653E-001;
2.905000000000000E+009;4.646483558012898E-001;-5.820802116212915E-001;
2.916000000000000E+009;4.165558917604093E-001;-6.141987618453245E-001;
2.927000000000000E+009;3.670010172631300E-001;-6.413068438395179E-001;
2.938000000000000E+009;3.160523700345486E-001;-6.656272662676511E-001;
2.949000000000000E+009;2.632365804372773E-001;-6.843701246317789E-001;
2.960000000000000E+009;2.097923397547886E-001;-6.996662069332601E-001;
2.971000000000000E+009;1.536498980616189E-001;-7.091906697533189E-001;
2.982000000000000E+009;1.011513194622826E-001;-7.147498235946476E-001;
2.993000000000000E+009;4.832734794729381E-002;-7.179098010818499E-001;
3.004000000000000E+009;-3.486468406367813E-003;-7.180062440861759E-001;
3.015000000000000E+009;-5.584870788409820E-002;-7.135294262115549E-001;
3.026000000000000E+009;-1.072808503412212E-001;-7.043805111525374E-001;
3.037000000000000E+009;-1.564211228994814E-001;-6.927908551521602E-001;
3.048000000000000E+009;-2.050850154034640E-001;-6.778642546504636E-001;
3.059000000000000E+009;-2.519190491978037E-001;-6.606206667608551E-001;
3.070000000000000E+009;-2.983992988942482E-001;-6.389445340676780E-001;
3.081000000000000E+009;-3.420532059060438E-001;-6.145975826094562E-001;
3.092000000000000E+009;-3.839659603226454E-001;-5.876154144721156E-001;
3.103000000000000E+009;-4.237210556621366E-001;-5.575532365372782E-001;
3.114000000000000E+009;-4.608356412640066E-001;-5.259035454588148E-001;
3.125000000000000E+009;-4.956297753631210E-001;-4.911615414836533E-001;
3.136000000000000E+009;-5.274881642395317E-001;-4.563431520935011E-001;
3.147000000000000E+009;-5.575906759672039E-001;-4.172425389744366E-001;
3.158000000000000E+009;-5.826978450043451E-001;-3.770122224720463E-001;
3.169000000000000E+009;-6.061203853741257E-001;-3.356532681393645E-001;
