# Version 1.00
#
freq[Hz];re:Trc1_S22;im:Trc1_S22;
1.000000000000000E+008;7.085961537609317E-001;-6.636519393248527E-001;
1.110000000000000E+008;6.507154298275659E-001;-7.168727599662725E-001;
1.220000000000000E+008;5.879330356541284E-001;-7.649527502966735E-001;
1.330000000000000E+008;5.200210701062522E-001;-8.132074007993797E-001;
1.440000000000000E+008;4.492104295487632E-001;-8.481296410944400E-001;
1.550000000000000E+008;3.738290402325551E-001;-8.801863857388819E-001;
1.660000000000000E+008;2.960323395139650E-001;-9.072001331828000E-001;
1.770000000000000E+008;2.103850531339429E-001;-9.221144903484847E-001;
1.880000000000000E+008;1.244822607981577E-001;-9.223965342557909E-001;
1.990000000000000E+008;5.164957794720146E-002;-9.017887589807037E-001;
2.100000000000000E+008;4.252820915242668E-003;-8.908377486209245E-001;
2.210000000000000E+008;-4.956754669828402E-002;-8.994283958027205E-001;
2.320000000000000E+008;-1.230231418265972E-001;-9.073135543279904E-001;
2.430000000000000E+008;-2.020708675606196E-001;-8.995338329014609E-001;
2.540000000000000E+008;-2.821387415330012E-001;-8.835966835563677E-001;
2.650000000000000E+008;-3.589581854403692E-001;-8.592676941518834E-001;
2.760000000000000E+008;-4.380046560720211E-001;-8.246272736270670E-001;
2.870000000000000E+008;-5.084270088310197E-001;-7.795968086667624E-001;
2.980000000000000E+008;-5.722946741014272E-001;-7.314107907695635E-001;
3.090000000000000E+008;-6.323267183668824E-001;-6.810400874696123E-001;
3.200000000000000E+008;-6.950874146877408E-001;-6.265145692668592E-001;
3.310000000000000E+008;-7.539926094344411E-001;-5.588387330303594E-001;
3.420000000000000E+008;-8.019618082090172E-001;-4.864165199220358E-001;
3.530000000000000E+008;-8.450336024721297E-001;-4.085064496179680E-001;
3.640000000000000E+008;-8.793224710237673E-001;-3.255975833074412E-001;
3.750000000000000E+008;-9.041215055334571E-001;-2.396810062694386E-001;
3.860000000000000E+008;-9.208751432179925E-001;-1.547678282461997E-001;
3.970000000000000E+008;-9.343764892812785E-001;-6.806379967229242E-002;
4.080000000000000E+008;-9.393293871829725E-001;2.460675523778713E-002;
4.190000000000000E+008;-9.324214971584827E-001;1.185656751085904E-001;
4.300000000000000E+008;-9.155844000523715E-001;2.116144067180462E-001;
4.410000000000000E+008;-8.876269606370437E-001;3.030286236882048E-001;
4.520000000000000E+008;-8.497138644297284E-001;3.915779874000605E-001;
4.630000000000000E+008;-8.024555821554573E-001;4.755596983601252E-001;
4.740000000000000E+008;-7.447135277810880E-001;5.542350652840126E-001;
4.850000000000000E+008;-6.779252538935183E-001;6.249726493870947E-001;
4.960000000000000E+008;-6.040107530495896E-001;6.852929036289970E-001;
5.070000000000000E+008;-5.270954637277430E-001;7.364447028578715E-001;
5.180000000000000E+008;-4.456358645975359E-001;7.810181134425001E-001;
5.290000000000000E+008;-3.584255820303365E-001;8.149277957478818E-001;
5.400000000000000E+008;-2.704765820400832E-001;8.389399573029450E-001;
5.510000000000000E+008;-1.817839319531052E-001;8.528272939671110E-001;
5.620000000000000E+008;-9.267310643986997E-002;8.552102522540953E-001;
5.730000000000000E+008;-1.096360004801925E-002;8.453373953522406E-001;
5.840000000000000E+008;6.205799242259242E-002;8.363982300872864E-001;
5.950000000000000E+008;1.418835528210486E-001;8.272968600232257E-001;
6.060000000000000E+008;2.260723711409766E-001;8.055561147789704E-001;
6.170000000000000E+008;3.054135621009776E-001;7.712108430775604E-001;
6.280000000000000E+008;3.812376258245867E-001;7.303725014663207E-001;
6.390000000000000E+008;4.567682115795122E-001;6.765602721216192E-001;
6.500000000000000E+008;5.151816716926903E-001;6.068347997896580E-001;
6.610000000000000E+008;5.618354604772211E-001;5.434182839334901E-001;
6.720000000000000E+008;6.030466233031521E-001;4.737635927382772E-001;
6.830000000000000E+008;6.304836016754030E-001;3.989513025297969E-001;
6.940000000000000E+008;6.434924052764213E-001;3.306678486000636E-001;
7.050000000000000E+008;6.598331926810137E-001;2.751112879155049E-001;
7.160000000000000E+008;6.776817973610736E-001;2.050065688587272E-001;
7.270000000000000E+008;6.815638629824176E-001;1.316522754183128E-001;
7.380000000000000E+008;6.719435939591673E-001;5.755535044488730E-002;
7.490000000000000E+008;6.505577826580448E-001;-1.095805625154418E-002;
7.600000000000000E+008;6.140494084081281E-001;-7.064419288188441E-002;
7.710000000000000E+008;5.802302920786561E-001;-1.159149334498295E-001;
7.820000000000000E+008;5.420775310495568E-001;-1.580907117160531E-001;
7.930000000000000E+008;4.982269056641572E-001;-1.911000229047963E-001;
8.040000000000000E+008;4.584696807666125E-001;-2.101136413986643E-001;
8.150000000000000E+008;4.231803536678667E-001;-2.312656044187050E-001;
8.260000000000000E+008;3.887228734234648E-001;-2.426562641117623E-001;
8.370000000000000E+008;3.533826445368729E-001;-2.534168094767980E-001;
8.480000000000000E+008;3.181561867345918E-001;-2.551113205915966E-001;
8.590000000000000E+008;2.911118268434092E-001;-2.507078108766049E-001;
8.700000000000000E+008;2.707034519297979E-001;-2.428465975792333E-001;
8.810000000000000E+008;2.550118181312290E-001;-2.386038675789047E-001;
8.920000000000000E+008;2.426337880325854E-001;-2.319343639551183E-001;
9.030000000000000E+008;2.331985220148432E-001;-2.275382138906129E-001;
9.140000000000000E+008;2.227716639677021E-001;-2.216582436749614E-001;
9.250000000000000E+008;2.139643730329407E-001;-2.100107205568972E-001;
9.360000000000000E+008;2.214395991099698E-001;-1.970858789608416E-001;
9.470000000000000E+008;2.313911321293582E-001;-1.926806459816214E-001;
9.580000000000000E+008;2.490969980558973E-001;-1.936857451876462E-001;
9.690000000000000E+008;2.672518588074646E-001;-2.077304500603994E-001;
9.800000000000000E+008;2.823060259133026E-001;-2.285590069292321E-001;
9.910000000000000E+008;2.903759851000785E-001;-2.620074130834077E-001;
1.002000000000000E+009;2.820030280660548E-001;-2.936317450629378E-001;
1.013000000000000E+009;2.719632773807884E-001;-3.138209409953523E-001;
1.024000000000000E+009;2.665680829968368E-001;-3.351983918262429E-001;
1.035000000000000E+009;2.620446773037166E-001;-3.535911680710272E-001;
1.046000000000000E+009;2.653509929314632E-001;-3.825686478012166E-001;
1.057000000000000E+009;2.586282827198001E-001;-4.230511939240743E-001;
1.068000000000000E+009;2.375022430930346E-001;-4.682018263741559E-001;
1.079000000000000E+009;2.019868791437613E-001;-5.023927312916283E-001;
1.090000000000000E+009;1.671074513258404E-001;-5.262706512803209E-001;
1.101000000000000E+009;1.322404521153021E-001;-5.500518549353772E-001;
1.112000000000000E+009;9.561382924257958E-002;-5.694097588798797E-001;
1.123000000000000E+009;5.642862939094560E-002;-5.894724916148515E-001;
1.134000000000000E+009;1.019779765496963E-002;-6.044239699450426E-001;
1.145000000000000E+009;-3.569793563561532E-002;-6.127633925768452E-001;
1.156000000000000E+009;-8.034715321454661E-002;-6.182213943662691E-001;
1.167000000000000E+009;-1.277477861533796E-001;-6.227236780415831E-001;
1.178000000000000E+009;-1.764261884585592E-001;-6.209292879530672E-001;
1.189000000000000E+009;-2.257085970707311E-001;-6.165499066172686E-001;
1.200000000000000E+009;-2.740715801855028E-001;-6.061413900563581E-001;
1.211000000000000E+009;-3.214975322447097E-001;-5.936578042242300E-001;
1.222000000000000E+009;-3.694700676654826E-001;-5.783586815584252E-001;
1.233000000000000E+009;-4.189138612391910E-001;-5.570851441244414E-001;
1.244000000000000E+009;-4.675129998845654E-001;-5.298935458585075E-001;
1.255000000000000E+009;-5.139306564224416E-001;-4.945321182542145E-001;
1.266000000000000E+009;-5.523794400452867E-001;-4.538274151257791E-001;
1.277000000000000E+009;-5.853707100105000E-001;-4.119232905974782E-001;
1.288000000000000E+009;-6.152526188061923E-001;-3.717014000324413E-001;
1.299000000000000E+009;-6.457225410935797E-001;-3.283855959174039E-001;
1.310000000000000E+009;-6.738089727290593E-001;-2.824995651818412E-001;
1.321000000000000E+009;-7.000479848869482E-001;-2.313419351357386E-001;
1.332000000000000E+009;-7.189669546512216E-001;-1.763416258149267E-001;
1.343000000000000E+009;-7.332054173758386E-001;-1.222332641634330E-001;
1.354000000000000E+009;-7.450086903304667E-001;-6.694577122169071E-002;
1.365000000000000E+009;-7.507597151120263E-001;-1.008508434161356E-002;
1.376000000000000E+009;-7.533887289684219E-001;4.552626000494637E-002;
1.387000000000000E+009;-7.524537703679773E-001;1.034747373342766E-001;
1.398000000000000E+009;-7.465913821487840E-001;1.619517824124079E-001;
1.409000000000000E+009;-7.351766720236965E-001;2.204988203301266E-001;
1.420000000000000E+009;-7.188747355156525E-001;2.797763077786973E-001;
1.431000000000000E+009;-6.940757884633650E-001;3.381052119537789E-001;
1.442000000000000E+009;-6.631451903345770E-001;3.917229401776508E-001;
1.453000000000000E+009;-6.294254247026241E-001;4.393063471765892E-001;
1.464000000000000E+009;-5.965740837406600E-001;4.853987462194331E-001;
1.475000000000000E+009;-5.602477772970815E-001;5.329314485287124E-001;
1.486000000000000E+009;-5.185887219388430E-001;5.808538361766762E-001;
1.497000000000000E+009;-4.683414769384948E-001;6.233456262760494E-001;
1.508000000000000E+009;-4.154372005389415E-001;6.587343180931164E-001;
1.519000000000000E+009;-3.618268059693077E-001;6.884247680974406E-001;
1.530000000000000E+009;-3.072055713746638E-001;7.160007074349457E-001;
1.541000000000000E+009;-2.499782394256043E-001;7.385195861763307E-001;
1.552000000000000E+009;-1.915764758287090E-001;7.584258561252868E-001;
1.563000000000000E+009;-1.296626608025176E-001;7.726904566010775E-001;
1.574000000000000E+009;-6.718477956062023E-002;7.827356666382852E-001;
1.585000000000000E+009;-1.611069521654931E-003;7.882576389400823E-001;
1.596000000000000E+009;6.634190721498416E-002;7.867879593183217E-001;
1.607000000000000E+009;1.340028653654234E-001;7.767894260423213E-001;
1.618000000000000E+009;1.987683080676502E-001;7.595609009263961E-001;
1.629000000000000E+009;2.593126331046997E-001;7.381371659636062E-001;
1.640000000000000E+009;3.190384277035381E-001;7.128722248496207E-001;
1.651000000000000E+009;3.758445455712163E-001;6.832796697670884E-001;
1.662000000000000E+009;4.312948632319136E-001;6.484694731783357E-001;
1.673000000000000E+009;4.821813163397373E-001;6.081579942362411E-001;
1.684000000000000E+009;5.282534615147441E-001;5.657694868878413E-001;
1.695000000000000E+009;5.703167282693158E-001;5.198594912832871E-001;
1.706000000000000E+009;6.096878051610870E-001;4.728763374896425E-001;
1.717000000000000E+009;6.447200409472738E-001;4.219072066294106E-001;
1.728000000000000E+009;6.748474192123132E-001;3.695847063345195E-001;
1.739000000000000E+009;7.028111160701985E-001;3.161283504969103E-001;
1.750000000000000E+009;7.279581408656949E-001;2.576789557595696E-001;
1.761000000000000E+009;7.473002159157084E-001;1.971615663297713E-001;
1.772000000000000E+009;7.615961814227293E-001;1.346004509470481E-001;
1.783000000000000E+009;7.695025824783227E-001;7.037830035066277E-002;
1.794000000000000E+009;7.710246363738027E-001;7.836854387263767E-003;
1.805000000000000E+009;7.681731499013041E-001;-5.310140791666810E-002;
1.816000000000000E+009;7.618964633636530E-001;-1.123466713831276E-001;
1.827000000000000E+009;7.526364437889385E-001;-1.710724526565382E-001;
1.838000000000000E+009;7.405016835387283E-001;-2.301365516685050E-001;
1.849000000000000E+009;7.221859700247990E-001;-2.910687079793892E-001;
1.860000000000000E+009;6.969521494129045E-001;-3.499362342315088E-001;
1.871000000000000E+009;6.656731672950209E-001;-4.053690489863163E-001;
1.882000000000000E+009;6.289739186290222E-001;-4.554845240362437E-001;
1.893000000000000E+009;5.920328031198405E-001;-4.999220549322967E-001;
1.904000000000000E+009;5.532290055139099E-001;-5.433595362718859E-001;
1.915000000000000E+009;5.116972486675276E-001;-5.848896420378985E-001;
1.926000000000000E+009;4.668115821348564E-001;-6.252917119602105E-001;
1.937000000000000E+009;4.156750152001466E-001;-6.619492459523995E-001;
1.948000000000000E+009;3.632958240876759E-001;-6.923313586390104E-001;
1.959000000000000E+009;3.084559263619857E-001;-7.187239770886462E-001;
1.970000000000000E+009;2.534867465677564E-001;-7.398514922840603E-001;
1.981000000000000E+009;1.976289363965389E-001;-7.571401208365688E-001;
1.992000000000000E+009;1.420629910860938E-001;-7.700827429811984E-001;
2.003000000000000E+009;8.624162546313600E-002;-7.798417366237506E-001;
2.014000000000000E+009;2.999545147459319E-002;-7.864927670367757E-001;
2.025000000000000E+009;-2.788138656846281E-002;-7.899802636622589E-001;
2.036000000000000E+009;-8.825754351156205E-002;-7.869801060515291E-001;
2.047000000000000E+009;-1.464493245721026E-001;-7.778598720908876E-001;
2.058000000000000E+009;-2.036946067836892E-001;-7.643206520677273E-001;
2.069000000000000E+009;-2.567230873533496E-001;-7.453074140566429E-001;
2.080000000000000E+009;-3.064378180025166E-001;-7.269216855735829E-001;
2.091000000000000E+009;-3.577225435759991E-001;-7.046644124808047E-001;
2.102000000000000E+009;-4.104274599587018E-001;-6.779456396365243E-001;
2.113000000000000E+009;-4.568136171191810E-001;-6.472114009207893E-001;
2.124000000000000E+009;-5.014811868570673E-001;-6.141337476245965E-001;
2.135000000000000E+009;-5.440256695182805E-001;-5.777133450821745E-001;
2.146000000000000E+009;-5.828279047507600E-001;-5.381601750992364E-001;
2.157000000000000E+009;-6.181042523976844E-001;-4.971457281311508E-001;
2.168000000000000E+009;-6.503993003225127E-001;-4.541365178304465E-001;
2.179000000000000E+009;-6.801168430854340E-001;-4.099203709989316E-001;
2.190000000000000E+009;-7.072306039090476E-001;-3.619905972715926E-001;
2.201000000000000E+009;-7.298872725489983E-001;-3.129510053601655E-001;
2.212000000000000E+009;-7.491309431521676E-001;-2.621461201120718E-001;
2.223000000000000E+009;-7.640660850995793E-001;-2.106607418452187E-001;
2.234000000000000E+009;-7.759505053190369E-001;-1.592262955204662E-001;
2.245000000000000E+009;-7.842732247707847E-001;-1.065118329347993E-001;
2.256000000000000E+009;-7.890432338657534E-001;-5.538310415747234E-002;
2.267000000000000E+009;-7.914379612374635E-001;-3.797991319288943E-003;
2.278000000000000E+009;-7.913561205281875E-001;4.918596095258684E-002;
2.289000000000000E+009;-7.859575307475890E-001;1.028835779754750E-001;
2.300000000000000E+009;-7.760882263554724E-001;1.554814607692173E-001;
2.311000000000000E+009;-7.636234409263804E-001;2.063054717175934E-001;
2.322000000000000E+009;-7.476769205824108E-001;2.565622856991172E-001;
2.333000000000000E+009;-7.281470186459251E-001;3.053578568532734E-001;
2.344000000000000E+009;-7.055327924531176E-001;3.527090620732764E-001;
2.355000000000000E+009;-6.793587646449826E-001;3.986839532386361E-001;
2.366000000000000E+009;-6.503560856780533E-001;4.426583054381346E-001;
2.377000000000000E+009;-6.172581936246245E-001;4.845019136348695E-001;
2.388000000000000E+009;-5.818093277378441E-001;5.229606488367461E-001;
2.399000000000000E+009;-5.440372432897153E-001;5.588603767467181E-001;
2.410000000000000E+009;-5.045099410054782E-001;5.917494275384331E-001;
2.421000000000000E+009;-4.632336362432392E-001;6.221441706244465E-001;
2.432000000000000E+009;-4.199283548962475E-001;6.495970813488060E-001;
2.443000000000000E+009;-3.758492311975510E-001;6.746663909436012E-001;
2.454000000000000E+009;-3.281678857621795E-001;6.970591406573178E-001;
2.465000000000000E+009;-2.795101048443209E-001;7.148411775063419E-001;
2.476000000000000E+009;-2.293592171472033E-001;7.292066161231349E-001;
2.487000000000000E+009;-1.796116183178913E-001;7.395347647421253E-001;
2.498000000000000E+009;-1.277390506869172E-001;7.476036136510432E-001;
2.509000000000000E+009;-7.504558983262781E-002;7.496439916601644E-001;
2.520000000000000E+009;-2.549895270865137E-002;7.496242113409917E-001;
2.531000000000000E+009;2.690830922219944E-002;7.461885979526776E-001;
2.542000000000000E+009;7.667693750137997E-002;7.384482555308169E-001;
2.553000000000000E+009;1.266195309947834E-001;7.265790127378868E-001;
2.564000000000000E+009;1.737733458586287E-001;7.115654137265293E-001;
2.575000000000000E+009;2.197920315174672E-001;6.940290863582330E-001;
2.586000000000000E+009;2.647042086853657E-001;6.735296432266376E-001;
2.597000000000000E+009;3.072774012428167E-001;6.496223241758760E-001;
2.608000000000000E+009;3.474517513222449E-001;6.234646311467363E-001;
2.619000000000000E+009;3.863360291437196E-001;5.956273946677041E-001;
2.630000000000000E+009;4.235501896387575E-001;5.641241137092508E-001;
2.641000000000000E+009;4.567430220631684E-001;5.294212190223904E-001;
2.652000000000000E+009;4.867421109998607E-001;4.931991829261629E-001;
2.663000000000000E+009;5.125780672946484E-001;4.560395939823953E-001;
2.674000000000000E+009;5.357279884292455E-001;4.195964045958562E-001;
2.685000000000000E+009;5.596289469316474E-001;3.827519658674120E-001;
2.696000000000000E+009;5.812925863626087E-001;3.427552596806827E-001;
2.707000000000000E+009;5.989754950043581E-001;3.003214300363673E-001;
2.718000000000000E+009;6.131952975202573E-001;2.596038175218470E-001;
2.729000000000000E+009;6.259196510350706E-001;2.182968727693430E-001;
2.740000000000000E+009;6.365229144445446E-001;1.773868424414836E-001;
2.751000000000000E+009;6.458001111412332E-001;1.355843057157168E-001;
2.762000000000000E+009;6.521149549709924E-001;9.195968949897443E-002;
2.773000000000000E+009;6.545663511267109E-001;4.799663881358305E-002;
2.784000000000000E+009;6.555493000194346E-001;4.549058585226468E-003;
2.795000000000000E+009;6.530698412045066E-001;-3.941826693632290E-002;
2.806000000000000E+009;6.482991365895174E-001;-8.225569214595382E-002;
2.817000000000000E+009;6.416974916748492E-001;-1.255242145469508E-001;
2.828000000000000E+009;6.326763555409385E-001;-1.688180590247925E-001;
2.839000000000000E+009;6.208538185638511E-001;-2.127561736753005E-001;
2.850000000000000E+009;6.052620386072141E-001;-2.554948978567039E-001;
2.861000000000000E+009;5.872094615402325E-001;-2.970161918577413E-001;
2.872000000000000E+009;5.673930844037678E-001;-3.378782896599042E-001;
2.883000000000000E+009;5.447852106693335E-001;-3.791849625290244E-001;
2.894000000000000E+009;5.185460069218313E-001;-4.190817526562253E-001;
2.905000000000000E+009;4.891453732474090E-001;-4.576637810056758E-001;
2.916000000000000E+009;4.559869145639514E-001;-4.951983594876378E-001;
2.927000000000000E+009;4.201650121278636E-001;-5.286722922093416E-001;
2.938000000000000E+009;3.818120058849649E-001;-5.607735889925231E-001;
2.949000000000000E+009;3.414448145973830E-001;-5.884319903127546E-001;
2.960000000000000E+009;2.991131932806387E-001;-6.151529791741410E-001;
2.971000000000000E+009;2.514715040578309E-001;-6.378759133259615E-001;
2.982000000000000E+009;2.055953735867866E-001;-6.570551912762913E-001;
2.993000000000000E+009;1.563701822352998E-001;-6.738952856888008E-001;
3.004000000000000E+009;1.073791474665166E-001;-6.867365070256611E-001;
3.015000000000000E+009;5.691287643534081E-002;-6.958954649243605E-001;
3.026000000000000E+009;5.197670387146847E-003;-7.008126786739051E-001;
3.037000000000000E+009;-4.617264256861344E-002;-7.025919060533541E-001;
3.048000000000000E+009;-9.910262049817895E-002;-7.004501899730256E-001;
3.059000000000000E+009;-1.510354212740512E-001;-6.938067980056651E-001;
3.070000000000000E+009;-2.027188812891570E-001;-6.830828659631612E-001;
3.081000000000000E+009;-2.531862930326320E-001;-6.697086472679664E-001;
3.092000000000000E+009;-3.043573666233381E-001;-6.518744243685742E-001;
3.103000000000000E+009;-3.533635581508898E-001;-6.299290460738548E-001;
3.114000000000000E+009;-4.010099833461414E-001;-6.048484185784343E-001;
3.125000000000000E+009;-4.464000421941833E-001;-5.754258366080771E-001;
3.136000000000000E+009;-4.897503452592905E-001;-5.447632636485024E-001;
3.147000000000000E+009;-5.319390079849284E-001;-5.075205727487285E-001;
3.158000000000000E+009;-5.683432511120330E-001;-4.682649221041565E-001;
3.169000000000000E+009;-6.034363193215252E-001;-4.263265386063080E-001;
