#Parameters = {D=10; L=50}
#"Frequency / GHz"	"S1,1 (D=10) [Re]"	"S1,1 (D=10) [Im]"	"Ref.Imp. [Re]"	"Ref.Imp. [Im]"
#---------------------------------------------------------------------------------------
0.0000000000000	0.99999260902405	-0.0000000000000	73.000000000000	0.0000000000000
0.0040000001899898	0.99998849630356	-0.0018375830259174	73.000000000000	0.0000000000000
0.0080000003799796	0.99997627735138	-0.0036744524259120	73.000000000000	0.0000000000000
0.012000000104308	0.99995607137680	-0.0055099097080529	73.000000000000	0.0000000000000
0.016000000759959	0.99992817640305	-0.0073432843200862	73.000000000000	0.0000000000000
0.019999999552965	0.99989295005798	-0.0091739501804113	73.000000000000	0.0000000000000
0.024000000208616	0.99985074996948	-0.011001337319613	73.000000000000	0.0000000000000
0.028000000864267	0.99980205297470	-0.012824936769903	73.000000000000	0.0000000000000
0.032000001519918	0.99974751472473	-0.014644326642156	73.000000000000	0.0000000000000
0.035999998450279	0.99968785047531	-0.016459165140986	73.000000000000	0.0000000000000
0.039999999105930	0.99962359666824	-0.018269205465913	73.000000000000	0.0000000000000
0.043999999761581	0.99955528974533	-0.020074293017387	73.000000000000	0.0000000000000
0.048000000417233	0.99948382377625	-0.021874386817217	73.000000000000	0.0000000000000
0.052000001072884	0.99940997362137	-0.023669540882111	73.000000000000	0.0000000000000
0.056000001728535	0.99933439493179	-0.025459909811616	73.000000000000	0.0000000000000
0.059999998658895	0.99925768375397	-0.027245745062828	73.000000000000	0.0000000000000
0.064000003039837	0.99918037652969	-0.029027389362454	73.000000000000	0.0000000000000
0.068000003695488	0.99910312891006	-0.030805278569460	73.000000000000	0.0000000000000
0.071999996900558	0.99902653694153	-0.032579913735390	73.000000000000	0.0000000000000
0.075999997556210	0.99895089864731	-0.034351866692305	73.000000000000	0.0000000000000
0.079999998211861	0.99887639284134	-0.036121755838394	73.000000000000	0.0000000000000
0.083999998867512	0.99880349636078	-0.037890259176493	73.000000000000	0.0000000000000
0.087999999523163	0.99873220920563	-0.039658054709435	73.000000000000	0.0000000000000
0.092000000178814	0.99866271018982	-0.041425853967667	73.000000000000	0.0000000000000
0.096000000834465	0.99859470129013	-0.043194357305765	73.000000000000	0.0000000000000
0.10000000149012	0.99852818250656	-0.044964239001274	73.000000000000	0.0000000000000
0.10400000214577	0.99846279621124	-0.046736158430576	73.000000000000	0.0000000000000
0.10800000280142	0.99839824438095	-0.048510722815990	73.000000000000	0.0000000000000
0.11200000345707	0.99833410978317	-0.050288464874029	73.000000000000	0.0000000000000
0.11599999666214	0.99826973676682	-0.052069880068302	73.000000000000	0.0000000000000
0.11999999731779	0.99820452928543	-0.053855348378420	73.000000000000	0.0000000000000
0.12399999797344	0.99813807010651	-0.055645197629929	73.000000000000	0.0000000000000
0.12800000607967	0.99806946516037	-0.057439636439085	73.000000000000	0.0000000000000
0.13199999928474	0.99799811840057	-0.059238769114017	73.000000000000	0.0000000000000
0.13600000739098	0.99792331457138	-0.061042621731758	73.000000000000	0.0000000000000
0.14000000059605	0.99784421920776	-0.062851101160049	73.000000000000	0.0000000000000
0.14399999380112	0.99776041507721	-0.064664013683796	73.000000000000	0.0000000000000
0.14800000190735	0.99767088890076	-0.066481068730354	73.000000000000	0.0000000000000
0.15199999511242	0.99757522344589	-0.068301878869534	73.000000000000	0.0000000000000
0.15600000321865	0.99747300148010	-0.070126004517078	73.000000000000	0.0000000000000
0.15999999642372	0.99736350774765	-0.071952886879444	73.000000000000	0.0000000000000
0.16400000452995	0.99724644422531	-0.073781929910183	73.000000000000	0.0000000000000
0.16799999773502	0.99712157249451	-0.075612477958202	73.000000000000	0.0000000000000
0.17200000584126	0.99698853492737	-0.077443845570087	73.000000000000	0.0000000000000
0.17599999904633	0.99684733152390	-0.079275287687778	73.000000000000	0.0000000000000
0.18000000715256	0.99669784307480	-0.081106111407280	73.000000000000	0.0000000000000
0.18400000035763	0.99654024839401	-0.082935586571693	73.000000000000	0.0000000000000
0.18799999356270	0.99637472629547	-0.084763012826443	73.000000000000	0.0000000000000
0.19200000166893	0.99620175361633	-0.086587719619274	73.000000000000	0.0000000000000
0.19599999487400	0.99602127075195	-0.088409103453159	73.000000000000	0.0000000000000
0.20000000298023	0.99583423137665	-0.090226590633392	73.000000000000	0.0000000000000
0.20399999618530	0.99564069509506	-0.092039711773396	73.000000000000	0.0000000000000
0.20800000429153	0.99544179439545	-0.093848064541817	73.000000000000	0.0000000000000
0.21199999749660	0.99523776769638	-0.095651336014271	73.000000000000	0.0000000000000
0.21600000560284	0.99502956867218	-0.097449325025082	73.000000000000	0.0000000000000
0.21999999880791	0.99481779336929	-0.099241912364960	73.000000000000	0.0000000000000
0.22400000691414	0.99460309743881	-0.10102908313274	73.000000000000	0.0000000000000
0.22800000011921	0.99438637495041	-0.10281094163656	73.000000000000	0.0000000000000
0.23199999332428	0.99416822195053	-0.10458770394325	73.000000000000	0.0000000000000
0.23600000143051	0.99394935369492	-0.10635965317488	73.000000000000	0.0000000000000
0.23999999463558	0.99373030662537	-0.10812719166279	73.000000000000	0.0000000000000
0.24400000274181	0.99351167678833	-0.10989076644182	73.000000000000	0.0000000000000
0.24799999594688	0.99329394102097	-0.11165095865726	73.000000000000	0.0000000000000
0.25200000405312	0.99307733774185	-0.11340834945440	73.000000000000	0.0000000000000
0.25600001215935	0.99286252260208	-0.11516363173723	73.000000000000	0.0000000000000
0.25999999046326	0.99264925718307	-0.11691748350859	73.000000000000	0.0000000000000
0.26399999856949	0.99243789911270	-0.11867060512304	73.000000000000	0.0000000000000
0.26800000667572	0.99222856760025	-0.12042376399040	73.000000000000	0.0000000000000
0.27200001478195	0.99202084541321	-0.12217765301466	73.000000000000	0.0000000000000
0.27599999308586	0.99181461334229	-0.12393297255039	73.000000000000	0.0000000000000
0.28000000119209	0.99160969257355	-0.12569038569927	73.000000000000	0.0000000000000
0.28400000929832	0.99140548706055	-0.12745046615601	73.000000000000	0.0000000000000
0.28799998760223	0.99120157957077	-0.12921379506588	73.000000000000	0.0000000000000
0.29199999570847	0.99099737405777	-0.13098078966141	73.000000000000	0.0000000000000
0.29600000381470	0.99079227447510	-0.13275185227394	73.000000000000	0.0000000000000
0.30000001192093	0.99058562517166	-0.13452728092670	73.000000000000	0.0000000000000
0.30399999022484	0.99037665128708	-0.13630723953247	73.000000000000	0.0000000000000
0.30799999833107	0.99016475677490	-0.13809181749821	73.000000000000	0.0000000000000
0.31200000643730	0.98994910717010	-0.13988098502159	73.000000000000	0.0000000000000
0.31600001454353	0.98972880840302	-0.14167460799217	73.000000000000	0.0000000000000
0.31999999284744	0.98950344324112	-0.14347241818905	73.000000000000	0.0000000000000
0.32400000095367	0.98927217721939	-0.14527413249016	73.000000000000	0.0000000000000
0.32800000905991	0.98903435468674	-0.14707928895950	73.000000000000	0.0000000000000
0.33199998736382	0.98878961801529	-0.14888738095760	73.000000000000	0.0000000000000
0.33599999547005	0.98853725194931	-0.15069778263569	73.000000000000	0.0000000000000
0.34000000357628	0.98827713727951	-0.15250991284847	73.000000000000	0.0000000000000
0.34400001168251	0.98800891637802	-0.15432302653790	73.000000000000	0.0000000000000
0.34799998998642	0.98773235082626	-0.15613640844822	73.000000000000	0.0000000000000
0.35199999809265	0.98744720220566	-0.15794926881790	73.000000000000	0.0000000000000
0.35600000619888	0.98715388774872	-0.15976092219353	73.000000000000	0.0000000000000
0.36000001430511	0.98685216903687	-0.16157051920891	73.000000000000	0.0000000000000
0.36399999260902	0.98654258251190	-0.16337747871876	73.000000000000	0.0000000000000
0.36800000071526	0.98622530698776	-0.16518098115921	73.000000000000	0.0000000000000
0.37200000882149	0.98590081930161	-0.16698049008846	73.000000000000	0.0000000000000
0.37599998712540	0.98556959629059	-0.16877540946007	73.000000000000	0.0000000000000
0.37999999523163	0.98523235321045	-0.17056527733803	73.000000000000	0.0000000000000
0.38400000333786	0.98488974571228	-0.17234976589680	73.000000000000	0.0000000000000
0.38800001144409	0.98454236984253	-0.17412850260735	73.000000000000	0.0000000000000
0.39199998974800	0.98419094085693	-0.17590135335922	73.000000000000	0.0000000000000
0.39599999785423	0.98383629322052	-0.17766819894314	73.000000000000	0.0000000000000
0.40000000596046	0.98347932100296	-0.17942912876606	73.000000000000	0.0000000000000
0.40400001406670	0.98312056064606	-0.18118430674076	73.000000000000	0.0000000000000
0.40799999237061	0.98276078701019	-0.18293391168118	73.000000000000	0.0000000000000
0.41200000047684	0.98240083456039	-0.18467833101749	73.000000000000	0.0000000000000
0.41600000858307	0.98204118013382	-0.18641801178455	73.000000000000	0.0000000000000
0.41999998688698	0.98168236017227	-0.18815349042416	73.000000000000	0.0000000000000
0.42399999499321	0.98132485151291	-0.18988536298275	73.000000000000	0.0000000000000
0.42800000309944	0.98096907138824	-0.19161428511143	73.000000000000	0.0000000000000
0.43200001120567	0.98061531782150	-0.19334100186825	73.000000000000	0.0000000000000
0.43599998950958	0.98026371002197	-0.19506622850895	73.000000000000	0.0000000000000
0.43999999761581	0.97991430759430	-0.19679076969624	73.000000000000	0.0000000000000
0.44400000572205	0.97956705093384	-0.19851537048817	73.000000000000	0.0000000000000
0.44800001382828	0.97922188043594	-0.20024080574512	73.000000000000	0.0000000000000
0.45199999213219	0.97887837886810	-0.20196777582169	73.000000000000	0.0000000000000
0.45600000023842	0.97853630781174	-0.20369695127010	73.000000000000	0.0000000000000
0.46000000834465	0.97819501161575	-0.20542897284031	73.000000000000	0.0000000000000
0.46399998664856	0.97785419225693	-0.20716439187527	73.000000000000	0.0000000000000
0.46799999475479	0.97751295566559	-0.20890361070633	73.000000000000	0.0000000000000
0.47200000286102	0.97717082500458	-0.21064707636833	73.000000000000	0.0000000000000
0.47600001096725	0.97682690620422	-0.21239501237869	73.000000000000	0.0000000000000
0.47999998927116	0.97648054361343	-0.21414755284786	73.000000000000	0.0000000000000
0.48399999737740	0.97613096237183	-0.21590477228165	73.000000000000	0.0000000000000
0.48800000548363	0.97577720880508	-0.21766662597656	73.000000000000	0.0000000000000
0.49200001358986	0.97541868686676	-0.21943283081055	73.000000000000	0.0000000000000
0.49599999189377	0.97505456209183	-0.22120320796967	73.000000000000	0.0000000000000
0.50000000000000	0.97468411922455	-0.22297726571560	73.000000000000	0.0000000000000
0.50400000810623	0.97430688142776	-0.22475457191467	73.000000000000	0.0000000000000
0.50800001621246	0.97392201423645	-0.22653453052044	73.000000000000	0.0000000000000
0.51200002431870	0.97352939844131	-0.22831645607948	73.000000000000	0.0000000000000
0.51599997282028	0.97312849760056	-0.23009967803955	73.000000000000	0.0000000000000
0.51999998092651	0.97271907329559	-0.23188340663910	73.000000000000	0.0000000000000
0.52399998903275	0.97230076789856	-0.23366682231426	73.000000000000	0.0000000000000
0.52799999713898	0.97187387943268	-0.23544916510582	73.000000000000	0.0000000000000
0.53200000524521	0.97143822908401	-0.23722957074642	73.000000000000	0.0000000000000
0.53600001335144	0.97099417448044	-0.23900729417801	73.000000000000	0.0000000000000
0.54000002145767	0.97054195404053	-0.24078151583672	73.000000000000	0.0000000000000
0.54400002956390	0.97008192539215	-0.24255158007145	73.000000000000	0.0000000000000
0.54799997806549	0.96961462497711	-0.24431680142879	73.000000000000	0.0000000000000
0.55199998617172	0.96914082765579	-0.24607668817043	73.000000000000	0.0000000000000
0.55599999427795	0.96866101026535	-0.24783067405224	73.000000000000	0.0000000000000
0.56000000238419	0.96817588806152	-0.24957838654518	73.000000000000	0.0000000000000
0.56400001049042	0.96768635511398	-0.25131961703300	73.000000000000	0.0000000000000
0.56800001859665	0.96719300746918	-0.25305417180061	73.000000000000	0.0000000000000
0.57200002670288	0.96669697761536	-0.25478202104568	73.000000000000	0.0000000000000
0.57599997520447	0.96619892120361	-0.25650325417519	73.000000000000	0.0000000000000
0.57999998331070	0.96569961309433	-0.25821807980537	73.000000000000	0.0000000000000
0.58399999141693	0.96520000696182	-0.25992676615715	73.000000000000	0.0000000000000
0.58799999952316	0.96470063924789	-0.26162979006767	73.000000000000	0.0000000000000
0.59200000762939	0.96420216560364	-0.26332759857178	73.000000000000	0.0000000000000
0.59600001573563	0.96370518207550	-0.26502087712288	73.000000000000	0.0000000000000
0.60000002384186	0.96321022510529	-0.26671028137207	73.000000000000	0.0000000000000
0.60399997234344	0.96271759271622	-0.26839658617973	73.000000000000	0.0000000000000
0.60799998044968	0.96222758293152	-0.27008050680161	73.000000000000	0.0000000000000
0.61199998855591	0.96174037456512	-0.27176293730736	73.000000000000	0.0000000000000
0.61599999666214	0.96125584840775	-0.27344471216202	73.000000000000	0.0000000000000
0.62000000476837	0.96077412366867	-0.27512663602829	73.000000000000	0.0000000000000
0.62400001287460	0.96029484272003	-0.27680957317352	73.000000000000	0.0000000000000
0.62800002098083	0.95981770753860	-0.27849423885345	73.000000000000	0.0000000000000
0.63200002908707	0.95934224128723	-0.28018137812614	73.000000000000	0.0000000000000
0.63599997758865	0.95886790752411	-0.28187170624733	73.000000000000	0.0000000000000
0.63999998569489	0.95839405059814	-0.28356570005417	73.000000000000	0.0000000000000
0.64399999380112	0.95792007446289	-0.28526386618614	73.000000000000	0.0000000000000
0.64800000190735	0.95744502544403	-0.28696659207344	73.000000000000	0.0000000000000
0.65200001001358	0.95696818828583	-0.28867408633232	73.000000000000	0.0000000000000
0.65600001811981	0.95648866891861	-0.29038646817207	73.000000000000	0.0000000000000
0.66000002622604	0.95600557327271	-0.29210376739502	73.000000000000	0.0000000000000
0.66399997472763	0.95551818609238	-0.29382589459419	73.000000000000	0.0000000000000
0.66799998283386	0.95502561330795	-0.29555258154869	73.000000000000	0.0000000000000
0.67199999094009	0.95452696084976	-0.29728350043297	73.000000000000	0.0000000000000
0.67599999904633	0.95402151346207	-0.29901805520058	73.000000000000	0.0000000000000
0.68000000715256	0.95350873470306	-0.30075585842133	73.000000000000	0.0000000000000
0.68400001525879	0.95298784971237	-0.30249607563019	73.000000000000	0.0000000000000
0.68800002336502	0.95245838165283	-0.30423805117607	73.000000000000	0.0000000000000
0.69199997186661	0.95192015171051	-0.30598092079163	73.000000000000	0.0000000000000
0.69599997997284	0.95137286186218	-0.30772385001183	73.000000000000	0.0000000000000
0.69999998807907	0.95081621408463	-0.30946597456932	73.000000000000	0.0000000000000
0.70399999618530	0.95025038719177	-0.31120637059212	73.000000000000	0.0000000000000
0.70800000429153	0.94967550039291	-0.31294417381287	73.000000000000	0.0000000000000
0.71200001239777	0.94909167289734	-0.31467846035957	73.000000000000	0.0000000000000
0.71600002050400	0.94849938154221	-0.31640842556953	73.000000000000	0.0000000000000
0.72000002861023	0.94789910316467	-0.31813338398933	73.000000000000	0.0000000000000
0.72399997711182	0.94729149341583	-0.31985256075859	73.000000000000	0.0000000000000
0.72799998521805	0.94667714834213	-0.32156533002853	73.000000000000	0.0000000000000
0.73199999332428	0.94605684280396	-0.32327124476433	73.000000000000	0.0000000000000
0.73600000143051	0.94543141126633	-0.32496997714043	73.000000000000	0.0000000000000
0.74000000953674	0.94480180740356	-0.32666116952896	73.000000000000	0.0000000000000
0.74400001764297	0.94416892528534	-0.32834479212761	73.000000000000	0.0000000000000
0.74800002574921	0.94353365898132	-0.33002081513405	73.000000000000	0.0000000000000
0.75199997425079	0.94289690256119	-0.33168926835060	73.000000000000	0.0000000000000
0.75599998235703	0.94225955009460	-0.33335053920746	73.000000000000	0.0000000000000
0.75999999046326	0.94162249565125	-0.33500501513481	73.000000000000	0.0000000000000
0.76399999856949	0.94098645448685	-0.33665314316750	73.000000000000	0.0000000000000
0.76800000667572	0.94035220146179	-0.33829554915428	73.000000000000	0.0000000000000
0.77200001478195	0.93972027301788	-0.33993297815323	73.000000000000	0.0000000000000
0.77600002288818	0.93909114599228	-0.34156620502472	73.000000000000	0.0000000000000
0.77999997138977	0.93846523761749	-0.34319609403610	73.000000000000	0.0000000000000
0.78399997949600	0.93784290552139	-0.34482353925705	73.000000000000	0.0000000000000
0.78799998760223	0.93722414970398	-0.34644949436188	73.000000000000	0.0000000000000
0.79199999570847	0.93660891056061	-0.34807485342026	73.000000000000	0.0000000000000
0.79600000381470	0.93599712848663	-0.34970059990883	73.000000000000	0.0000000000000
0.80000001192093	0.93538850545883	-0.35132762789726	73.000000000000	0.0000000000000
0.80400002002716	0.93478256464005	-0.35295680165291	73.000000000000	0.0000000000000
0.80800002813339	0.93417882919312	-0.35458889603615	73.000000000000	0.0000000000000
0.81199997663498	0.93357658386230	-0.35622465610504	73.000000000000	0.0000000000000
0.81599998474121	0.93297523260117	-0.35786464810371	73.000000000000	0.0000000000000
0.81999999284744	0.93237382173538	-0.35950934886932	73.000000000000	0.0000000000000
0.82400000095367	0.93177145719528	-0.36115923523903	73.000000000000	0.0000000000000
0.82800000905991	0.93116712570190	-0.36281442642212	73.000000000000	0.0000000000000
0.83200001716614	0.93056005239487	-0.36447507143021	73.000000000000	0.0000000000000
0.83600002527237	0.92994916439056	-0.36614122986794	73.000000000000	0.0000000000000
0.83999997377396	0.92933344841003	-0.36781260371208	73.000000000000	0.0000000000000
0.84399998188019	0.92871206998825	-0.36948889493942	73.000000000000	0.0000000000000
0.84799998998642	0.92808401584625	-0.37116968631744	73.000000000000	0.0000000000000
0.85199999809265	0.92744857072830	-0.37285447120667	73.000000000000	0.0000000000000
0.85600000619888	0.92680495977402	-0.37454244494438	73.000000000000	0.0000000000000
0.86000001430511	0.92615240812302	-0.37623283267021	73.000000000000	0.0000000000000
0.86400002241135	0.92549067735672	-0.37792491912842	73.000000000000	0.0000000000000
0.86799997091293	0.92481929063797	-0.37961757183075	73.000000000000	0.0000000000000
0.87199997901917	0.92413794994354	-0.38130992650986	73.000000000000	0.0000000000000
0.87599998712540	0.92344647645950	-0.38300094008446	73.000000000000	0.0000000000000
0.87999999523163	0.92274510860443	-0.38468953967094	73.000000000000	0.0000000000000
0.88400000333786	0.92203390598297	-0.38637477159500	73.000000000000	0.0000000000000
0.88800001144409	0.92131316661835	-0.38805559277534	73.000000000000	0.0000000000000
0.89200001955032	0.92058354616165	-0.38973122835159	73.000000000000	0.0000000000000
0.89600002765656	0.91984540224075	-0.39140069484711	73.000000000000	0.0000000000000
0.89999997615814	0.91909968852997	-0.39306327700615	73.000000000000	0.0000000000000
0.90399998426437	0.91834694147110	-0.39471828937531	73.000000000000	0.0000000000000
0.90799999237061	0.91758817434311	-0.39636519551277	73.000000000000	0.0000000000000
0.91200000047684	0.91682451963425	-0.39800366759300	73.000000000000	0.0000000000000
0.91600000858307	0.91605681180954	-0.39963343739510	73.000000000000	0.0000000000000
0.92000001668930	0.91528624296188	-0.40125438570976	73.000000000000	0.0000000000000
0.92400002479553	0.91451370716095	-0.40286654233932	73.000000000000	0.0000000000000
0.92799997329712	0.91374039649963	-0.40447008609772	73.000000000000	0.0000000000000
0.93199998140335	0.91296708583832	-0.40606543421745	73.000000000000	0.0000000000000
