#Parameters = {D=30; L=50}
#"Frequency / GHz"	"S1,1 (D=30) [Re]"	"S1,1 (D=30) [Im]"	"Ref.Imp. [Re]"	"Ref.Imp. [Im]"
#---------------------------------------------------------------------------------------
0.0000000000000	0.99957925081253	-0.0000000000000	73.000000000000	0.0000000000000
0.0040000001899898	0.99957817792892	-0.0017818112391979	73.000000000000	0.0000000000000
0.0080000003799796	0.99957513809204	-0.0035637086257339	73.000000000000	0.0000000000000
0.012000000104308	0.99957019090652	-0.0053457776084542	73.000000000000	0.0000000000000
0.016000000759959	0.99956309795380	-0.0071281031705439	73.000000000000	0.0000000000000
0.019999999552965	0.99955391883850	-0.0089107677340508	73.000000000000	0.0000000000000
0.024000000208616	0.99954271316528	-0.010693852789700	73.000000000000	0.0000000000000
0.028000000864267	0.99952924251556	-0.012477437034249	73.000000000000	0.0000000000000
0.032000001519918	0.99951374530792	-0.014261594973505	73.000000000000	0.0000000000000
0.035999998450279	0.99949598312378	-0.016046397387981	73.000000000000	0.0000000000000
0.039999999105930	0.99947583675385	-0.017831912264228	73.000000000000	0.0000000000000
0.043999999761581	0.99945348501205	-0.019618203863502	73.000000000000	0.0000000000000
0.048000000417233	0.99942862987518	-0.021405328065157	73.000000000000	0.0000000000000
0.052000001072884	0.99940127134323	-0.023193340748549	73.000000000000	0.0000000000000
0.056000001728535	0.99937146902084	-0.024982288479805	73.000000000000	0.0000000000000
0.059999998658895	0.99933886528015	-0.026772212237120	73.000000000000	0.0000000000000
0.064000003039837	0.99930369853973	-0.028563145548105	73.000000000000	0.0000000000000
0.068000003695488	0.99926567077637	-0.030355120077729	73.000000000000	0.0000000000000
0.071999996900558	0.99922472238541	-0.032148160040379	73.000000000000	0.0000000000000
0.075999997556210	0.99918073415756	-0.033942274749279	73.000000000000	0.0000000000000
0.079999998211861	0.99913370609283	-0.035737473517656	73.000000000000	0.0000000000000
0.083999998867512	0.99908363819122	-0.037533767521381	73.000000000000	0.0000000000000
0.087999999523163	0.99903017282486	-0.039331138134003	73.000000000000	0.0000000000000
0.092000000178814	0.99897330999374	-0.041129585355520	73.000000000000	0.0000000000000
0.096000000834465	0.99891316890717	-0.042929083108902	73.000000000000	0.0000000000000
0.10000000149012	0.99884927272797	-0.044729597866535	73.000000000000	0.0000000000000
0.10400000214577	0.99878180027008	-0.046531099826097	73.000000000000	0.0000000000000
0.10800000280142	0.99871063232422	-0.048333559185266	73.000000000000	0.0000000000000
0.11200000345707	0.99863570928574	-0.050136920064688	73.000000000000	0.0000000000000
0.11599999666214	0.99855685234070	-0.051941126585007	73.000000000000	0.0000000000000
0.11999999731779	0.99847418069839	-0.053746126592159	73.000000000000	0.0000000000000
0.12399999797344	0.99838721752167	-0.055551853030920	73.000000000000	0.0000000000000
0.12800000607967	0.99829638004303	-0.057358227670193	73.000000000000	0.0000000000000
0.13199999928474	0.99820125102997	-0.059165190905333	73.000000000000	0.0000000000000
0.13600000739098	0.99810189008713	-0.060972649604082	73.000000000000	0.0000000000000
0.14000000059605	0.99799829721451	-0.062780521810055	73.000000000000	0.0000000000000
0.14399999380112	0.99789041280746	-0.064588725566864	73.000000000000	0.0000000000000
0.14800000190735	0.99777805805206	-0.066397145390511	73.000000000000	0.0000000000000
0.15199999511242	0.99766141176224	-0.068205729126930	73.000000000000	0.0000000000000
0.15600000321865	0.99754023551941	-0.070014335215092	73.000000000000	0.0000000000000
0.15999999642372	0.99741476774216	-0.071822896599770	73.000000000000	0.0000000000000
0.16400000452995	0.99728477001190	-0.073631294071674	73.000000000000	0.0000000000000
0.16799999773502	0.99715030193329	-0.075439445674419	73.000000000000	0.0000000000000
0.17200000584126	0.99701136350632	-0.077247224748135	73.000000000000	0.0000000000000
0.17599999904633	0.99686801433563	-0.079054549336433	73.000000000000	0.0000000000000
0.18000000715256	0.99672013521194	-0.080861322581768	73.000000000000	0.0000000000000
0.18400000035763	0.99656790494919	-0.082667417824268	73.000000000000	0.0000000000000
0.18799999356270	0.99641138315201	-0.084472782909870	73.000000000000	0.0000000000000
0.19200000166893	0.99625045061111	-0.086277276277542	73.000000000000	0.0000000000000
0.19599999487400	0.99608516693115	-0.088080838322639	73.000000000000	0.0000000000000
0.20000000298023	0.99591559171677	-0.089883364737034	73.000000000000	0.0000000000000
0.20399999618530	0.99574178457260	-0.091684773564339	73.000000000000	0.0000000000000
0.20800000429153	0.99556398391724	-0.093484990298748	73.000000000000	0.0000000000000
0.21199999749660	0.99538213014603	-0.095283932983875	73.000000000000	0.0000000000000
0.21600000560284	0.99519610404968	-0.097081534564495	73.000000000000	0.0000000000000
0.21999999880791	0.99500644207001	-0.098877742886543	73.000000000000	0.0000000000000
0.22400000691414	0.99481254816055	-0.10067246854305	73.000000000000	0.0000000000000
0.22800000011921	0.99461525678635	-0.10246570408344	73.000000000000	0.0000000000000
0.23199999332428	0.99441397190094	-0.10425736010075	73.000000000000	0.0000000000000
0.23600000143051	0.99420946836472	-0.10604742914438	73.000000000000	0.0000000000000
0.23999999463558	0.99400120973587	-0.10783584415913	73.000000000000	0.0000000000000
0.24400000274181	0.99378961324692	-0.10962262004614	73.000000000000	0.0000000000000
0.24799999594688	0.99357485771179	-0.11140771210194	73.000000000000	0.0000000000000
0.25200000405312	0.99335670471191	-0.11319110542536	73.000000000000	0.0000000000000
0.25600001215935	0.99313569068909	-0.11497282981873	73.000000000000	0.0000000000000
0.25999999046326	0.99291157722473	-0.11675284802914	73.000000000000	0.0000000000000
0.26399999856949	0.99268436431885	-0.11853118240833	73.000000000000	0.0000000000000
0.26800000667572	0.99245458841324	-0.12030787765980	73.000000000000	0.0000000000000
0.27200001478195	0.99222201108932	-0.12208292633295	73.000000000000	0.0000000000000
0.27599999308586	0.99198675155640	-0.12385638803244	73.000000000000	0.0000000000000
0.28000000119209	0.99174892902374	-0.12562829256058	73.000000000000	0.0000000000000
0.28400000929832	0.99150878190994	-0.12739863991737	73.000000000000	0.0000000000000
0.28799998760223	0.99126625061035	-0.12916754186153	73.000000000000	0.0000000000000
0.29199999570847	0.99102121591568	-0.13093505799770	73.000000000000	0.0000000000000
0.29600000381470	0.99077409505844	-0.13270121812820	73.000000000000	0.0000000000000
0.30000001192093	0.99052476882935	-0.13446608185768	73.000000000000	0.0000000000000
0.30399999022484	0.99027341604233	-0.13622975349426	73.000000000000	0.0000000000000
0.30799999833107	0.99001985788345	-0.13799227774143	73.000000000000	0.0000000000000
0.31200000643730	0.98976433277130	-0.13975377380848	73.000000000000	0.0000000000000
0.31600001454353	0.98950690031052	-0.14151431620121	73.000000000000	0.0000000000000
0.31999999284744	0.98924744129181	-0.14327396452427	73.000000000000	0.0000000000000
0.32400000095367	0.98898601531982	-0.14503282308578	73.000000000000	0.0000000000000
0.32800000905991	0.98872280120850	-0.14679099619389	73.000000000000	0.0000000000000
0.33199998736382	0.98845756053925	-0.14854854345322	73.000000000000	0.0000000000000
0.33599999547005	0.98819065093994	-0.15030556917191	73.000000000000	0.0000000000000
0.34000000357628	0.98792165517807	-0.15206219255924	73.000000000000	0.0000000000000
0.34400001168251	0.98765075206757	-0.15381845831871	73.000000000000	0.0000000000000
0.34799998998642	0.98737800121307	-0.15557450056076	73.000000000000	0.0000000000000
0.35199999809265	0.98710322380066	-0.15733039379120	73.000000000000	0.0000000000000
0.35600000619888	0.98682653903961	-0.15908621251583	73.000000000000	0.0000000000000
0.36000001430511	0.98654776811600	-0.16084204614162	73.000000000000	0.0000000000000
0.36399999260902	0.98626697063446	-0.16259796917439	73.000000000000	0.0000000000000
0.36800000071526	0.98598396778107	-0.16435407102108	73.000000000000	0.0000000000000
0.37200000882149	0.98569887876511	-0.16611044108868	73.000000000000	0.0000000000000
0.37599998712540	0.98541146516800	-0.16786710917950	73.000000000000	0.0000000000000
0.37999999523163	0.98512172698975	-0.16962417960167	73.000000000000	0.0000000000000
0.38400000333786	0.98482960462570	-0.17138163745403	73.000000000000	0.0000000000000
0.38800001144409	0.98453497886658	-0.17313961684704	73.000000000000	0.0000000000000
0.39199998974800	0.98423784971237	-0.17489811778069	73.000000000000	0.0000000000000
0.39599999785423	0.98393797874451	-0.17665718495846	73.000000000000	0.0000000000000
0.40000000596046	0.98363536596298	-0.17841684818268	73.000000000000	0.0000000000000
0.40400001406670	0.98332983255386	-0.18017713725567	73.000000000000	0.0000000000000
0.40799999237061	0.98302149772644	-0.18193806707859	73.000000000000	0.0000000000000
0.41200000047684	0.98271006345749	-0.18369963765144	73.000000000000	0.0000000000000
0.41600000858307	0.98239547014236	-0.18546184897423	73.000000000000	0.0000000000000
0.41999998688698	0.98207759857178	-0.18722473084927	73.000000000000	0.0000000000000
0.42399999499321	0.98175644874573	-0.18898822367191	73.000000000000	0.0000000000000
0.42800000309944	0.98143178224564	-0.19075232744217	73.000000000000	0.0000000000000
0.43200001120567	0.98110359907150	-0.19251698255539	73.000000000000	0.0000000000000
0.43599998950958	0.98077178001404	-0.19428220391273	73.000000000000	0.0000000000000
0.43999999761581	0.98043614625931	-0.19604791700840	73.000000000000	0.0000000000000
0.44400000572205	0.98009669780731	-0.19781404733658	73.000000000000	0.0000000000000
0.44800001382828	0.97975337505341	-0.19958057999611	73.000000000000	0.0000000000000
0.45199999213219	0.97940605878830	-0.20134744048119	73.000000000000	0.0000000000000
0.45600000023842	0.97905457019806	-0.20311453938484	73.000000000000	0.0000000000000
0.46000000834465	0.97869902849197	-0.20488178730011	73.000000000000	0.0000000000000
0.46399998664856	0.97833931446075	-0.20664916932583	73.000000000000	0.0000000000000
0.46799999475479	0.97797518968582	-0.20841649174690	73.000000000000	0.0000000000000
0.47200000286102	0.97760677337646	-0.21018375456333	73.000000000000	0.0000000000000
0.47600001096725	0.97723382711411	-0.21195079386234	73.000000000000	0.0000000000000
0.47999998927116	0.97685664892197	-0.21371757984161	73.000000000000	0.0000000000000
0.48399999737740	0.97647488117218	-0.21548391878605	73.000000000000	0.0000000000000
0.48800000548363	0.97608852386475	-0.21724975109100	73.000000000000	0.0000000000000
0.49200001358986	0.97569781541824	-0.21901500225067	73.000000000000	0.0000000000000
0.49599999189377	0.97530263662338	-0.22077950835228	73.000000000000	0.0000000000000
0.50000000000000	0.97490262985229	-0.22254312038422	73.000000000000	0.0000000000000
0.50400000810623	0.97449821233749	-0.22430583834648	73.000000000000	0.0000000000000
0.50800001621246	0.97408932447433	-0.22606746852398	73.000000000000	0.0000000000000
0.51200002431870	0.97367590665817	-0.22782790660858	73.000000000000	0.0000000000000
0.51599997282028	0.97325807809830	-0.22958709299564	73.000000000000	0.0000000000000
0.51999998092651	0.97283571958542	-0.23134484887123	73.000000000000	0.0000000000000
0.52399998903275	0.97240900993347	-0.23310108482838	73.000000000000	0.0000000000000
0.52799999713898	0.97197782993317	-0.23485574126244	73.000000000000	0.0000000000000
0.53200000524521	0.97154253721237	-0.23660871386528	73.000000000000	0.0000000000000
0.53600001335144	0.97110289335251	-0.23835985362530	73.000000000000	0.0000000000000
0.54000002145767	0.97065913677216	-0.24010914564133	73.000000000000	0.0000000000000
0.54400002956390	0.97021132707596	-0.24185642600060	73.000000000000	0.0000000000000
0.54799997806549	0.96975940465927	-0.24360166490078	73.000000000000	0.0000000000000
0.55199998617172	0.96930372714996	-0.24534478783607	73.000000000000	0.0000000000000
0.55599999427795	0.96884417533875	-0.24708575010300	73.000000000000	0.0000000000000
0.56000000238419	0.96838098764420	-0.24882446229458	73.000000000000	0.0000000000000
0.56400001049042	0.96791404485703	-0.25056087970734	73.000000000000	0.0000000000000
0.56800001859665	0.96744370460510	-0.25229495763779	73.000000000000	0.0000000000000
0.57200002670288	0.96696990728378	-0.25402665138245	73.000000000000	0.0000000000000
0.57599997520447	0.96649283170700	-0.25575596094131	73.000000000000	0.0000000000000
0.57999998331070	0.96601259708405	-0.25748285651207	73.000000000000	0.0000000000000
0.58399999141693	0.96552932262421	-0.25920730829239	73.000000000000	0.0000000000000
0.58799999952316	0.96504306793213	-0.26092934608459	73.000000000000	0.0000000000000
0.59200000762939	0.96455389261246	-0.26264896988869	73.000000000000	0.0000000000000
0.59600001573563	0.96406209468842	-0.26436617970467	73.000000000000	0.0000000000000
0.60000002384186	0.96356755495071	-0.26608100533485	73.000000000000	0.0000000000000
0.60399997234344	0.96307069063187	-0.26779350638390	73.000000000000	0.0000000000000
0.60799998044968	0.96257132291794	-0.26950368285179	73.000000000000	0.0000000000000
0.61199998855591	0.96206974983215	-0.27121162414551	73.000000000000	0.0000000000000
0.61599999666214	0.96156573295593	-0.27291727066040	73.000000000000	0.0000000000000
0.62000000476837	0.96105980873108	-0.27462080121040	73.000000000000	0.0000000000000
0.62400001287460	0.96055185794830	-0.27632233500481	73.000000000000	0.0000000000000
0.62800002098083	0.96004182100296	-0.27802178263664	73.000000000000	0.0000000000000
0.63200002908707	0.95952993631363	-0.27971932291985	73.000000000000	0.0000000000000
0.63599997758865	0.95901632308960	-0.28141501545906	73.000000000000	0.0000000000000
0.63999998569489	0.95850098133087	-0.28310900926590	73.000000000000	0.0000000000000
0.64399999380112	0.95798385143280	-0.28480136394501	73.000000000000	0.0000000000000
0.64800000190735	0.95746511220932	-0.28649213910103	73.000000000000	0.0000000000000
0.65200001001358	0.95694482326508	-0.28818151354790	73.000000000000	0.0000000000000
0.65600001811981	0.95642292499542	-0.28986954689026	73.000000000000	0.0000000000000
0.66000002622604	0.95589941740036	-0.29155638813972	73.000000000000	0.0000000000000
0.66399997472763	0.95537453889847	-0.29324203729630	73.000000000000	0.0000000000000
0.66799998283386	0.95484793186188	-0.29492673277855	73.000000000000	0.0000000000000
0.67199999094009	0.95431977510452	-0.29661056399345	73.000000000000	0.0000000000000
0.67599999904633	0.95379006862640	-0.29829356074333	73.000000000000	0.0000000000000
0.68000000715256	0.95325887203217	-0.29997593164444	73.000000000000	0.0000000000000
0.68400001525879	0.95272606611252	-0.30165776610374	73.000000000000	0.0000000000000
0.68800002336502	0.95219159126282	-0.30333915352821	73.000000000000	0.0000000000000
0.69199997186661	0.95165538787842	-0.30502015352249	73.000000000000	0.0000000000000
0.69599997997284	0.95111745595932	-0.30670088529587	73.000000000000	0.0000000000000
0.69999998807907	0.95057761669159	-0.30838146805763	73.000000000000	0.0000000000000
0.70399999618530	0.95003592967987	-0.31006199121475	73.000000000000	0.0000000000000
0.70800000429153	0.94949221611023	-0.31174251437187	73.000000000000	0.0000000000000
0.71200001239777	0.94894653558731	-0.31342315673828	73.000000000000	0.0000000000000
0.71600002050400	0.94839853048325	-0.31510394811630	73.000000000000	0.0000000000000
0.72000002861023	0.94784837961197	-0.31678494811058	73.000000000000	0.0000000000000
0.72399997711182	0.94729584455490	-0.31846627593040	73.000000000000	0.0000000000000
0.72799998521805	0.94674086570740	-0.32014787197113	73.000000000000	0.0000000000000
0.73199999332428	0.94618326425552	-0.32182988524437	73.000000000000	0.0000000000000
0.73600000143051	0.94562292098999	-0.32351225614548	73.000000000000	0.0000000000000
0.74000000953674	0.94505977630615	-0.32519507408142	73.000000000000	0.0000000000000
0.74400001764297	0.94449371099472	-0.32687833905220	73.000000000000	0.0000000000000
0.74800002574921	0.94392448663712	-0.32856202125549	73.000000000000	0.0000000000000
0.75199997425079	0.94335222244263	-0.33024609088898	73.000000000000	0.0000000000000
0.75599998235703	0.94277656078339	-0.33193063735962	73.000000000000	0.0000000000000
0.75999999046326	0.94219738245010	-0.33361557126045	73.000000000000	0.0000000000000
0.76399999856949	0.94161486625671	-0.33530083298683	73.000000000000	0.0000000000000
0.76800000667572	0.94102841615677	-0.33698645234108	73.000000000000	0.0000000000000
0.77200001478195	0.94043821096420	-0.33867228031158	73.000000000000	0.0000000000000
0.77600002288818	0.93984425067902	-0.34035834670067	73.000000000000	0.0000000000000
0.77999997138977	0.93924611806870	-0.34204450249672	73.000000000000	0.0000000000000
0.78399997949600	0.93864387273788	-0.34373071789742	73.000000000000	0.0000000000000
0.78799998760223	0.93803739547729	-0.34541687369347	73.000000000000	0.0000000000000
0.79199999570847	0.93742668628693	-0.34710294008255	73.000000000000	0.0000000000000
0.79600000381470	0.93681138753891	-0.34878870844841	73.000000000000	0.0000000000000
0.80000001192093	0.93619185686111	-0.35047417879105	73.000000000000	0.0000000000000
0.80400002002716	0.93556767702103	-0.35215920209885	73.000000000000	0.0000000000000
0.80800002813339	0.93493884801865	-0.35384359955788	73.000000000000	0.0000000000000
0.81199997663498	0.93430531024933	-0.35552728176117	73.000000000000	0.0000000000000
0.81599998474121	0.93366712331772	-0.35721021890640	73.000000000000	0.0000000000000
0.81999999284744	0.93302410840988	-0.35889211297035	73.000000000000	0.0000000000000
0.82400000095367	0.93237644433975	-0.36057293415070	73.000000000000	0.0000000000000
0.82800000905991	0.93172389268875	-0.36225250363350	73.000000000000	0.0000000000000
0.83200001716614	0.93106645345688	-0.36393073201180	73.000000000000	0.0000000000000
0.83600002527237	0.93040436506271	-0.36560735106468	73.000000000000	0.0000000000000
0.83999997377396	0.92973732948303	-0.36728239059448	73.000000000000	0.0000000000000
0.84399998188019	0.92906570434570	-0.36895561218262	73.000000000000	0.0000000000000
0.84799998998642	0.92838925123215	-0.37062686681747	73.000000000000	0.0000000000000
0.85199999809265	0.92770808935165	-0.37229606509209	73.000000000000	0.0000000000000
0.85600000619888	0.92702239751816	-0.37396305799484	73.000000000000	0.0000000000000
0.86000001430511	0.92633205652237	-0.37562769651413	73.000000000000	0.0000000000000
0.86400002241135	0.92563724517822	-0.37728998064995	73.000000000000	0.0000000000000
0.86799997091293	0.92493802309036	-0.37894961237907	73.000000000000	0.0000000000000
0.87199997901917	0.92423444986343	-0.38060653209686	73.000000000000	0.0000000000000
0.87599998712540	0.92352670431137	-0.38226071000099	73.000000000000	0.0000000000000
0.87999999523163	0.92281478643417	-0.38391199707985	73.000000000000	0.0000000000000
0.88400000333786	0.92209887504578	-0.38556024432182	73.000000000000	0.0000000000000
0.88800001144409	0.92137908935547	-0.38720548152924	73.000000000000	0.0000000000000
0.89200001955032	0.92065548896790	-0.38884758949280	73.000000000000	0.0000000000000
0.89600002765656	0.91992831230164	-0.39048644900322	73.000000000000	0.0000000000000
0.89999997615814	0.91919761896133	-0.39212208986282	73.000000000000	0.0000000000000
0.90399998426437	0.91846346855164	-0.39375442266464	73.000000000000	0.0000000000000
0.90799999237061	0.91772633790970	-0.39538344740868	73.000000000000	0.0000000000000
0.91200000047684	0.91698592901230	-0.39700913429260	73.000000000000	0.0000000000000
0.91600000858307	0.91624271869659	-0.39863145351410	73.000000000000	0.0000000000000
0.92000001668930	0.91549670696259	-0.40025037527084	73.000000000000	0.0000000000000
0.92400002479553	0.91474795341492	-0.40186592936516	73.000000000000	0.0000000000000
0.92799997329712	0.91399681568146	-0.40347820520401	73.000000000000	0.0000000000000
0.93199998140335	0.91324335336685	-0.40508714318275	73.000000000000	0.0000000000000
