#Parameters = {D=60; L=50}
#"Frequency / GHz"	"S1,1 (D=60) [Re]"	"S1,1 (D=60) [Im]"	"Ref.Imp. [Re]"	"Ref.Imp. [Im]"
#---------------------------------------------------------------------------------------
0.0000000000000	0.99962157011032	-0.0000000000000	73.000000000000	0.0000000000000
0.0040000001899898	0.99962013959885	-0.0017889693845063	73.000000000000	0.0000000000000
0.0080000003799796	0.99961572885513	-0.0035779471509159	73.000000000000	0.0000000000000
0.012000000104308	0.99960857629776	-0.0053669428452849	73.000000000000	0.0000000000000
0.016000000759959	0.99959850311279	-0.0071559641510248	73.000000000000	0.0000000000000
0.019999999552965	0.99958562850952	-0.0089450189843774	73.000000000000	0.0000000000000
0.024000000208616	0.99956983327866	-0.010734117589891	73.000000000000	0.0000000000000
0.028000000864267	0.99955117702484	-0.012523267418146	73.000000000000	0.0000000000000
0.032000001519918	0.99952954053879	-0.014312474988401	73.000000000000	0.0000000000000
0.035999998450279	0.99950510263443	-0.016101751476526	73.000000000000	0.0000000000000
0.039999999105930	0.99947780370712	-0.017891103401780	73.000000000000	0.0000000000000
0.043999999761581	0.99944746494293	-0.019680535420775	73.000000000000	0.0000000000000
0.048000000417233	0.99941420555115	-0.021470054984093	73.000000000000	0.0000000000000
0.052000001072884	0.99937820434570	-0.023259675130248	73.000000000000	0.0000000000000
0.056000001728535	0.99933922290802	-0.025049393996596	73.000000000000	0.0000000000000
0.059999998658895	0.99929714202881	-0.026839224621654	73.000000000000	0.0000000000000
0.064000003039837	0.99925237894058	-0.028629167005420	73.000000000000	0.0000000000000
0.068000003695488	0.99920445680618	-0.030419234186411	73.000000000000	0.0000000000000
0.071999996900558	0.99915367364883	-0.032209422439337	73.000000000000	0.0000000000000
0.075999997556210	0.99909991025925	-0.033999744802713	73.000000000000	0.0000000000000
0.079999998211861	0.99904310703278	-0.035790193825960	73.000000000000	0.0000000000000
0.083999998867512	0.99898338317871	-0.037580788135529	73.000000000000	0.0000000000000
0.087999999523163	0.99892061948776	-0.039371520280838	73.000000000000	0.0000000000000
0.092000000178814	0.99885481595993	-0.041162390261889	73.000000000000	0.0000000000000
0.096000000834465	0.99878603219986	-0.042953409254551	73.000000000000	0.0000000000000
0.10000000149012	0.99871420860291	-0.044744577258825	73.000000000000	0.0000000000000
0.10400000214577	0.99863922595978	-0.046535894274712	73.000000000000	0.0000000000000
0.10800000280142	0.99856126308441	-0.048327360302210	73.000000000000	0.0000000000000
0.11200000345707	0.99848020076752	-0.050118971616030	73.000000000000	0.0000000000000
0.11599999666214	0.99839603900909	-0.051910728216171	73.000000000000	0.0000000000000
0.11999999731779	0.99830883741379	-0.053702633827925	73.000000000000	0.0000000000000
0.12399999797344	0.99821835756302	-0.055494684726000	73.000000000000	0.0000000000000
0.12800000607967	0.99812483787537	-0.057286873459816	73.000000000000	0.0000000000000
0.13199999928474	0.99802815914154	-0.059079203754663	73.000000000000	0.0000000000000
0.13600000739098	0.99792838096619	-0.060871664434671	73.000000000000	0.0000000000000
0.14000000059605	0.99782532453537	-0.062664262950420	73.000000000000	0.0000000000000
0.14399999380112	0.99771904945374	-0.064456976950169	73.000000000000	0.0000000000000
0.14800000190735	0.99760949611664	-0.066249802708626	73.000000000000	0.0000000000000
0.15199999511242	0.99749684333801	-0.068042755126953	73.000000000000	0.0000000000000
0.15600000321865	0.99738097190857	-0.069835796952248	73.000000000000	0.0000000000000
0.15999999642372	0.99726176261902	-0.071628950536251	73.000000000000	0.0000000000000
0.16400000452995	0.99713921546936	-0.073422186076641	73.000000000000	0.0000000000000
0.16799999773502	0.99701339006424	-0.075215496122837	73.000000000000	0.0000000000000
0.17200000584126	0.99688440561295	-0.077008873224258	73.000000000000	0.0000000000000
0.17599999904633	0.99675196409225	-0.078802309930325	73.000000000000	0.0000000000000
0.18000000715256	0.99661618471146	-0.080595806241035	73.000000000000	0.0000000000000
0.18400000035763	0.99647706747055	-0.082389324903488	73.000000000000	0.0000000000000
0.18799999356270	0.99633473157883	-0.084182873368263	73.000000000000	0.0000000000000
0.19200000166893	0.99618893861771	-0.085976421833038	73.000000000000	0.0000000000000
0.19599999487400	0.99603968858719	-0.087769970297813	73.000000000000	0.0000000000000
0.20000000298023	0.99588698148727	-0.089563503861427	73.000000000000	0.0000000000000
0.20399999618530	0.99573099613190	-0.091357007622719	73.000000000000	0.0000000000000
0.20800000429153	0.99557149410248	-0.093150451779366	73.000000000000	0.0000000000000
0.21199999749660	0.99540859460831	-0.094943836331367	73.000000000000	0.0000000000000
0.21600000560284	0.99524211883545	-0.096737131476402	73.000000000000	0.0000000000000
0.21999999880791	0.99507230520248	-0.098530322313309	73.000000000000	0.0000000000000
0.22400000691414	0.99489897489548	-0.10032341629267	73.000000000000	0.0000000000000
0.22800000011921	0.99472218751907	-0.10211636871099	73.000000000000	0.0000000000000
0.23199999332428	0.99454188346863	-0.10390915721655	73.000000000000	0.0000000000000
0.23600000143051	0.99435812234879	-0.10570178925991	73.000000000000	0.0000000000000
0.23999999463558	0.99417078495026	-0.10749420523643	73.000000000000	0.0000000000000
0.24400000274181	0.99397987127304	-0.10928643494844	73.000000000000	0.0000000000000
0.24799999594688	0.99378556013107	-0.11107841879129	73.000000000000	0.0000000000000
0.25200000405312	0.99358761310577	-0.11287015676498	73.000000000000	0.0000000000000
0.25600001215935	0.99338620901108	-0.11466161906719	73.000000000000	0.0000000000000
0.25999999046326	0.99318110942841	-0.11645276844501	73.000000000000	0.0000000000000
0.26399999856949	0.99297255277634	-0.11824363470078	73.000000000000	0.0000000000000
0.26800000667572	0.99276036024094	-0.12003412097692	73.000000000000	0.0000000000000
0.27200001478195	0.99254465103149	-0.12182427197695	73.000000000000	0.0000000000000
0.27599999308586	0.99232536554337	-0.12361404299736	73.000000000000	0.0000000000000
0.28000000119209	0.99210250377655	-0.12540340423584	73.000000000000	0.0000000000000
0.28400000929832	0.99187612533569	-0.12719233334064	73.000000000000	0.0000000000000
0.28799998760223	0.99164617061615	-0.12898083031178	73.000000000000	0.0000000000000
0.29199999570847	0.99141258001328	-0.13076882064342	73.000000000000	0.0000000000000
0.29600000381470	0.99117547273636	-0.13255633413792	73.000000000000	0.0000000000000
0.30000001192093	0.99093466997147	-0.13434331119061	73.000000000000	0.0000000000000
0.30399999022484	0.99069035053253	-0.13612976670265	73.000000000000	0.0000000000000
0.30799999833107	0.99044251441956	-0.13791562616825	73.000000000000	0.0000000000000
0.31200000643730	0.99019098281860	-0.13970091938972	73.000000000000	0.0000000000000
0.31600001454353	0.98993605375290	-0.14148560166359	73.000000000000	0.0000000000000
0.31999999284744	0.98967754840851	-0.14326967298985	73.000000000000	0.0000000000000
0.32400000095367	0.98941540718079	-0.14505305886269	73.000000000000	0.0000000000000
0.32800000905991	0.98914974927902	-0.14683577418327	73.000000000000	0.0000000000000
0.33199998736382	0.98888057470322	-0.14861778914928	73.000000000000	0.0000000000000
0.33599999547005	0.98860782384872	-0.15039910376072	73.000000000000	0.0000000000000
0.34000000357628	0.98833155632019	-0.15217964351177	73.000000000000	0.0000000000000
0.34400001168251	0.98805183172226	-0.15395940840244	73.000000000000	0.0000000000000
0.34799998998642	0.98776847124100	-0.15573839843273	73.000000000000	0.0000000000000
0.35199999809265	0.98748165369034	-0.15751658380032	73.000000000000	0.0000000000000
0.35600000619888	0.98719143867493	-0.15929396450520	73.000000000000	0.0000000000000
0.36000001430511	0.98689758777618	-0.16107046604156	73.000000000000	0.0000000000000
0.36399999260902	0.98660033941269	-0.16284611821175	73.000000000000	0.0000000000000
0.36800000071526	0.98629969358444	-0.16462089121342	73.000000000000	0.0000000000000
0.37200000882149	0.98599565029144	-0.16639475524426	73.000000000000	0.0000000000000
0.37599998712540	0.98568803071976	-0.16816768050194	73.000000000000	0.0000000000000
0.37999999523163	0.98537701368332	-0.16993968188763	73.000000000000	0.0000000000000
0.38400000333786	0.98506253957748	-0.17171071469784	73.000000000000	0.0000000000000
0.38800001144409	0.98474484682083	-0.17348079383373	73.000000000000	0.0000000000000
0.39199998974800	0.98442375659943	-0.17524985969067	73.000000000000	0.0000000000000
0.39599999785423	0.98409914970398	-0.17701794207096	73.000000000000	0.0000000000000
0.40000000596046	0.98377138376236	-0.17878498136997	73.000000000000	0.0000000000000
0.40400001406670	0.98344016075134	-0.18055100739002	73.000000000000	0.0000000000000
0.40799999237061	0.98310571908951	-0.18231600522995	73.000000000000	0.0000000000000
0.41200000047684	0.98276782035828	-0.18407991528511	73.000000000000	0.0000000000000
0.41600000858307	0.98242688179016	-0.18584275245667	73.000000000000	0.0000000000000
0.41999998688698	0.98208260536194	-0.18760456144810	73.000000000000	0.0000000000000
0.42399999499321	0.98173511028290	-0.18936520814896	73.000000000000	0.0000000000000
0.42800000309944	0.98138427734375	-0.19112479686737	73.000000000000	0.0000000000000
0.43200001120567	0.98103034496307	-0.19288326799870	73.000000000000	0.0000000000000
0.43599998950958	0.98067313432693	-0.19464059174061	73.000000000000	0.0000000000000
0.43999999761581	0.98031294345856	-0.19639681279659	73.000000000000	0.0000000000000
0.44400000572205	0.97994947433472	-0.19815190136433	73.000000000000	0.0000000000000
0.44800001382828	0.97958284616470	-0.19990582764149	73.000000000000	0.0000000000000
0.45199999213219	0.97921317815781	-0.20165860652924	73.000000000000	0.0000000000000
0.45600000023842	0.97884029150009	-0.20341025292873	73.000000000000	0.0000000000000
0.46000000834465	0.97846442461014	-0.20516075193882	73.000000000000	0.0000000000000
0.46399998664856	0.97808551788330	-0.20691008865833	73.000000000000	0.0000000000000
0.46799999475479	0.97770357131958	-0.20865823328495	73.000000000000	0.0000000000000
0.47200000286102	0.97731864452362	-0.21040526032448	73.000000000000	0.0000000000000
0.47600001096725	0.97693055868149	-0.21215109527111	73.000000000000	0.0000000000000
0.47999998927116	0.97653961181641	-0.21389578282833	73.000000000000	0.0000000000000
0.48399999737740	0.97614562511444	-0.21563929319382	73.000000000000	0.0000000000000
0.48800000548363	0.97574865818024	-0.21738162636757	73.000000000000	0.0000000000000
0.49200001358986	0.97534894943237	-0.21912285685539	73.000000000000	0.0000000000000
0.49599999189377	0.97494614124298	-0.22086286544800	73.000000000000	0.0000000000000
0.50000000000000	0.97454053163528	-0.22260175645351	73.000000000000	0.0000000000000
0.50400000810623	0.97413194179535	-0.22433948516846	73.000000000000	0.0000000000000
0.50800001621246	0.97372055053711	-0.22607609629631	73.000000000000	0.0000000000000
0.51200002431870	0.97330623865128	-0.22781153023243	73.000000000000	0.0000000000000
0.51599997282028	0.97288912534714	-0.22954586148262	73.000000000000	0.0000000000000
0.51999998092651	0.97246921062469	-0.23127904534340	73.000000000000	0.0000000000000
0.52399998903275	0.97204655408859	-0.23301111161709	73.000000000000	0.0000000000000
0.52799999713898	0.97162097692490	-0.23474206030369	73.000000000000	0.0000000000000
0.53200000524521	0.97119265794754	-0.23647190630436	73.000000000000	0.0000000000000
0.53600001335144	0.97076153755188	-0.23820066452026	73.000000000000	0.0000000000000
0.54000002145767	0.97032755613327	-0.23992833495140	73.000000000000	0.0000000000000
0.54400002956390	0.96989107131958	-0.24165491759777	73.000000000000	0.0000000000000
0.54799997806549	0.96945160627365	-0.24338042736053	73.000000000000	0.0000000000000
0.55199998617172	0.96900957822800	-0.24510489404202	73.000000000000	0.0000000000000
0.55599999427795	0.96856474876404	-0.24682831764221	73.000000000000	0.0000000000000
0.56000000238419	0.96811705827713	-0.24855072796345	73.000000000000	0.0000000000000
0.56400001049042	0.96766686439514	-0.25027206540108	73.000000000000	0.0000000000000
0.56800001859665	0.96721386909485	-0.25199243426323	73.000000000000	0.0000000000000
0.57200002670288	0.96675819158554	-0.25371176004410	73.000000000000	0.0000000000000
0.57599997520447	0.96629983186722	-0.25543010234833	73.000000000000	0.0000000000000
0.57999998331070	0.96583867073059	-0.25714752078056	73.000000000000	0.0000000000000
0.58399999141693	0.96537494659424	-0.25886392593384	73.000000000000	0.0000000000000
0.58799999952316	0.96490854024887	-0.26057934761047	73.000000000000	0.0000000000000
0.59200000762939	0.96443927288055	-0.26229390501976	73.000000000000	0.0000000000000
0.59600001573563	0.96396750211716	-0.26400750875473	73.000000000000	0.0000000000000
0.60000002384186	0.96349292993546	-0.26572018861771	73.000000000000	0.0000000000000
0.60399997234344	0.96301585435867	-0.26743200421333	73.000000000000	0.0000000000000
0.60799998044968	0.96253585815430	-0.26914289593697	73.000000000000	0.0000000000000
0.61199998855591	0.96205323934555	-0.27085292339325	73.000000000000	0.0000000000000
0.61599999666214	0.96156799793243	-0.27256208658218	73.000000000000	0.0000000000000
0.62000000476837	0.96107995510101	-0.27427035570145	73.000000000000	0.0000000000000
0.62400001287460	0.96058923006058	-0.27597787976265	73.000000000000	0.0000000000000
0.62800002098083	0.96009582281113	-0.27768450975418	73.000000000000	0.0000000000000
0.63200002908707	0.95959973335266	-0.27939033508301	73.000000000000	0.0000000000000
0.63599997758865	0.95910084247589	-0.28109544515610	73.000000000000	0.0000000000000
0.63999998569489	0.95859920978546	-0.28279963135719	73.000000000000	0.0000000000000
0.64399999380112	0.95809489488602	-0.28450313210487	73.000000000000	0.0000000000000
0.64800000190735	0.95758777856827	-0.28620582818985	73.000000000000	0.0000000000000
0.65200001001358	0.95707798004150	-0.28790774941444	73.000000000000	0.0000000000000
0.65600001811981	0.95656532049179	-0.28960889577866	73.000000000000	0.0000000000000
0.66000002622604	0.95604985952377	-0.29130932688713	73.000000000000	0.0000000000000
0.66399997472763	0.95553159713745	-0.29300904273987	73.000000000000	0.0000000000000
0.66799998283386	0.95501065254211	-0.29470801353455	73.000000000000	0.0000000000000
0.67199999094009	0.95448684692383	-0.29640629887581	73.000000000000	0.0000000000000
0.67599999904633	0.95396012067795	-0.29810383915901	73.000000000000	0.0000000000000
0.68000000715256	0.95343047380447	-0.29980066418648	73.000000000000	0.0000000000000
0.68400001525879	0.95289808511734	-0.30149680376053	73.000000000000	0.0000000000000
0.68800002336502	0.95236283540726	-0.30319225788116	73.000000000000	0.0000000000000
0.69199997186661	0.95182454586029	-0.30488699674606	73.000000000000	0.0000000000000
0.69599997997284	0.95128339529037	-0.30658107995987	73.000000000000	0.0000000000000
0.69999998807907	0.95073926448822	-0.30827444791794	73.000000000000	0.0000000000000
0.70399999618530	0.95019221305847	-0.30996713042259	73.000000000000	0.0000000000000
0.70800000429153	0.94964230060577	-0.31165915727615	73.000000000000	0.0000000000000
0.71200001239777	0.94908916950226	-0.31335049867630	73.000000000000	0.0000000000000
0.71600002050400	0.94853317737579	-0.31504112482071	73.000000000000	0.0000000000000
0.72000002861023	0.94797408580780	-0.31673106551170	73.000000000000	0.0000000000000
0.72399997711182	0.94741195440292	-0.31842032074928	73.000000000000	0.0000000000000
0.72799998521805	0.94684672355652	-0.32010889053345	73.000000000000	0.0000000000000
0.73199999332428	0.94627845287323	-0.32179677486420	73.000000000000	0.0000000000000
0.73600000143051	0.94570702314377	-0.32348397374153	73.000000000000	0.0000000000000
0.74000000953674	0.94513249397278	-0.32517039775848	73.000000000000	0.0000000000000
0.74400001764297	0.94455474615097	-0.32685616612434	73.000000000000	0.0000000000000
0.74800002574921	0.94397389888763	-0.32854118943214	73.000000000000	0.0000000000000
0.75199997425079	0.94338977336884	-0.33022549748421	73.000000000000	0.0000000000000
0.75599998235703	0.94280248880386	-0.33190903067589	73.000000000000	0.0000000000000
0.75999999046326	0.94221192598343	-0.33359187841415	73.000000000000	0.0000000000000
0.76399999856949	0.94161820411682	-0.33527392148972	73.000000000000	0.0000000000000
0.76800000667572	0.94102102518082	-0.33695518970490	73.000000000000	0.0000000000000
0.77200001478195	0.94042068719864	-0.33863565325737	73.000000000000	0.0000000000000
0.77600002288818	0.93981701135635	-0.34031531214714	73.000000000000	0.0000000000000
0.77999997138977	0.93920999765396	-0.34199416637421	73.000000000000	0.0000000000000
0.78399997949600	0.93859964609146	-0.34367218613625	73.000000000000	0.0000000000000
0.78799998760223	0.93798583745956	-0.34534937143326	73.000000000000	0.0000000000000
0.79199999570847	0.93736869096756	-0.34702569246292	73.000000000000	0.0000000000000
0.79600000381470	0.93674814701080	-0.34870111942291	73.000000000000	0.0000000000000
0.80000001192093	0.93612426519394	-0.35037562251091	73.000000000000	0.0000000000000
0.80400002002716	0.93549680709839	-0.35204920172691	73.000000000000	0.0000000000000
0.80800002813339	0.93486595153809	-0.35372188687325	73.000000000000	0.0000000000000
0.81199997663498	0.93423157930374	-0.35539352893829	73.000000000000	0.0000000000000
0.81599998474121	0.93359375000000	-0.35706421732903	73.000000000000	0.0000000000000
0.81999999284744	0.93295240402222	-0.35873389244080	73.000000000000	0.0000000000000
0.82400000095367	0.93230754137039	-0.36040252447128	73.000000000000	0.0000000000000
0.82800000905991	0.93165916204453	-0.36207011342049	73.000000000000	0.0000000000000
0.83200001716614	0.93100726604462	-0.36373659968376	73.000000000000	0.0000000000000
0.83600002527237	0.93035173416138	-0.36540192365646	73.000000000000	0.0000000000000
0.83999997377396	0.92969274520874	-0.36706617474556	73.000000000000	0.0000000000000
0.84399998188019	0.92903012037277	-0.36872923374176	73.000000000000	0.0000000000000
0.84799998998642	0.92836397886276	-0.37039113044739	73.000000000000	0.0000000000000
0.85199999809265	0.92769408226013	-0.37205180525780	73.000000000000	0.0000000000000
0.85600000619888	0.92702078819275	-0.37371119856834	73.000000000000	0.0000000000000
0.86000001430511	0.92634373903275	-0.37536931037903	73.000000000000	0.0000000000000
0.86400002241135	0.92566317319870	-0.37702611088753	73.000000000000	0.0000000000000
0.86799997091293	0.92497885227203	-0.37868162989616	73.000000000000	0.0000000000000
0.87199997901917	0.92429107427597	-0.38033571839333	73.000000000000	0.0000000000000
0.87599998712540	0.92359960079193	-0.38198843598366	73.000000000000	0.0000000000000
0.87999999523163	0.92290455102921	-0.38363975286484	73.000000000000	0.0000000000000
0.88400000333786	0.92220580577850	-0.38528960943222	73.000000000000	0.0000000000000
0.88800001144409	0.92150360345840	-0.38693797588348	73.000000000000	0.0000000000000
0.89200001955032	0.92079752683640	-0.38858479261398	73.000000000000	0.0000000000000
0.89600002765656	0.92008799314499	-0.39023011922836	73.000000000000	0.0000000000000
0.89999997615814	0.91937482357025	-0.39187383651733	73.000000000000	0.0000000000000
0.90399998426437	0.91865801811218	-0.39351594448090	73.000000000000	0.0000000000000
0.90799999237061	0.91793769598007	-0.39515644311905	73.000000000000	0.0000000000000
0.91200000047684	0.91721367835999	-0.39679533243179	73.000000000000	0.0000000000000
0.91600000858307	0.91648608446121	-0.39843240380287	73.000000000000	0.0000000000000
0.92000001668930	0.91575491428375	-0.40006783604622	73.000000000000	0.0000000000000
0.92400002479553	0.91502022743225	-0.40170150995255	73.000000000000	0.0000000000000
0.92799997329712	0.91428196430206	-0.40333339571953	73.000000000000	0.0000000000000
0.93199998140335	0.91354012489319	-0.40496346354485	73.000000000000	0.0000000000000
