# Version 1.00
#
freq[Hz];re:Trc1_S22;im:Trc1_S22;
1.000000000000000E+008;6.984416941860236E-001;-6.681727242419953E-001;
1.110000000000000E+008;6.358569960703571E-001;-7.194140840652706E-001;
1.220000000000000E+008;5.744113281315538E-001;-7.670524556745564E-001;
1.330000000000000E+008;5.032994237319413E-001;-8.146313550227343E-001;
1.440000000000000E+008;4.297654474959821E-001;-8.491502273019066E-001;
1.550000000000000E+008;3.506518016244398E-001;-8.785639632783454E-001;
1.660000000000000E+008;2.705537278812672E-001;-8.999554676068026E-001;
1.770000000000000E+008;1.846654539617373E-001;-9.088953866884088E-001;
1.880000000000000E+008;1.006556998652858E-001;-9.013847646268662E-001;
1.990000000000000E+008;3.768100084584505E-002;-8.744997795840925E-001;
2.100000000000000E+008;9.710240460342864E-005;-8.693638470335988E-001;
2.210000000000000E+008;-5.422279478376983E-002;-8.850081492213835E-001;
2.320000000000000E+008;-1.307211357409410E-001;-8.942551637772934E-001;
2.430000000000000E+008;-2.101000143387067E-001;-8.868466007003748E-001;
2.540000000000000E+008;-2.923213945012466E-001;-8.728017513356122E-001;
2.650000000000000E+008;-3.737599289797082E-001;-8.460979890520032E-001;
2.760000000000000E+008;-4.537944691329707E-001;-8.072865916674685E-001;
2.870000000000000E+008;-5.239084982754071E-001;-7.583711455639235E-001;
2.980000000000000E+008;-5.873318507394796E-001;-7.058095965444976E-001;
3.090000000000000E+008;-6.444456184191167E-001;-6.498782809279357E-001;
3.200000000000000E+008;-7.016000613440644E-001;-5.924384286260814E-001;
3.310000000000000E+008;-7.550692110713637E-001;-5.248798067531277E-001;
3.420000000000000E+008;-7.994204029655093E-001;-4.535634735247254E-001;
3.530000000000000E+008;-8.401843124673000E-001;-3.763997874996383E-001;
3.640000000000000E+008;-8.734563564266817E-001;-2.947842245203841E-001;
3.750000000000000E+008;-8.977519042820148E-001;-2.076504708656211E-001;
3.860000000000000E+008;-9.129330642980390E-001;-1.204554280019336E-001;
3.970000000000000E+008;-9.232034117506123E-001;-3.128153882326080E-002;
4.080000000000000E+008;-9.231757696537312E-001;6.346607464623817E-002;
4.190000000000000E+008;-9.109321559949375E-001;1.575203618765426E-001;
4.300000000000000E+008;-8.886196465824988E-001;2.501533864654953E-001;
4.410000000000000E+008;-8.551847455499573E-001;3.399317144368640E-001;
4.520000000000000E+008;-8.122791998535677E-001;4.263552120606947E-001;
4.630000000000000E+008;-7.597121308973711E-001;5.077663839614530E-001;
4.740000000000000E+008;-6.969089727824048E-001;5.832779438810897E-001;
4.850000000000000E+008;-6.250050265726275E-001;6.499564257758678E-001;
4.960000000000000E+008;-5.460555483125656E-001;7.050843406442219E-001;
5.070000000000000E+008;-4.651240591267106E-001;7.506341574783829E-001;
5.180000000000000E+008;-3.781947867920885E-001;7.878274575225768E-001;
5.290000000000000E+008;-2.882235582352914E-001;8.116233694791357E-001;
5.400000000000000E+008;-2.002748371645699E-001;8.270082519799172E-001;
5.510000000000000E+008;-1.110596462973101E-001;8.315107211732239E-001;
5.620000000000000E+008;-2.309458311229282E-002;8.237963217265127E-001;
5.730000000000000E+008;5.489932728705894E-002;8.038179829868012E-001;
5.840000000000000E+008;1.235115686705988E-001;7.862855138025247E-001;
5.950000000000000E+008;1.978684891017215E-001;7.679963864603172E-001;
6.060000000000000E+008;2.749993157353342E-001;7.386036407997142E-001;
6.170000000000000E+008;3.477953594676232E-001;6.975665223759452E-001;
6.280000000000000E+008;4.172788489739563E-001;6.488988690069207E-001;
6.390000000000000E+008;4.826220713808653E-001;5.859114348347074E-001;
6.500000000000000E+008;5.284686463200724E-001;5.085923767336548E-001;
6.610000000000000E+008;5.617646765613804E-001;4.396215328631554E-001;
6.720000000000000E+008;5.849649146718295E-001;3.640283820630184E-001;
6.830000000000000E+008;5.880271211380070E-001;2.904706055137935E-001;
6.940000000000000E+008;5.823698582301610E-001;2.368481864108489E-001;
7.050000000000000E+008;5.931324803716644E-001;1.900833956456939E-001;
7.160000000000000E+008;5.963343611266728E-001;1.232023727139785E-001;
7.270000000000000E+008;5.844757758145526E-001;6.068468792514535E-002;
7.380000000000000E+008;5.595463161215772E-001;1.949343026148711E-003;
7.490000000000000E+008;5.259391910284657E-001;-4.719705879551303E-002;
7.600000000000000E+008;4.813343109502562E-001;-7.986094678692865E-002;
7.710000000000000E+008;4.513964910562524E-001;-1.041197993170574E-001;
7.820000000000000E+008;4.111220084868940E-001;-1.262300229701052E-001;
7.930000000000000E+008;3.706751711608365E-001;-1.299034183721852E-001;
8.040000000000000E+008;3.476255040385855E-001;-1.220063865981379E-001;
8.150000000000000E+008;3.334272244096506E-001;-1.228933870665722E-001;
8.260000000000000E+008;3.256267205632712E-001;-1.186231132524254E-001;
8.370000000000000E+008;3.203105118293575E-001;-1.249678829355059E-001;
8.480000000000000E+008;3.097414656524012E-001;-1.289962073675171E-001;
8.590000000000000E+008;3.054315196008979E-001;-1.285380943517951E-001;
8.700000000000000E+008;3.088151822804710E-001;-1.296509369479756E-001;
8.810000000000000E+008;3.122801394743378E-001;-1.415216059961428E-001;
8.920000000000000E+008;3.109417902011982E-001;-1.556562894249851E-001;
9.030000000000000E+008;3.055856005428151E-001;-1.670827466804385E-001;
9.140000000000000E+008;2.976194988002641E-001;-1.752871131361088E-001;
9.250000000000000E+008;2.913115421286499E-001;-1.748352276740768E-001;
9.360000000000000E+008;2.998950367363450E-001;-1.765012757555822E-001;
9.470000000000000E+008;3.079016874261558E-001;-1.850458610074873E-001;
9.580000000000000E+008;3.221832704947121E-001;-1.968490657366820E-001;
9.690000000000000E+008;3.343938847360122E-001;-2.217711223323134E-001;
9.800000000000000E+008;3.422132478307111E-001;-2.502313983658999E-001;
9.910000000000000E+008;3.441559494377674E-001;-2.873015342021337E-001;
1.002000000000000E+009;3.330522581619924E-001;-3.220370101586714E-001;
1.013000000000000E+009;3.212025715858711E-001;-3.505264918885228E-001;
1.024000000000000E+009;3.109019743675646E-001;-3.802348675679634E-001;
1.035000000000000E+009;2.971142689434289E-001;-4.110543261720934E-001;
1.046000000000000E+009;2.821016849886026E-001;-4.453616973869810E-001;
1.057000000000000E+009;2.601497129971931E-001;-4.817040098943125E-001;
1.068000000000000E+009;2.289000938974861E-001;-5.190146035678771E-001;
1.079000000000000E+009;1.889653625375408E-001;-5.455854911904449E-001;
1.090000000000000E+009;1.514532369912676E-001;-5.661429452998592E-001;
1.101000000000000E+009;1.118798515090890E-001;-5.865338958142039E-001;
1.112000000000000E+009;7.084071085541949E-002;-6.016632468754333E-001;
1.123000000000000E+009;2.840206936381679E-002;-6.164705097211831E-001;
1.134000000000000E+009;-1.870911723505453E-002;-6.275246098603130E-001;
1.145000000000000E+009;-6.826863551639781E-002;-6.318292198011984E-001;
1.156000000000000E+009;-1.143363360052353E-001;-6.310447066602583E-001;
1.167000000000000E+009;-1.606347833051455E-001;-6.296032956001808E-001;
1.178000000000000E+009;-2.078860594393579E-001;-6.252245533473647E-001;
1.189000000000000E+009;-2.572426669140711E-001;-6.178913921563528E-001;
1.200000000000000E+009;-3.048441842720511E-001;-6.042742347277365E-001;
1.211000000000000E+009;-3.527259566847015E-001;-5.897779278357168E-001;
1.222000000000000E+009;-4.014653124439327E-001;-5.696521354317593E-001;
1.233000000000000E+009;-4.490122640435295E-001;-5.432259504983024E-001;
1.244000000000000E+009;-4.948861359716180E-001;-5.121625895040151E-001;
1.255000000000000E+009;-5.371285991226714E-001;-4.737068529619730E-001;
1.266000000000000E+009;-5.725540947868614E-001;-4.330466624461622E-001;
1.277000000000000E+009;-6.045199851871423E-001;-3.911436783528937E-001;
1.288000000000000E+009;-6.346320865677652E-001;-3.481790822055042E-001;
1.299000000000000E+009;-6.630919728181457E-001;-3.011023956054294E-001;
1.310000000000000E+009;-6.871322951074744E-001;-2.505498359783556E-001;
1.321000000000000E+009;-7.065336874074701E-001;-1.983945417336788E-001;
1.332000000000000E+009;-7.207463845646450E-001;-1.449757248461012E-001;
1.343000000000000E+009;-7.319737209667545E-001;-9.324373744547829E-002;
1.354000000000000E+009;-7.423372348659040E-001;-3.962469316951386E-002;
1.365000000000000E+009;-7.469403196767530E-001;1.772214216266113E-002;
1.376000000000000E+009;-7.466263456076213E-001;7.384970079073776E-002;
1.387000000000000E+009;-7.426235303905442E-001;1.310326430768194E-001;
1.398000000000000E+009;-7.340221401123909E-001;1.881972786954489E-001;
1.409000000000000E+009;-7.202223599052691E-001;2.451931972972682E-001;
1.420000000000000E+009;-7.007580371854696E-001;3.029525228798372E-001;
1.431000000000000E+009;-6.742466512135065E-001;3.578632638262345E-001;
1.442000000000000E+009;-6.432948032426442E-001;4.086337620146474E-001;
1.453000000000000E+009;-6.099497316365723E-001;4.540061823167536E-001;
1.464000000000000E+009;-5.775829030906756E-001;5.000512597054592E-001;
1.475000000000000E+009;-5.392444589305343E-001;5.464214405108578E-001;
1.486000000000000E+009;-4.964904102118081E-001;5.923389343439143E-001;
1.497000000000000E+009;-4.458575637482389E-001;6.321538624482010E-001;
1.508000000000000E+009;-3.925326561584620E-001;6.660390538414726E-001;
1.519000000000000E+009;-3.379613373673802E-001;6.930800758512067E-001;
1.530000000000000E+009;-2.839245081845899E-001;7.176646625712326E-001;
1.541000000000000E+009;-2.276704324217001E-001;7.386433246069680E-001;
1.552000000000000E+009;-1.694754670619378E-001;7.569608669183502E-001;
1.563000000000000E+009;-1.077652749865782E-001;7.690263690135942E-001;
1.574000000000000E+009;-4.585486826586791E-002;7.766891679076035E-001;
1.585000000000000E+009;1.793971156945899E-002;7.801470892980219E-001;
1.596000000000000E+009;8.331579231050959E-002;7.773335184251787E-001;
1.607000000000000E+009;1.484546135757890E-001;7.677820077298723E-001;
1.618000000000000E+009;2.123402802164481E-001;7.511713407364277E-001;
1.629000000000000E+009;2.727032499882354E-001;7.299160874991304E-001;
1.640000000000000E+009;3.315972155389882E-001;7.042919780976067E-001;
1.651000000000000E+009;3.882369147176183E-001;6.741362985936481E-001;
1.662000000000000E+009;4.423882042521752E-001;6.387373786203764E-001;
1.673000000000000E+009;4.931718970746741E-001;5.995793553771683E-001;
1.684000000000000E+009;5.401646837289353E-001;5.561156474728277E-001;
1.695000000000000E+009;5.815900632890635E-001;5.083742359807180E-001;
1.706000000000000E+009;6.198558683529358E-001;4.609902497590863E-001;
1.717000000000000E+009;6.546593198701808E-001;4.097986831341179E-001;
1.728000000000000E+009;6.853022970711981E-001;3.563413638693547E-001;
1.739000000000000E+009;7.128082361097365E-001;3.005986323456468E-001;
1.750000000000000E+009;7.362460866675270E-001;2.398835194186772E-001;
1.761000000000000E+009;7.532055789117813E-001;1.778466651216128E-001;
1.772000000000000E+009;7.645572547890405E-001;1.145153005057992E-001;
1.783000000000000E+009;7.692942793958820E-001;5.080270765651820E-002;
1.794000000000000E+009;7.692855610927658E-001;-1.035480343871931E-002;
1.805000000000000E+009;7.656864023747879E-001;-7.085582242375703E-002;
1.816000000000000E+009;7.584124232179427E-001;-1.305323259900249E-001;
1.827000000000000E+009;7.473497242180192E-001;-1.898128145237991E-001;
1.838000000000000E+009;7.327660239297860E-001;-2.485771104416721E-001;
1.849000000000000E+009;7.128646194491193E-001;-3.088141071704412E-001;
1.860000000000000E+009;6.857290191179934E-001;-3.672693560364655E-001;
1.871000000000000E+009;6.522953414357430E-001;-4.216188013811535E-001;
1.882000000000000E+009;6.138526440168464E-001;-4.707411218197963E-001;
1.893000000000000E+009;5.750291317513546E-001;-5.144892057333682E-001;
1.904000000000000E+009;5.338183002566658E-001;-5.560999403526447E-001;
1.915000000000000E+009;4.902546391147462E-001;-5.956441927993993E-001;
1.926000000000000E+009;4.436661807804971E-001;-6.341014876872310E-001;
1.937000000000000E+009;3.910633836741628E-001;-6.680101605961285E-001;
1.948000000000000E+009;3.375050014617365E-001;-6.953282799131956E-001;
1.959000000000000E+009;2.822421950167476E-001;-7.184008456000220E-001;
1.970000000000000E+009;2.279406807278917E-001;-7.366749631204742E-001;
1.981000000000000E+009;1.724234977533355E-001;-7.523224436955730E-001;
1.992000000000000E+009;1.168827433443541E-001;-7.630991680439133E-001;
2.003000000000000E+009;6.060124505394660E-002;-7.703314862470260E-001;
2.014000000000000E+009;3.424291492450563E-003;-7.731620102015517E-001;
2.025000000000000E+009;-5.286316121440336E-002;-7.728045363156033E-001;
2.036000000000000E+009;-1.106343956578241E-001;-7.669072679910833E-001;
2.047000000000000E+009;-1.655929066493393E-001;-7.552567930464790E-001;
2.058000000000000E+009;-2.202533946261111E-001;-7.406642125203279E-001;
2.069000000000000E+009;-2.708058287271542E-001;-7.206305525742436E-001;
2.080000000000000E+009;-3.185288055125364E-001;-7.015570368836949E-001;
2.091000000000000E+009;-3.683719794795306E-001;-6.780846628809784E-001;
2.102000000000000E+009;-4.190024182278003E-001;-6.501798754437290E-001;
2.113000000000000E+009;-4.628108435614037E-001;-6.184747439246073E-001;
2.124000000000000E+009;-5.052283064554571E-001;-5.851105108942698E-001;
2.135000000000000E+009;-5.449785235282979E-001;-5.483073102084456E-001;
2.146000000000000E+009;-5.815372902610365E-001;-5.092592109795017E-001;
2.157000000000000E+009;-6.156998951018911E-001;-4.682831146272254E-001;
2.168000000000000E+009;-6.460976857304334E-001;-4.248639585137715E-001;
2.179000000000000E+009;-6.736494412166001E-001;-3.801224562782588E-001;
2.190000000000000E+009;-6.981260163553061E-001;-3.319118107560372E-001;
2.201000000000000E+009;-7.175076905092511E-001;-2.822758802868595E-001;
2.212000000000000E+009;-7.336189944267674E-001;-2.331364412759820E-001;
2.223000000000000E+009;-7.464066641031667E-001;-1.830649303922760E-001;
2.234000000000000E+009;-7.562031602210461E-001;-1.324208054423641E-001;
2.245000000000000E+009;-7.616415641620464E-001;-8.075344514841988E-002;
2.256000000000000E+009;-7.637197140052063E-001;-3.107268757678340E-002;
2.267000000000000E+009;-7.636401568005825E-001;1.824764796470898E-002;
2.278000000000000E+009;-7.608607667052508E-001;6.828092178065207E-002;
2.289000000000000E+009;-7.535052094762256E-001;1.184768245504210E-001;
2.300000000000000E+009;-7.425610323588161E-001;1.674447064400448E-001;
2.311000000000000E+009;-7.295907305904293E-001;2.145835435870415E-001;
2.322000000000000E+009;-7.135271006600439E-001;2.613450514582791E-001;
2.333000000000000E+009;-6.943974054799630E-001;3.072757318938931E-001;
2.344000000000000E+009;-6.718053333539344E-001;3.521229427895606E-001;
2.355000000000000E+009;-6.453991143540844E-001;3.953608015678739E-001;
2.366000000000000E+009;-6.168817244686400E-001;4.360040240134506E-001;
2.377000000000000E+009;-5.845611314553452E-001;4.749471858425044E-001;
2.388000000000000E+009;-5.503001413082982E-001;5.102974810984216E-001;
2.399000000000000E+009;-5.140468143154136E-001;5.436768095847794E-001;
2.410000000000000E+009;-4.758294976483222E-001;5.746125805802842E-001;
2.421000000000000E+009;-4.351092976168314E-001;6.027786124439100E-001;
2.432000000000000E+009;-3.931478553032604E-001;6.274677775963014E-001;
2.443000000000000E+009;-3.508789675021243E-001;6.496755617367551E-001;
2.454000000000000E+009;-3.056008829019660E-001;6.689048116427092E-001;
2.465000000000000E+009;-2.602794522995910E-001;6.834501616753932E-001;
2.476000000000000E+009;-2.147923943158165E-001;6.952669942718467E-001;
2.487000000000000E+009;-1.698187348416232E-001;7.040233452679414E-001;
2.498000000000000E+009;-1.227479162697255E-001;7.108269159294489E-001;
2.509000000000000E+009;-7.527596145200492E-002;7.129267406416840E-001;
2.520000000000000E+009;-3.012954364778632E-002;7.131927002317535E-001;
2.531000000000000E+009;1.711468407298266E-002;7.102138066160404E-001;
2.542000000000000E+009;6.153896553471435E-002;7.042801711600595E-001;
2.553000000000000E+009;1.073517117164328E-001;6.953228398121518E-001;
2.564000000000000E+009;1.504364620307474E-001;6.836883993227519E-001;
2.575000000000000E+009;1.939071655410720E-001;6.698119568836850E-001;
2.586000000000000E+009;2.359678155250292E-001;6.522334091449664E-001;
2.597000000000000E+009;2.757454023627491E-001;6.323777196162881E-001;
2.608000000000000E+009;3.137007591497592E-001;6.103085612845852E-001;
2.619000000000000E+009;3.503557160944238E-001;5.875761343473733E-001;
2.630000000000000E+009;3.867536959510412E-001;5.613293949979094E-001;
2.641000000000000E+009;4.197114888703349E-001;5.330773666780696E-001;
2.652000000000000E+009;4.504991918338456E-001;5.027867841008696E-001;
2.663000000000000E+009;4.793689037769374E-001;4.720517153787355E-001;
2.674000000000000E+009;5.071956425978105E-001;4.396459595901222E-001;
2.685000000000000E+009;5.344680380633564E-001;4.048104978562629E-001;
2.696000000000000E+009;5.588171166493912E-001;3.676464237777042E-001;
2.707000000000000E+009;5.800996489202918E-001;3.286647000754585E-001;
2.718000000000000E+009;5.991610942077676E-001;2.900990003275907E-001;
2.729000000000000E+009;6.168638969225919E-001;2.501809455644060E-001;
2.740000000000000E+009;6.324323869689180E-001;2.088729528902881E-001;
2.751000000000000E+009;6.456030968299686E-001;1.663519829969259E-001;
2.762000000000000E+009;6.554017648922883E-001;1.217363124478288E-001;
2.773000000000000E+009;6.614963674811842E-001;7.707334220871884E-002;
2.784000000000000E+009;6.659777853529171E-001;3.225855603159983E-002;
2.795000000000000E+009;6.673012242355849E-001;-1.374503397977000E-002;
2.806000000000000E+009;6.656353840532459E-001;-5.928647065554520E-002;
2.817000000000000E+009;6.619867547929184E-001;-1.056278497243622E-001;
2.828000000000000E+009;6.548794140257139E-001;-1.533326733995953E-001;
2.839000000000000E+009;6.434297582031656E-001;-2.007978439575871E-001;
2.850000000000000E+009;6.286639437077587E-001;-2.468222474793846E-001;
2.861000000000000E+009;6.109109586961810E-001;-2.928229548635040E-001;
2.872000000000000E+009;5.893950512521959E-001;-3.373093197713157E-001;
2.883000000000000E+009;5.648861913763021E-001;-3.812635638028981E-001;
2.894000000000000E+009;5.361556415144361E-001;-4.234123845223924E-001;
2.905000000000000E+009;5.049754742258041E-001;-4.629036331130527E-001;
2.916000000000000E+009;4.703287780541999E-001;-5.013192103621101E-001;
2.927000000000000E+009;4.328319540148373E-001;-5.359035204499953E-001;
2.938000000000000E+009;3.926700997040096E-001;-5.693271534734520E-001;
2.949000000000000E+009;3.495514280980657E-001;-5.973722625061295E-001;
2.960000000000000E+009;3.056061743997614E-001;-6.234765740562729E-001;
2.971000000000000E+009;2.572726994139569E-001;-6.459990220175843E-001;
2.982000000000000E+009;2.095397916418427E-001;-6.655922475518238E-001;
2.993000000000000E+009;1.588768820010104E-001;-6.823746201639042E-001;
3.004000000000000E+009;1.086962483529710E-001;-6.948801718101297E-001;
3.015000000000000E+009;5.674479648475131E-002;-7.037939223364083E-001;
3.026000000000000E+009;3.335197574534002E-003;-7.077171842274348E-001;
3.037000000000000E+009;-4.922037437489291E-002;-7.087325832054158E-001;
3.048000000000000E+009;-1.028419693824455E-001;-7.055240839039804E-001;
3.059000000000000E+009;-1.555119610105086E-001;-6.985786518328255E-001;
3.070000000000000E+009;-2.087509482605775E-001;-6.864242592809206E-001;
3.081000000000000E+009;-2.603944919047411E-001;-6.706289070665302E-001;
3.092000000000000E+009;-3.115080670382540E-001;-6.504376363638029E-001;
3.103000000000000E+009;-3.602172390579481E-001;-6.273898031162303E-001;
3.114000000000000E+009;-4.080457987003882E-001;-5.994141566092104E-001;
3.125000000000000E+009;-4.532441745511423E-001;-5.672448343995612E-001;
3.136000000000000E+009;-4.952287432173455E-001;-5.348406139091263E-001;
3.147000000000000E+009;-5.352353989122221E-001;-4.981588176983495E-001;
3.158000000000000E+009;-5.710157210873154E-001;-4.594214768717176E-001;
3.169000000000000E+009;-6.051227611050114E-001;-4.174096025970214E-001;
