# Version 1.00
#
freq[Hz];re:Trc1_S22;im:Trc1_S22;
1.000000000000000E+008;9.692424244897528E-001;-2.259060167037370E-001;
1.110000000000000E+008;9.607978088998678E-001;-2.530377389649353E-001;
1.220000000000000E+008;9.503550562866394E-001;-2.785399358807327E-001;
1.330000000000000E+008;9.354803320843830E-001;-3.059146880973671E-001;
1.440000000000000E+008;9.135438228957633E-001;-3.278239319914517E-001;
1.550000000000000E+008;8.952509251766218E-001;-3.349216090690852E-001;
1.660000000000000E+008;8.899220134064062E-001;-3.438267444699179E-001;
1.770000000000000E+008;8.863784256062836E-001;-3.595555622165429E-001;
1.880000000000000E+008;8.825015016561716E-001;-3.746182964586077E-001;
1.990000000000000E+008;8.793133058691803E-001;-3.920541788983024E-001;
2.100000000000000E+008;8.730209332055524E-001;-4.158821880769682E-001;
2.210000000000000E+008;8.612126485949683E-001;-4.391867219666963E-001;
2.320000000000000E+008;8.461390751622340E-001;-4.590830095056040E-001;
2.430000000000000E+008;8.337953081394613E-001;-4.746199830033145E-001;
2.540000000000000E+008;8.245344544858153E-001;-4.900412902612619E-001;
2.650000000000000E+008;8.173313624973077E-001;-5.045270772727217E-001;
2.760000000000000E+008;8.107012791795325E-001;-5.214374012904682E-001;
2.870000000000000E+008;8.039073359660931E-001;-5.396903979143144E-001;
2.980000000000000E+008;7.939382451136199E-001;-5.606644691221093E-001;
3.090000000000000E+008;7.807731886048966E-001;-5.823439403986840E-001;
3.200000000000000E+008;7.654899367884853E-001;-6.032977310182703E-001;
3.310000000000000E+008;7.478682101551638E-001;-6.232889412901309E-001;
3.420000000000000E+008;7.291155354386013E-001;-6.415642793149012E-001;
3.530000000000000E+008;7.105252975216603E-001;-6.582414019726700E-001;
3.640000000000000E+008;6.930941077975675E-001;-6.731188270119232E-001;
3.750000000000000E+008;6.770221669411396E-001;-6.866248861695233E-001;
3.860000000000000E+008;6.623801024740708E-001;-6.999318546721225E-001;
3.970000000000000E+008;6.478889200254488E-001;-7.128163194797068E-001;
4.080000000000000E+008;6.326323406105364E-001;-7.276542411238631E-001;
4.190000000000000E+008;6.154037210455257E-001;-7.456950361416933E-001;
4.300000000000000E+008;5.946861846529639E-001;-7.637006499586728E-001;
4.410000000000000E+008;5.730767974317492E-001;-7.816270728375080E-001;
4.520000000000000E+008;5.510654785360111E-001;-7.986987928676435E-001;
4.630000000000000E+008;5.284735188876752E-001;-8.147948321848227E-001;
4.740000000000000E+008;5.050162941447218E-001;-8.292734876700957E-001;
4.850000000000000E+008;4.803991001297208E-001;-8.429638803971321E-001;
4.960000000000000E+008;4.532101939130013E-001;-8.551347907819595E-001;
5.070000000000000E+008;4.255510353507165E-001;-8.650785321562552E-001;
5.180000000000000E+008;3.959234340058804E-001;-8.735571569678730E-001;
5.290000000000000E+008;3.667951418123888E-001;-8.801186642926453E-001;
5.400000000000000E+008;3.374139237936046E-001;-8.846324959121111E-001;
5.510000000000000E+008;3.111355373833027E-001;-8.881733536273209E-001;
5.620000000000000E+008;2.848843042392997E-001;-8.916447663161913E-001;
5.730000000000000E+008;2.619140635023390E-001;-8.957865102236251E-001;
5.840000000000000E+008;2.399633944160307E-001;-8.999973974252771E-001;
5.950000000000000E+008;2.172024950608571E-001;-9.041916088065001E-001;
6.060000000000000E+008;1.897660129121964E-001;-9.098629919950720E-001;
6.170000000000000E+008;1.581076255602860E-001;-9.128963358087369E-001;
6.280000000000000E+008;1.262866364103102E-001;-9.131600387021978E-001;
6.390000000000000E+008;9.272336035974356E-002;-9.154624440277469E-001;
6.500000000000000E+008;5.823353374617101E-002;-9.128896208319969E-001;
6.610000000000000E+008;2.826658768217506E-002;-9.117915223016926E-001;
6.720000000000000E+008;-6.957419965120927E-003;-9.056880465368148E-001;
6.830000000000000E+008;-3.960653114190003E-002;-8.952408521664668E-001;
6.940000000000000E+008;-7.279543889826071E-002;-8.857344364317462E-001;
7.050000000000000E+008;-1.088179059116972E-001;-8.707112677342791E-001;
7.160000000000000E+008;-1.493837470283626E-001;-8.535503428785994E-001;
7.270000000000000E+008;-1.841646686145531E-001;-8.287875302868536E-001;
7.380000000000000E+008;-2.187655519339774E-001;-8.044856737106241E-001;
7.490000000000000E+008;-2.529149550131026E-001;-7.784683739865348E-001;
7.600000000000000E+008;-2.858580753128495E-001;-7.476745043001443E-001;
7.710000000000000E+008;-3.052078220653944E-001;-7.119993349968418E-001;
7.820000000000000E+008;-3.283464530557342E-001;-6.805069314788148E-001;
7.930000000000000E+008;-3.445373026294497E-001;-6.389346546517735E-001;
8.040000000000000E+008;-3.576750851308433E-001;-5.982297182036030E-001;
8.150000000000000E+008;-3.623480157171596E-001;-5.535426508204434E-001;
8.260000000000000E+008;-3.672902829209320E-001;-5.189691305586235E-001;
8.370000000000000E+008;-3.790785174149018E-001;-4.832870629635314E-001;
8.480000000000000E+008;-3.811322291515987E-001;-4.426869152064890E-001;
8.590000000000000E+008;-3.849302295542699E-001;-4.121755061074513E-001;
8.700000000000000E+008;-3.843043053388220E-001;-3.720994253649617E-001;
8.810000000000000E+008;-3.753727566716072E-001;-3.270377669625510E-001;
8.920000000000000E+008;-3.523381188622297E-001;-2.942540699394362E-001;
9.030000000000000E+008;-3.385141908305303E-001;-2.692338102136621E-001;
9.140000000000000E+008;-3.294522339367061E-001;-2.300661384040515E-001;
9.250000000000000E+008;-3.102706088756837E-001;-1.987890147217951E-001;
9.360000000000000E+008;-2.929825178817581E-001;-1.615473158836471E-001;
9.470000000000000E+008;-2.720390583933855E-001;-1.280038123575376E-001;
9.580000000000000E+008;-2.481897028265817E-001;-1.015959912433884E-001;
9.690000000000000E+008;-2.150380166896166E-001;-8.151669970628497E-002;
9.800000000000000E+008;-1.860081229180502E-001;-6.107654605122463E-002;
9.910000000000000E+008;-1.495513521346722E-001;-4.344008831201029E-002;
1.002000000000000E+009;-1.051285343961986E-001;-2.924946795757175E-002;
1.013000000000000E+009;-7.569360741827833E-002;-2.695204253504952E-002;
1.024000000000000E+009;-4.349949279389866E-002;-1.582095978658290E-002;
1.035000000000000E+009;-1.826335289672859E-002;-7.448068688497086E-005;
1.046000000000000E+009;2.169504815737289E-002;1.058437162696404E-002;
1.057000000000000E+009;5.952995665007923E-002;-7.355368704839983E-004;
1.068000000000000E+009;8.554114887149161E-002;-2.184977880871366E-002;
1.079000000000000E+009;9.784616639054083E-002;-1.765776746274373E-002;
1.090000000000000E+009;1.374545894561399E-001;-2.264933714019603E-002;
1.101000000000000E+009;1.789088304928750E-001;-3.367826277447528E-002;
1.112000000000000E+009;2.196705024864465E-001;-5.107192896304365E-002;
1.123000000000000E+009;2.450320948244739E-001;-7.086414865942892E-002;
1.134000000000000E+009;2.733679748515024E-001;-9.180936979368358E-002;
1.145000000000000E+009;2.891546223516353E-001;-1.163714998230002E-001;
1.156000000000000E+009;3.084383821681440E-001;-1.457523332187972E-001;
1.167000000000000E+009;3.116350286742234E-001;-1.705769981714588E-001;
1.178000000000000E+009;3.262367899522505E-001;-1.984685526884645E-001;
1.189000000000000E+009;3.204224781481051E-001;-2.348962877658106E-001;
1.200000000000000E+009;3.280977782513705E-001;-2.411879878834954E-001;
1.211000000000000E+009;3.406227389598328E-001;-2.656843733245052E-001;
1.222000000000000E+009;3.491155617864428E-001;-2.747833972804550E-001;
1.233000000000000E+009;3.660997851733561E-001;-2.948786992047401E-001;
1.244000000000000E+009;3.700832232565301E-001;-3.186144489948081E-001;
1.255000000000000E+009;3.721448617706342E-001;-3.368369046254265E-001;
1.266000000000000E+009;3.705883472276734E-001;-3.607618889834051E-001;
1.277000000000000E+009;3.705943013791660E-001;-3.806443141501462E-001;
1.288000000000000E+009;3.721564990659124E-001;-4.024308502219808E-001;
1.299000000000000E+009;3.815458941342677E-001;-4.373720524855382E-001;
1.310000000000000E+009;3.715649257404161E-001;-4.703682928735051E-001;
1.321000000000000E+009;3.650994812794169E-001;-4.927700504657215E-001;
1.332000000000000E+009;3.536084902641459E-001;-5.097929097222103E-001;
1.343000000000000E+009;3.408676114417316E-001;-5.203460309176733E-001;
1.354000000000000E+009;3.359532740207459E-001;-5.249017632349117E-001;
1.365000000000000E+009;3.277726928868974E-001;-5.425108799360197E-001;
1.376000000000000E+009;3.157827628002126E-001;-5.671263370045416E-001;
1.387000000000000E+009;2.961276285686988E-001;-5.808040410415492E-001;
1.398000000000000E+009;2.869292858794531E-001;-5.896727829955500E-001;
1.409000000000000E+009;2.822743628467478E-001;-6.039501199244977E-001;
1.420000000000000E+009;2.781337132338242E-001;-6.172902560707976E-001;
1.431000000000000E+009;2.690370886786447E-001;-6.301009846075768E-001;
1.442000000000000E+009;2.628178382508909E-001;-6.392037448446434E-001;
1.453000000000000E+009;2.477891940211695E-001;-6.512784130264152E-001;
1.464000000000000E+009;2.335407166887848E-001;-6.549074812373469E-001;
1.475000000000000E+009;2.229465649209448E-001;-6.689287045158042E-001;
1.486000000000000E+009;1.995129545696119E-001;-6.831224853753357E-001;
1.497000000000000E+009;1.834485781074821E-001;-6.892074311742394E-001;
1.508000000000000E+009;1.766123087153940E-001;-6.970351282945599E-001;
1.519000000000000E+009;1.720402590314347E-001;-7.056310067895527E-001;
1.530000000000000E+009;1.687984968333788E-001;-7.128114283143349E-001;
1.541000000000000E+009;1.637062005556780E-001;-7.227702318717889E-001;
1.552000000000000E+009;1.495469026002438E-001;-7.298963172060511E-001;
1.563000000000000E+009;1.346821477564979E-001;-7.375323139088214E-001;
1.574000000000000E+009;1.153943139153236E-001;-7.456075597410615E-001;
1.585000000000000E+009;9.442079568793259E-002;-7.525466528825937E-001;
1.596000000000000E+009;7.832973972174563E-002;-7.574817981512863E-001;
1.607000000000000E+009;6.472342420505986E-002;-7.674481334910388E-001;
1.618000000000000E+009;5.199955869493385E-002;-7.748097256510460E-001;
1.629000000000000E+009;4.083053489324304E-002;-7.783573222743222E-001;
1.640000000000000E+009;3.289442335875124E-002;-7.800616728831744E-001;
1.651000000000000E+009;2.195981881161264E-002;-7.787375869404792E-001;
1.662000000000000E+009;1.302530151838817E-002;-7.758640541996814E-001;
1.673000000000000E+009;-3.857505229435201E-003;-7.785640915665710E-001;
1.684000000000000E+009;-2.351279406875380E-002;-7.787738884733099E-001;
1.695000000000000E+009;-4.061156615597003E-002;-7.770078072929102E-001;
1.706000000000000E+009;-5.180306980735742E-002;-7.811444794154950E-001;
1.717000000000000E+009;-6.052414719007696E-002;-7.856250284142172E-001;
1.728000000000000E+009;-6.844829233578914E-002;-7.908475832199986E-001;
1.739000000000000E+009;-7.766800492623453E-002;-7.906712833383883E-001;
1.750000000000000E+009;-8.712602681618044E-002;-7.900851110581482E-001;
1.761000000000000E+009;-9.716315357082132E-002;-7.886344957458483E-001;
1.772000000000000E+009;-1.141307945714451E-001;-7.870720036073481E-001;
1.783000000000000E+009;-1.315943998490145E-001;-7.850592286368278E-001;
1.794000000000000E+009;-1.492720052160774E-001;-7.815353327269828E-001;
1.805000000000000E+009;-1.624767901046012E-001;-7.800231426588526E-001;
1.816000000000000E+009;-1.734676348856353E-001;-7.816522746115461E-001;
1.827000000000000E+009;-1.817725537349539E-001;-7.825177873892170E-001;
1.838000000000000E+009;-1.889292126623245E-001;-7.860668811961361E-001;
1.849000000000000E+009;-1.979509222159245E-001;-7.842721696653470E-001;
1.860000000000000E+009;-2.082481216740386E-001;-7.808573583633613E-001;
1.871000000000000E+009;-2.226214247725401E-001;-7.740194707932642E-001;
1.882000000000000E+009;-2.394258982877350E-001;-7.675839061217221E-001;
1.893000000000000E+009;-2.535851855638940E-001;-7.587989510946772E-001;
1.904000000000000E+009;-2.671071441520510E-001;-7.595920427023991E-001;
1.915000000000000E+009;-2.790012940190445E-001;-7.575791568823074E-001;
1.926000000000000E+009;-2.857180744290729E-001;-7.581704205156230E-001;
1.937000000000000E+009;-2.959920782046728E-001;-7.555638789533242E-001;
1.948000000000000E+009;-2.990329971727640E-001;-7.499460719807224E-001;
1.959000000000000E+009;-3.070061635541137E-001;-7.478101739582509E-001;
1.970000000000000E+009;-3.182264715139284E-001;-7.399568889064384E-001;
1.981000000000000E+009;-3.324278933646349E-001;-7.313848043693081E-001;
1.992000000000000E+009;-3.455342560932970E-001;-7.209565570753856E-001;
2.003000000000000E+009;-3.579005555647955E-001;-7.138634952435989E-001;
2.014000000000000E+009;-3.707213183613899E-001;-7.081722291912880E-001;
2.025000000000000E+009;-3.767559713670085E-001;-7.042292950946241E-001;
2.036000000000000E+009;-3.827969181719831E-001;-7.033305504999520E-001;
2.047000000000000E+009;-3.893984168599999E-001;-7.006317429888338E-001;
2.058000000000000E+009;-3.995067245257778E-001;-6.942297891793412E-001;
2.069000000000000E+009;-4.078545058053620E-001;-6.797186134806408E-001;
2.080000000000000E+009;-4.182891404888796E-001;-6.680449534054214E-001;
2.091000000000000E+009;-4.317728291162619E-001;-6.550221402043893E-001;
2.102000000000000E+009;-4.447937853769471E-001;-6.436465854337161E-001;
2.113000000000000E+009;-4.548761649941573E-001;-6.344381176736311E-001;
2.124000000000000E+009;-4.642625373515696E-001;-6.270676688746788E-001;
2.135000000000000E+009;-4.682819889036016E-001;-6.220390538294880E-001;
2.146000000000000E+009;-4.763348639120495E-001;-6.161313229397940E-001;
2.157000000000000E+009;-4.811396421093023E-001;-6.066274533163958E-001;
2.168000000000000E+009;-4.876315474249869E-001;-5.952500493815093E-001;
2.179000000000000E+009;-4.966584843472685E-001;-5.818816931026811E-001;
2.190000000000000E+009;-5.054264122456691E-001;-5.661395768371191E-001;
2.201000000000000E+009;-5.187311852039059E-001;-5.530440559788098E-001;
2.212000000000000E+009;-5.327481648035169E-001;-5.359223257877670E-001;
2.223000000000000E+009;-5.380429308226522E-001;-5.220580038807600E-001;
2.234000000000000E+009;-5.392651329215148E-001;-5.127211233335309E-001;
2.245000000000000E+009;-5.399371272714363E-001;-5.065248976848920E-001;
2.256000000000000E+009;-5.413035654009366E-001;-4.982404344557306E-001;
2.267000000000000E+009;-5.482781055049073E-001;-4.854958109119444E-001;
2.278000000000000E+009;-5.543882541223597E-001;-4.626113823737325E-001;
2.289000000000000E+009;-5.528222199687858E-001;-4.414782603869300E-001;
2.300000000000000E+009;-5.521011104127995E-001;-4.233763130999784E-001;
2.311000000000000E+009;-5.514252397434625E-001;-4.123346884009166E-001;
2.322000000000000E+009;-5.511798058760157E-001;-4.032491397976717E-001;
2.333000000000000E+009;-5.522249638814792E-001;-3.983320651045385E-001;
2.344000000000000E+009;-5.544516709939147E-001;-3.902325003175904E-001;
2.355000000000000E+009;-5.549578105019363E-001;-3.765228976197514E-001;
2.366000000000000E+009;-5.508178766853309E-001;-3.594341947865660E-001;
2.377000000000000E+009;-5.480201956151779E-001;-3.402831936252337E-001;
2.388000000000000E+009;-5.410639418950006E-001;-3.193533175131677E-001;
2.399000000000000E+009;-5.394315915263555E-001;-3.021589834779027E-001;
2.410000000000000E+009;-5.316664973759694E-001;-2.868069264726121E-001;
2.421000000000000E+009;-5.314055912718769E-001;-2.794330156808427E-001;
2.432000000000000E+009;-5.274713890011678E-001;-2.699495488313452E-001;
2.443000000000000E+009;-5.206586312246568E-001;-2.559349294270584E-001;
2.454000000000000E+009;-5.070142464338542E-001;-2.476416139601172E-001;
2.465000000000000E+009;-4.957251691905246E-001;-2.311904993042038E-001;
2.476000000000000E+009;-4.798441131546181E-001;-2.197173192378443E-001;
2.487000000000000E+009;-4.732531053652451E-001;-2.015871329796756E-001;
2.498000000000000E+009;-4.613448156050101E-001;-1.780821864529783E-001;
2.509000000000000E+009;-4.407756828155907E-001;-1.651444545313456E-001;
2.520000000000000E+009;-4.250965756978213E-001;-1.600837343232490E-001;
2.531000000000000E+009;-4.083856764920925E-001;-1.622378778913009E-001;
2.542000000000000E+009;-3.942257135086116E-001;-1.658553307817197E-001;
2.553000000000000E+009;-3.816511179865873E-001;-1.662777827040217E-001;
2.564000000000000E+009;-3.623671786837234E-001;-1.672361744581621E-001;
2.575000000000000E+009;-3.465703725419470E-001;-1.622595456969206E-001;
2.586000000000000E+009;-3.268342237968768E-001;-1.512906046932988E-001;
2.597000000000000E+009;-3.027910883923582E-001;-1.477554715826442E-001;
2.608000000000000E+009;-2.835620415059369E-001;-1.513666278516763E-001;
2.619000000000000E+009;-2.709606856080881E-001;-1.623811289999420E-001;
2.630000000000000E+009;-2.592137499036178E-001;-1.763952748801821E-001;
2.641000000000000E+009;-2.485709388111480E-001;-1.951117026684926E-001;
2.652000000000000E+009;-2.401887678349838E-001;-2.068218319363876E-001;
2.663000000000000E+009;-2.295390381129870E-001;-2.171482411880056E-001;
2.674000000000000E+009;-2.111610197815106E-001;-2.238742450692456E-001;
2.685000000000000E+009;-1.995541715502451E-001;-2.315029800478874E-001;
2.696000000000000E+009;-1.852703203644451E-001;-2.380938173161083E-001;
2.707000000000000E+009;-1.821839467809580E-001;-2.532609144589210E-001;
2.718000000000000E+009;-1.822556178503083E-001;-2.642695731842521E-001;
2.729000000000000E+009;-1.854106450834922E-001;-2.833411735263505E-001;
2.740000000000000E+009;-1.902201985886532E-001;-2.978778548500574E-001;
2.751000000000000E+009;-1.875168473275563E-001;-3.121622501360130E-001;
2.762000000000000E+009;-1.859471351598978E-001;-3.298995571658664E-001;
2.773000000000000E+009;-1.799615544528280E-001;-3.368964368020299E-001;
2.784000000000000E+009;-1.721194076528367E-001;-3.476434850576635E-001;
2.795000000000000E+009;-1.755772454626637E-001;-3.600715078117522E-001;
2.806000000000000E+009;-1.809454807991186E-001;-3.645471152480742E-001;
2.817000000000000E+009;-1.942590582328438E-001;-3.741524850615245E-001;
2.828000000000000E+009;-2.067290634276788E-001;-3.822353720402265E-001;
2.839000000000000E+009;-2.178071745630898E-001;-3.919612443454282E-001;
2.850000000000000E+009;-2.220497892572725E-001;-4.073619788209990E-001;
2.861000000000000E+009;-2.240774105691150E-001;-4.219712810599590E-001;
2.872000000000000E+009;-2.219992007868391E-001;-4.357556927986018E-001;
2.883000000000000E+009;-2.249483737166871E-001;-4.502049318264856E-001;
2.894000000000000E+009;-2.324814951571133E-001;-4.551775311386817E-001;
2.905000000000000E+009;-2.429826523518217E-001;-4.532463915226272E-001;
2.916000000000000E+009;-2.564480733393588E-001;-4.526201074782318E-001;
2.927000000000000E+009;-2.724128375362284E-001;-4.552355894744237E-001;
2.938000000000000E+009;-2.898133453048372E-001;-4.620341965061519E-001;
2.949000000000000E+009;-2.997271624655685E-001;-4.689846865246737E-001;
2.960000000000000E+009;-3.058126044743476E-001;-4.831396027619016E-001;
2.971000000000000E+009;-3.095100249862438E-001;-4.954024339522271E-001;
2.982000000000000E+009;-3.133673981457606E-001;-5.070413192863703E-001;
2.993000000000000E+009;-3.219348367971374E-001;-5.057072409855966E-001;
3.004000000000000E+009;-3.287647563819401E-001;-5.008791975956445E-001;
3.015000000000000E+009;-3.361772747590607E-001;-4.902774255543634E-001;
3.026000000000000E+009;-3.479645815645882E-001;-4.890774285498730E-001;
3.037000000000000E+009;-3.656525638306260E-001;-4.903812523214670E-001;
3.048000000000000E+009;-3.855237671173342E-001;-4.963285914983652E-001;
3.059000000000000E+009;-3.985280358288714E-001;-4.990775467668668E-001;
3.070000000000000E+009;-4.024849292318462E-001;-5.073099232117423E-001;
3.081000000000000E+009;-4.036857733655625E-001;-5.123689197170536E-001;
3.092000000000000E+009;-4.048970548461688E-001;-5.138816784556390E-001;
3.103000000000000E+009;-4.107861820630537E-001;-5.091533013679194E-001;
3.114000000000000E+009;-4.227665533260532E-001;-4.972883904114651E-001;
3.125000000000000E+009;-4.342891006566999E-001;-4.828886502395181E-001;
3.136000000000000E+009;-4.489230486205162E-001;-4.748586525187287E-001;
3.147000000000000E+009;-4.646915596470503E-001;-4.731343595914751E-001;
