# Version 1.00
#
freq[Hz];re:Trc1_S22;im:Trc1_S22;
1.000000000000000E+008;9.740107092377591E-001;-2.125743467118623E-001;
1.110000000000000E+008;9.671027295777747E-001;-2.376491176347191E-001;
1.220000000000000E+008;9.582105691994456E-001;-2.618777681569150E-001;
1.330000000000000E+008;9.468434524384287E-001;-2.870756869264951E-001;
1.440000000000000E+008;9.311155437198125E-001;-3.097536523900163E-001;
1.550000000000000E+008;9.152539377351406E-001;-3.241634883927804E-001;
1.660000000000000E+008;9.062247700123266E-001;-3.367540260879343E-001;
1.770000000000000E+008;8.995285878863639E-001;-3.523450767559381E-001;
1.880000000000000E+008;8.923431159154991E-001;-3.652424576971713E-001;
1.990000000000000E+008;8.890239097700958E-001;-3.785220054014859E-001;
2.100000000000000E+008;8.849813595876180E-001;-3.993981800811979E-001;
2.210000000000000E+008;8.757394899968368E-001;-4.213999996028379E-001;
2.320000000000000E+008;8.633125604884312E-001;-4.409971160845396E-001;
2.430000000000000E+008;8.525541350563352E-001;-4.574981634394300E-001;
2.540000000000000E+008;8.440772195387789E-001;-4.736449279471929E-001;
2.650000000000000E+008;8.370243345115469E-001;-4.885945037559154E-001;
2.760000000000000E+008;8.306704006279552E-001;-5.045642639648934E-001;
2.870000000000000E+008;8.243208094221399E-001;-5.221747792802942E-001;
2.980000000000000E+008;8.155273931059841E-001;-5.414409265578113E-001;
3.090000000000000E+008;8.043012741794469E-001;-5.616962669297512E-001;
3.200000000000000E+008;7.913484608298860E-001;-5.811881410239541E-001;
3.310000000000000E+008;7.768454371642397E-001;-6.001012338312578E-001;
3.420000000000000E+008;7.613111981987473E-001;-6.182237957393276E-001;
3.530000000000000E+008;7.455698016525818E-001;-6.357619106927240E-001;
3.640000000000000E+008;7.300375350929909E-001;-6.518258600349538E-001;
3.750000000000000E+008;7.153402158214560E-001;-6.666470703526976E-001;
3.860000000000000E+008;7.011711578876748E-001;-6.806146043324941E-001;
3.970000000000000E+008;6.870289372228191E-001;-6.935902899866135E-001;
4.080000000000000E+008;6.720031809091798E-001;-7.076202075696311E-001;
4.190000000000000E+008;6.554994417257511E-001;-7.238892794395598E-001;
4.300000000000000E+008;6.366008444184602E-001;-7.399280199550253E-001;
4.410000000000000E+008;6.177224403124213E-001;-7.558159645179240E-001;
4.520000000000000E+008;5.994916597059752E-001;-7.710885937891496E-001;
4.630000000000000E+008;5.817601561883116E-001;-7.860556003250583E-001;
4.740000000000000E+008;5.635678991618569E-001;-8.004004094368830E-001;
4.850000000000000E+008;5.446861813755729E-001;-8.145237635708135E-001;
4.960000000000000E+008;5.238498718561796E-001;-8.280722464921246E-001;
5.070000000000000E+008;5.017239452757606E-001;-8.407474680590678E-001;
5.180000000000000E+008;4.777038226148317E-001;-8.526165813209271E-001;
5.290000000000000E+008;4.528933924336802E-001;-8.637099370381441E-001;
5.400000000000000E+008;4.276460523931772E-001;-8.734729512802230E-001;
5.510000000000000E+008;4.032942083374697E-001;-8.819254523600583E-001;
5.620000000000000E+008;3.798167290171494E-001;-8.903646692332558E-001;
5.730000000000000E+008;3.580608698782540E-001;-8.989311549060417E-001;
5.840000000000000E+008;3.371630663826414E-001;-9.064491798510820E-001;
5.950000000000000E+008;3.158285899150473E-001;-9.128823832079014E-001;
6.060000000000000E+008;2.915503925218114E-001;-9.200088454726385E-001;
6.170000000000000E+008;2.643401664820921E-001;-9.256023898783764E-001;
6.280000000000000E+008;2.362735455992028E-001;-9.291990960816707E-001;
6.390000000000000E+008;2.084524828672289E-001;-9.344756170256203E-001;
6.500000000000000E+008;1.802173802594961E-001;-9.378913441040823E-001;
6.610000000000000E+008;1.549360259938906E-001;-9.411130744865841E-001;
6.720000000000000E+008;1.276613014910840E-001;-9.423711255688835E-001;
6.830000000000000E+008;1.011056141585095E-001;-9.413395567764634E-001;
6.940000000000000E+008;7.440448801490150E-002;-9.397920311809387E-001;
7.050000000000000E+008;4.580003065753663E-002;-9.373208521920166E-001;
7.160000000000000E+008;1.284397932155506E-002;-9.335796745662565E-001;
7.270000000000000E+008;-1.842847238559017E-002;-9.251526390228424E-001;
7.380000000000000E+008;-4.966115298554291E-002;-9.177711482661267E-001;
7.490000000000000E+008;-8.512008514033678E-002;-9.101981521544235E-001;
7.600000000000000E+008;-1.181073572590841E-001;-8.972374316195606E-001;
7.710000000000000E+008;-1.452194261227307E-001;-8.842229454582316E-001;
7.820000000000000E+008;-1.740481975178486E-001;-8.709520174892563E-001;
7.930000000000000E+008;-2.029128283200921E-001;-8.522758466537702E-001;
8.040000000000000E+008;-2.302718638492511E-001;-8.285983207350243E-001;
8.150000000000000E+008;-2.539427289800018E-001;-7.984295804008220E-001;
8.260000000000000E+008;-2.771915199914880E-001;-7.735135189431902E-001;
8.370000000000000E+008;-3.013519949824426E-001;-7.448460817215702E-001;
8.480000000000000E+008;-3.165390491808431E-001;-7.141899826442443E-001;
8.590000000000000E+008;-3.305303586083780E-001;-6.964511186145749E-001;
8.700000000000000E+008;-3.474428109952100E-001;-6.710140334273298E-001;
8.810000000000000E+008;-3.592339085380455E-001;-6.392669648408229E-001;
8.920000000000000E+008;-3.614093142155739E-001;-6.096705824180335E-001;
9.030000000000000E+008;-3.699274450929316E-001;-5.881166090856888E-001;
9.140000000000000E+008;-3.826254379849678E-001;-5.562128130121545E-001;
9.250000000000000E+008;-3.898959330147649E-001;-5.252624464935860E-001;
9.360000000000000E+008;-3.942314928008678E-001;-4.907712574900137E-001;
9.470000000000000E+008;-4.025501328184208E-001;-4.583099069766712E-001;
9.580000000000000E+008;-3.990258449591511E-001;-4.267225520163246E-001;
9.690000000000000E+008;-3.917581892667337E-001;-4.077075345716939E-001;
9.800000000000000E+008;-3.955562874950676E-001;-3.826035686613065E-001;
9.910000000000000E+008;-3.866821752239381E-001;-3.550082696804439E-001;
1.002000000000000E+009;-3.739129488605281E-001;-3.242567734727702E-001;
1.013000000000000E+009;-3.614254021264021E-001;-3.002928356651863E-001;
1.024000000000000E+009;-3.469734801795609E-001;-2.753794014425933E-001;
1.035000000000000E+009;-3.462865571208467E-001;-2.554969235576760E-001;
1.046000000000000E+009;-3.461671690185091E-001;-2.301530552375019E-001;
1.057000000000000E+009;-3.406662954945952E-001;-2.034220586532806E-001;
1.068000000000000E+009;-3.220331643786438E-001;-1.879839363073205E-001;
1.079000000000000E+009;-3.284273175781670E-001;-1.733138485221455E-001;
1.090000000000000E+009;-3.132597593878775E-001;-1.398711485686995E-001;
1.101000000000000E+009;-2.901494196886249E-001;-1.135036195214223E-001;
1.112000000000000E+009;-2.592236486183829E-001;-8.372417808553924E-002;
1.123000000000000E+009;-2.314452001648998E-001;-6.845935983151645E-002;
1.134000000000000E+009;-2.136292588128960E-001;-4.648099806229526E-002;
1.145000000000000E+009;-1.925247743648641E-001;-2.363387546609338E-002;
1.156000000000000E+009;-1.649807522618819E-001;-3.018355140951595E-003;
1.167000000000000E+009;-1.447500760067870E-001;7.381472628183412E-003;
1.178000000000000E+009;-1.156518673723608E-001;1.821032828195783E-002;
1.189000000000000E+009;-8.450974106538066E-002;1.478025468912412E-002;
1.200000000000000E+009;-5.768031954339586E-002;3.089987798310142E-002;
1.211000000000000E+009;-1.523911838861259E-002;4.105917226583716E-002;
1.222000000000000E+009;2.888101903767317E-002;4.844033391012519E-002;
1.233000000000000E+009;7.766644502439246E-002;5.133879443058170E-002;
1.244000000000000E+009;1.191138514803305E-001;3.365431762839258E-002;
1.255000000000000E+009;1.499856523931228E-001;2.433345790107679E-002;
1.266000000000000E+009;1.814585705876993E-001;2.793206770053775E-003;
1.277000000000000E+009;2.022413252804604E-001;-1.350119315349074E-002;
1.288000000000000E+009;2.283588400436010E-001;-3.265977494409314E-002;
1.299000000000000E+009;2.692754184579280E-001;-5.299429531476813E-002;
1.310000000000000E+009;2.997442407553217E-001;-9.346440218345875E-002;
1.321000000000000E+009;3.246764005377740E-001;-1.319804574195858E-001;
1.332000000000000E+009;3.356181123945742E-001;-1.680184306025458E-001;
1.343000000000000E+009;3.340880800482300E-001;-1.953377331533561E-001;
1.354000000000000E+009;3.367287225654747E-001;-2.066958042461837E-001;
1.365000000000000E+009;3.472966417590502E-001;-2.309991568456145E-001;
1.376000000000000E+009;3.452927664466609E-001;-2.628176057224889E-001;
1.387000000000000E+009;3.418309954883085E-001;-2.823684586404169E-001;
1.398000000000000E+009;3.528738380886291E-001;-3.036590402256772E-001;
1.409000000000000E+009;3.559679404027552E-001;-3.376354003081126E-001;
1.420000000000000E+009;3.557182224469651E-001;-3.640254338445818E-001;
1.431000000000000E+009;3.531591433905574E-001;-3.836949210368214E-001;
1.442000000000000E+009;3.512142361293733E-001;-4.043316506731817E-001;
1.453000000000000E+009;3.389763294606211E-001;-4.162488598632332E-001;
1.464000000000000E+009;3.365216458162643E-001;-4.265533011716736E-001;
1.475000000000000E+009;3.341480154135704E-001;-4.487332597315014E-001;
1.486000000000000E+009;3.212162418715048E-001;-4.746496589929743E-001;
1.497000000000000E+009;3.077854600074912E-001;-4.972895002357928E-001;
1.508000000000000E+009;3.002246050316905E-001;-5.162402868565494E-001;
1.519000000000000E+009;2.907845420303400E-001;-5.336621401921042E-001;
1.530000000000000E+009;2.848497507573785E-001;-5.408350357190870E-001;
1.541000000000000E+009;2.851889408697441E-001;-5.523373854520040E-001;
1.552000000000000E+009;2.699449359958832E-001;-5.645956233852522E-001;
1.563000000000000E+009;2.594928731328864E-001;-5.683172666103047E-001;
1.574000000000000E+009;2.502059937648957E-001;-5.778378151096556E-001;
1.585000000000000E+009;2.372632911024619E-001;-5.965097682180482E-001;
1.596000000000000E+009;2.230869359728670E-001;-6.050117542705487E-001;
1.607000000000000E+009;2.173976549401118E-001;-6.224620421104603E-001;
1.618000000000000E+009;2.104592887272176E-001;-6.381549669411459E-001;
1.629000000000000E+009;2.037313365653716E-001;-6.523841580602472E-001;
1.640000000000000E+009;1.949969079479321E-001;-6.643831962550572E-001;
1.651000000000000E+009;1.798419278372787E-001;-6.711019567332994E-001;
1.662000000000000E+009;1.663616412302232E-001;-6.685751432049626E-001;
1.673000000000000E+009;1.527827977631334E-001;-6.699892158479739E-001;
1.684000000000000E+009;1.394828906632032E-001;-6.746114866697723E-001;
1.695000000000000E+009;1.272568496743178E-001;-6.808131614890777E-001;
1.706000000000000E+009;1.166321802465407E-001;-6.936169190491741E-001;
1.717000000000000E+009;1.079106592372676E-001;-7.045855899407051E-001;
1.728000000000000E+009;1.007242903538593E-001;-7.160703625243298E-001;
1.739000000000000E+009;9.156299049074100E-002;-7.207504739517044E-001;
1.750000000000000E+009;8.143660787718640E-002;-7.234062725811220E-001;
1.761000000000000E+009;7.194657226377045E-002;-7.236686669079341E-001;
1.772000000000000E+009;5.954608166948885E-002;-7.272492346160643E-001;
1.783000000000000E+009;4.382276968447800E-002;-7.297165077994777E-001;
1.794000000000000E+009;2.814658275189166E-002;-7.336887380781385E-001;
1.805000000000000E+009;1.280675054177573E-002;-7.407325074553373E-001;
1.816000000000000E+009;-2.133538177837239E-003;-7.463175602863188E-001;
1.827000000000000E+009;-1.073695770240399E-002;-7.515462907449239E-001;
1.838000000000000E+009;-1.846506340714986E-002;-7.541556484958171E-001;
1.849000000000000E+009;-2.438760970760312E-002;-7.565776360192942E-001;
1.860000000000000E+009;-3.365004656194152E-002;-7.544990868188517E-001;
1.871000000000000E+009;-4.448351222156139E-002;-7.530657993564385E-001;
1.882000000000000E+009;-5.851340038418604E-002;-7.503371302636117E-001;
1.893000000000000E+009;-7.102568553864369E-002;-7.508224969896972E-001;
1.904000000000000E+009;-8.394006442919448E-002;-7.566288125381330E-001;
1.915000000000000E+009;-9.676149755856833E-002;-7.636883655679321E-001;
1.926000000000000E+009;-1.066583555461216E-001;-7.677397848928024E-001;
1.937000000000000E+009;-1.150194451600492E-001;-7.695691845009531E-001;
1.948000000000000E+009;-1.216508263212527E-001;-7.702005274203163E-001;
1.959000000000000E+009;-1.305471450044179E-001;-7.669969501313991E-001;
1.970000000000000E+009;-1.383338144565238E-001;-7.636170674410259E-001;
1.981000000000000E+009;-1.495578889580912E-001;-7.612540584731126E-001;
1.992000000000000E+009;-1.639201668953003E-001;-7.582757504187702E-001;
2.003000000000000E+009;-1.767207782200438E-001;-7.573219277160639E-001;
2.014000000000000E+009;-1.881884483115863E-001;-7.593634908533826E-001;
2.025000000000000E+009;-1.997728245619093E-001;-7.613292176912340E-001;
2.036000000000000E+009;-2.074058281293683E-001;-7.617436304696698E-001;
2.047000000000000E+009;-2.126953928846204E-001;-7.605148832841407E-001;
2.058000000000000E+009;-2.196821202996135E-001;-7.586502922705953E-001;
2.069000000000000E+009;-2.268983907373138E-001;-7.532997274290932E-001;
2.080000000000000E+009;-2.394310829841892E-001;-7.492095162009737E-001;
2.091000000000000E+009;-2.554676472041791E-001;-7.442346162579333E-001;
2.102000000000000E+009;-2.698724085991173E-001;-7.404938570006178E-001;
2.113000000000000E+009;-2.828131672122746E-001;-7.388741750313133E-001;
2.124000000000000E+009;-2.923508655205958E-001;-7.388234964824676E-001;
2.135000000000000E+009;-3.009001251402362E-001;-7.413529835972192E-001;
2.146000000000000E+009;-3.092830170486057E-001;-7.385779757534169E-001;
2.157000000000000E+009;-3.181890189441873E-001;-7.370651596379040E-001;
2.168000000000000E+009;-3.269427035815709E-001;-7.283006514245840E-001;
2.179000000000000E+009;-3.360647674870733E-001;-7.212558344459366E-001;
2.190000000000000E+009;-3.508886369089587E-001;-7.133671846080096E-001;
2.201000000000000E+009;-3.663443351308843E-001;-7.056650668127306E-001;
2.212000000000000E+009;-3.792479154376009E-001;-6.975367474890004E-001;
2.223000000000000E+009;-3.895525334037647E-001;-6.951696610500537E-001;
2.234000000000000E+009;-3.956519312796644E-001;-6.927416985720671E-001;
2.245000000000000E+009;-3.985341722379525E-001;-6.937885405232398E-001;
2.256000000000000E+009;-4.046161014189493E-001;-6.907070338378487E-001;
2.267000000000000E+009;-4.094851003828877E-001;-6.835139978563530E-001;
2.278000000000000E+009;-4.187485452222479E-001;-6.767598346748616E-001;
2.289000000000000E+009;-4.323241096611490E-001;-6.652071900062506E-001;
2.300000000000000E+009;-4.429933135433467E-001;-6.535585860584202E-001;
2.311000000000000E+009;-4.539139896447925E-001;-6.465200389522272E-001;
2.322000000000000E+009;-4.629360161995597E-001;-6.439966451799946E-001;
2.333000000000000E+009;-4.727852191721839E-001;-6.429745900064996E-001;
2.344000000000000E+009;-4.798657962657680E-001;-6.384769210821999E-001;
2.355000000000000E+009;-4.827445224217900E-001;-6.338890939064485E-001;
2.366000000000000E+009;-4.871274845414384E-001;-6.259771375011066E-001;
2.377000000000000E+009;-4.927851693080154E-001;-6.157885080894210E-001;
2.388000000000000E+009;-5.009772107728843E-001;-6.021087579292108E-001;
2.399000000000000E+009;-5.103998977062022E-001;-5.884060884637661E-001;
2.410000000000000E+009;-5.192312290948337E-001;-5.787676232968786E-001;
2.421000000000000E+009;-5.284470037396598E-001;-5.715401836927165E-001;
2.432000000000000E+009;-5.336058975858161E-001;-5.701490777532227E-001;
2.443000000000000E+009;-5.400824001167740E-001;-5.682952055831760E-001;
2.454000000000000E+009;-5.440558546036912E-001;-5.634140448483077E-001;
2.465000000000000E+009;-5.464263777448895E-001;-5.549504926947464E-001;
2.476000000000000E+009;-5.495475871776616E-001;-5.437227700665238E-001;
2.487000000000000E+009;-5.549941564392110E-001;-5.310174335495423E-001;
2.498000000000000E+009;-5.645158653282524E-001;-5.171407632567250E-001;
2.509000000000000E+009;-5.750497533974944E-001;-5.043274424388249E-001;
2.520000000000000E+009;-5.860147346889177E-001;-4.918562021838696E-001;
2.531000000000000E+009;-5.913889634482044E-001;-4.831022847330984E-001;
2.542000000000000E+009;-5.944217027501003E-001;-4.776360717832454E-001;
2.553000000000000E+009;-5.974093237575789E-001;-4.749437327381997E-001;
2.564000000000000E+009;-6.014767267631954E-001;-4.662356696912862E-001;
2.575000000000000E+009;-6.020648134539963E-001;-4.520530071967008E-001;
2.586000000000000E+009;-6.053733088532000E-001;-4.340774646984504E-001;
2.597000000000000E+009;-6.072756426399821E-001;-4.140607180108064E-001;
2.608000000000000E+009;-6.100938449518977E-001;-3.969739439679998E-001;
2.619000000000000E+009;-6.130067347217117E-001;-3.853711956154964E-001;
2.630000000000000E+009;-6.155273473837212E-001;-3.777424286870696E-001;
2.641000000000000E+009;-6.171416778290844E-001;-3.738925851764449E-001;
2.652000000000000E+009;-6.152926369572130E-001;-3.676929125626078E-001;
2.663000000000000E+009;-6.136136200472727E-001;-3.602522236774979E-001;
2.674000000000000E+009;-6.126033931898961E-001;-3.450682130950085E-001;
2.685000000000000E+009;-6.082524136936718E-001;-3.231778123618807E-001;
2.696000000000000E+009;-6.018414246124511E-001;-3.038326660048172E-001;
2.707000000000000E+009;-5.998143993050397E-001;-2.879552246688647E-001;
2.718000000000000E+009;-5.990788882005534E-001;-2.777154035945011E-001;
2.729000000000000E+009;-6.037417056059320E-001;-2.727050935375842E-001;
2.740000000000000E+009;-6.043367247086019E-001;-2.685045070904472E-001;
2.751000000000000E+009;-6.031854069301966E-001;-2.650847522243255E-001;
2.762000000000000E+009;-6.001860578769768E-001;-2.564856473396666E-001;
2.773000000000000E+009;-5.911458909885381E-001;-2.423801134572358E-001;
2.784000000000000E+009;-5.829312442881489E-001;-2.256956375673485E-001;
2.795000000000000E+009;-5.723596846481388E-001;-2.030679116998958E-001;
2.806000000000000E+009;-5.654152752737478E-001;-1.879454656920957E-001;
2.817000000000000E+009;-5.665102608775725E-001;-1.728274570366744E-001;
2.828000000000000E+009;-5.666361258843554E-001;-1.619568495266360E-001;
2.839000000000000E+009;-5.620572344381055E-001;-1.553760161258652E-001;
2.850000000000000E+009;-5.559934477531887E-001;-1.565922119885065E-001;
2.861000000000000E+009;-5.471002583141116E-001;-1.542370623384829E-001;
2.872000000000000E+009;-5.292061946421512E-001;-1.479858413937845E-001;
2.883000000000000E+009;-5.116119252912723E-001;-1.428362761871377E-001;
2.894000000000000E+009;-4.988237766918982E-001;-1.297680900799277E-001;
2.905000000000000E+009;-4.854452441554579E-001;-1.101937578925466E-001;
2.916000000000000E+009;-4.730017970474691E-001;-9.750077349218264E-002;
2.927000000000000E+009;-4.656323822557912E-001;-9.120786356311215E-002;
2.938000000000000E+009;-4.637992911892299E-001;-9.181578642141235E-002;
2.949000000000000E+009;-4.567301109937111E-001;-9.570764744003368E-002;
2.960000000000000E+009;-4.470019472752157E-001;-1.039983781630100E-001;
2.971000000000000E+009;-4.317114207350687E-001;-1.071186278062039E-001;
2.982000000000000E+009;-4.101822696415275E-001;-1.085475268896403E-001;
2.993000000000000E+009;-3.857605103195888E-001;-1.050499625858975E-001;
3.004000000000000E+009;-3.667941368722618E-001;-1.066776941522603E-001;
3.015000000000000E+009;-3.558799929435206E-001;-9.805338655567131E-002;
3.026000000000000E+009;-3.428769140765596E-001;-9.642519766038869E-002;
3.037000000000000E+009;-3.349005302918302E-001;-1.047585115848271E-001;
3.048000000000000E+009;-3.368686186891511E-001;-1.191261413585310E-001;
3.059000000000000E+009;-3.312872085588290E-001;-1.326319096514375E-001;
3.070000000000000E+009;-3.251684915562906E-001;-1.529408729317332E-001;
3.081000000000000E+009;-3.109466874786051E-001;-1.607253045791702E-001;
3.092000000000000E+009;-2.938985876895112E-001;-1.731030847056151E-001;
3.103000000000000E+009;-2.838136696574349E-001;-1.749677350928011E-001;
3.114000000000000E+009;-2.740075520257615E-001;-1.750451588158731E-001;
3.125000000000000E+009;-2.722121245487525E-001;-1.752040064894151E-001;
3.136000000000000E+009;-2.736502608779654E-001;-1.818326473706906E-001;
3.147000000000000E+009;-2.764621547549259E-001;-1.912817150237972E-001;
