# Version 1.00
#
freq[Hz];re:Trc1_S22;im:Trc1_S22;
1.000000000000000E+008;9.728205087300988E-001;-2.135837777739620E-001;
1.110000000000000E+008;9.657312106786169E-001;-2.387447091354890E-001;
1.220000000000000E+008;9.570638927340277E-001;-2.627362348741423E-001;
1.330000000000000E+008;9.458306163911386E-001;-2.882426088502810E-001;
1.440000000000000E+008;9.302672186717347E-001;-3.113953251714571E-001;
1.550000000000000E+008;9.146112713182819E-001;-3.260493965351203E-001;
1.660000000000000E+008;9.053102114434944E-001;-3.419051931335672E-001;
1.770000000000000E+008;8.940178755426282E-001;-3.592290833310023E-001;
1.880000000000000E+008;8.822841406759823E-001;-3.673145719364402E-001;
1.990000000000000E+008;8.815805609278515E-001;-3.764053021167305E-001;
2.100000000000000E+008;8.799812077839551E-001;-3.982600539561097E-001;
2.210000000000000E+008;8.712056255147501E-001;-4.213901016992035E-001;
2.320000000000000E+008;8.580700234433242E-001;-4.419800800736303E-001;
2.430000000000000E+008;8.462468281893952E-001;-4.587314860051797E-001;
2.540000000000000E+008;8.366442837375369E-001;-4.745271567543522E-001;
2.650000000000000E+008;8.281228480180523E-001;-4.886514444975193E-001;
2.760000000000000E+008;8.214614479907032E-001;-5.035127104176219E-001;
2.870000000000000E+008;8.151517996506607E-001;-5.199255818385362E-001;
2.980000000000000E+008;8.070238179659622E-001;-5.391121391221826E-001;
3.090000000000000E+008;7.954611802000168E-001;-5.603341731659143E-001;
3.200000000000000E+008;7.809450054578193E-001;-5.801001857150222E-001;
3.310000000000000E+008;7.648545770592097E-001;-5.987568593947187E-001;
3.420000000000000E+008;7.481035372315246E-001;-6.156894779778050E-001;
3.530000000000000E+008;7.315155492080309E-001;-6.312639789740449E-001;
3.640000000000000E+008;7.160691856148217E-001;-6.451674475578518E-001;
3.750000000000000E+008;7.019407581990025E-001;-6.576418855240421E-001;
3.860000000000000E+008;6.897145282739348E-001;-6.698718106104126E-001;
3.970000000000000E+008;6.775374341959861E-001;-6.820611031897929E-001;
4.080000000000000E+008;6.655403348661255E-001;-6.964819699210270E-001;
4.190000000000000E+008;6.508295213927317E-001;-7.146092771153387E-001;
4.300000000000000E+008;6.328612575654784E-001;-7.328404401398497E-001;
4.410000000000000E+008;6.141898778668804E-001;-7.514459922509343E-001;
4.520000000000000E+008;5.948374522029830E-001;-7.690675087911804E-001;
4.630000000000000E+008;5.751687900269917E-001;-7.855278992057686E-001;
4.740000000000000E+008;5.546304427878616E-001;-8.005890909489990E-001;
4.850000000000000E+008;5.336050235848342E-001;-8.143734007268405E-001;
4.960000000000000E+008;5.104832774939967E-001;-8.276100401857813E-001;
5.070000000000000E+008;4.859870479288174E-001;-8.393821355905675E-001;
5.180000000000000E+008;4.598301920480360E-001;-8.501456469953708E-001;
5.290000000000000E+008;4.334833397759475E-001;-8.595883366634679E-001;
5.400000000000000E+008;4.073559783310619E-001;-8.674492477229642E-001;
5.510000000000000E+008;3.832211192564745E-001;-8.746768790447770E-001;
5.620000000000000E+008;3.600303908892388E-001;-8.823647053926119E-001;
5.730000000000000E+008;3.384062039936030E-001;-8.905532177925110E-001;
5.840000000000000E+008;3.176351996641176E-001;-8.981313374221264E-001;
5.950000000000000E+008;2.953001271814570E-001;-9.048165915594765E-001;
6.060000000000000E+008;2.699107036867095E-001;-9.121531668488047E-001;
6.170000000000000E+008;2.401853662270183E-001;-9.177438486079407E-001;
6.280000000000000E+008;2.093018610083781E-001;-9.206661557598659E-001;
6.390000000000000E+008;1.787636760686270E-001;-9.247247008907901E-001;
6.500000000000000E+008;1.480342010172395E-001;-9.266489084231159E-001;
6.610000000000000E+008;1.202276004083149E-001;-9.289815336189697E-001;
6.720000000000000E+008;9.025170416535217E-002;-9.283040996470917E-001;
6.830000000000000E+008;6.134868217844038E-002;-9.258194753428530E-001;
6.940000000000000E+008;3.147130172621791E-002;-9.222714327728778E-001;
7.050000000000000E+008;-7.353614338758764E-004;-9.167369439751936E-001;
7.160000000000000E+008;-3.797572984248763E-002;-9.095552230020250E-001;
7.270000000000000E+008;-7.274573482640354E-002;-8.945256013396945E-001;
7.380000000000000E+008;-1.045677278008247E-001;-8.818214668504429E-001;
7.490000000000000E+008;-1.405306454516630E-001;-8.704083901970666E-001;
7.600000000000000E+008;-1.769462992367061E-001;-8.531723613806207E-001;
7.710000000000000E+008;-2.017551182319568E-001;-8.342727946193917E-001;
7.820000000000000E+008;-2.320582009337172E-001;-8.177103953823189E-001;
7.930000000000000E+008;-2.604166070369527E-001;-7.949061067727492E-001;
8.040000000000000E+008;-2.912377967920682E-001;-7.675146527892413E-001;
8.150000000000000E+008;-3.172909651268656E-001;-7.307799580500765E-001;
8.260000000000000E+008;-3.403064044527736E-001;-6.999245357398399E-001;
8.370000000000000E+008;-3.658151378140888E-001;-6.657154537628960E-001;
8.480000000000000E+008;-3.892073615343057E-001;-6.268425413432549E-001;
8.590000000000000E+008;-4.012835881784413E-001;-5.940212339072178E-001;
8.700000000000000E+008;-4.174549436048080E-001;-5.628272734799851E-001;
8.810000000000000E+008;-4.331850654216418E-001;-5.155532857346736E-001;
8.920000000000000E+008;-4.331089901273373E-001;-4.726410764883415E-001;
9.030000000000000E+008;-4.340786509277373E-001;-4.329555974739979E-001;
9.140000000000000E+008;-4.367244544515976E-001;-3.851615430128215E-001;
9.250000000000000E+008;-4.284494198681012E-001;-3.439600803610769E-001;
9.360000000000000E+008;-4.220547179253082E-001;-2.991941565281112E-001;
9.470000000000000E+008;-4.207012701121439E-001;-2.582189271560252E-001;
9.580000000000000E+008;-4.092086086717783E-001;-2.099733201354480E-001;
9.690000000000000E+008;-3.796387825198378E-001;-1.715079971700355E-001;
9.800000000000000E+008;-3.560183415290992E-001;-1.448570893675477E-001;
9.910000000000000E+008;-3.340323604515442E-001;-1.078820646357192E-001;
1.002000000000000E+009;-2.916663962128837E-001;-6.686489390777275E-002;
1.013000000000000E+009;-2.522596090474836E-001;-4.909764194367283E-002;
1.024000000000000E+009;-2.141527819799876E-001;-1.989340863643241E-002;
1.035000000000000E+009;-1.818381532060583E-001;-2.729702518127671E-003;
1.046000000000000E+009;-1.446598447592573E-001;1.348811144216008E-002;
1.057000000000000E+009;-1.120114555751384E-001;1.239031156317446E-002;
1.068000000000000E+009;-8.139599218843081E-002;8.292160038372689E-003;
1.079000000000000E+009;-6.154255058198636E-002;1.450500762245500E-002;
1.090000000000000E+009;-2.459038354539739E-002;1.221939195983801E-002;
1.101000000000000E+009;5.380885692545647E-003;1.132675882700189E-002;
1.112000000000000E+009;4.406478147800236E-002;1.477602660695977E-002;
1.123000000000000E+009;7.420483392772950E-002;1.380779263535961E-002;
1.134000000000000E+009;1.081679484217683E-001;1.484287252094848E-002;
1.145000000000000E+009;1.401772236210170E-001;1.145483193717236E-002;
1.156000000000000E+009;1.736935278591166E-001;-5.309242446187358E-003;
1.167000000000000E+009;1.957341350597539E-001;-2.544713611591271E-002;
1.178000000000000E+009;2.248397960909969E-001;-5.245369859464669E-002;
1.189000000000000E+009;2.375306456645619E-001;-9.064017145672312E-002;
1.200000000000000E+009;2.539896221206798E-001;-1.106882469860021E-001;
1.211000000000000E+009;2.622401472401834E-001;-1.325652780079771E-001;
1.222000000000000E+009;2.772497301153919E-001;-1.451594778350573E-001;
1.233000000000000E+009;2.936835557624856E-001;-1.546280965794615E-001;
1.244000000000000E+009;3.022256396019863E-001;-1.833098344088350E-001;
1.255000000000000E+009;3.074131225741286E-001;-1.889958649933791E-001;
1.266000000000000E+009;3.095206500377303E-001;-2.133667016850911E-001;
1.277000000000000E+009;3.106572892833533E-001;-2.186927728167271E-001;
1.288000000000000E+009;3.237062816779336E-001;-2.312345865276366E-001;
1.299000000000000E+009;3.456946029109537E-001;-2.624567110941885E-001;
1.310000000000000E+009;3.484735293270715E-001;-2.906442152057002E-001;
1.321000000000000E+009;3.546076800781311E-001;-3.188182752798590E-001;
1.332000000000000E+009;3.490301264710097E-001;-3.315835958351933E-001;
1.343000000000000E+009;3.524089951581946E-001;-3.416803344504149E-001;
1.354000000000000E+009;3.522847007283697E-001;-3.559689297861622E-001;
1.365000000000000E+009;3.465218775178889E-001;-3.675168830843098E-001;
1.376000000000000E+009;3.498306785335403E-001;-3.876584038120478E-001;
1.387000000000000E+009;3.436380517930936E-001;-4.055212416631488E-001;
1.398000000000000E+009;3.464951305176401E-001;-4.210247694354052E-001;
1.409000000000000E+009;3.458621274185054E-001;-4.438909986689532E-001;
1.420000000000000E+009;3.436612248939652E-001;-4.571585292255484E-001;
1.431000000000000E+009;3.437963788722591E-001;-4.713310772625090E-001;
1.442000000000000E+009;3.454942348394244E-001;-4.846558576398896E-001;
1.453000000000000E+009;3.377229258767814E-001;-5.000260715579499E-001;
1.464000000000000E+009;3.336709351798994E-001;-5.085800218282461E-001;
1.475000000000000E+009;3.284113439910990E-001;-5.293307136266574E-001;
1.486000000000000E+009;3.179436907758754E-001;-5.507667799130891E-001;
1.497000000000000E+009;3.065399481116000E-001;-5.723931037036497E-001;
1.508000000000000E+009;2.981330205861058E-001;-5.903258861828179E-001;
1.519000000000000E+009;2.918315738733288E-001;-6.086468138801759E-001;
1.530000000000000E+009;2.825748389849084E-001;-6.197271908332361E-001;
1.541000000000000E+009;2.759245867046583E-001;-6.287782809872732E-001;
1.552000000000000E+009;2.620378149550070E-001;-6.365330638934501E-001;
1.563000000000000E+009;2.481549469161532E-001;-6.442162364310120E-001;
1.574000000000000E+009;2.348904732106173E-001;-6.514009094991745E-001;
1.585000000000000E+009;2.209586323772845E-001;-6.645099488887046E-001;
1.596000000000000E+009;2.083208424257013E-001;-6.758441294262592E-001;
1.607000000000000E+009;1.963624237541570E-001;-6.938586408862807E-001;
1.618000000000000E+009;1.832280858815297E-001;-7.045685941770800E-001;
1.629000000000000E+009;1.758660733750965E-001;-7.110829530617882E-001;
1.640000000000000E+009;1.663200007601328E-001;-7.184089657897981E-001;
1.651000000000000E+009;1.577517313585719E-001;-7.193030064014050E-001;
1.662000000000000E+009;1.479940402678647E-001;-7.233308788764040E-001;
1.673000000000000E+009;1.314076836492365E-001;-7.280716631678944E-001;
1.684000000000000E+009;1.104543885235300E-001;-7.342975309311325E-001;
1.695000000000000E+009;9.253098511280998E-002;-7.364307180898189E-001;
1.706000000000000E+009;8.008101376511977E-002;-7.434888959222016E-001;
1.717000000000000E+009;7.041650435379737E-002;-7.510893783220386E-001;
1.728000000000000E+009;6.173963548114471E-002;-7.550960540386813E-001;
1.739000000000000E+009;5.718927421504821E-002;-7.559208898443834E-001;
1.750000000000000E+009;5.033763200018966E-002;-7.579360273074044E-001;
1.761000000000000E+009;3.939153113324628E-002;-7.599524682618752E-001;
1.772000000000000E+009;2.497773887192488E-002;-7.600924263677805E-001;
1.783000000000000E+009;1.156624199250030E-002;-7.616404174045657E-001;
1.794000000000000E+009;-4.819551396388499E-003;-7.647930215502871E-001;
1.805000000000000E+009;-2.156942569288554E-002;-7.713047986389341E-001;
1.816000000000000E+009;-3.490866310071274E-002;-7.747734837885719E-001;
1.827000000000000E+009;-4.528705040875948E-002;-7.806026964539833E-001;
1.838000000000000E+009;-5.259367913746709E-002;-7.814717367648353E-001;
1.849000000000000E+009;-5.817235926600418E-002;-7.846303504404690E-001;
1.860000000000000E+009;-7.066423285390260E-002;-7.849918479852988E-001;
1.871000000000000E+009;-8.539920357991360E-002;-7.807260438483199E-001;
1.882000000000000E+009;-1.022380092768471E-001;-7.748218900955486E-001;
1.893000000000000E+009;-1.156094909102258E-001;-7.747323603128555E-001;
1.904000000000000E+009;-1.334883744868216E-001;-7.745751079852378E-001;
1.915000000000000E+009;-1.440104010854343E-001;-7.737559359391311E-001;
1.926000000000000E+009;-1.516297160249737E-001;-7.776615514780938E-001;
1.937000000000000E+009;-1.578242484929814E-001;-7.747830792329360E-001;
1.948000000000000E+009;-1.622017839627095E-001;-7.761898205005933E-001;
1.959000000000000E+009;-1.694350327604376E-001;-7.724272147734477E-001;
1.970000000000000E+009;-1.786496535617877E-001;-7.702511338291074E-001;
1.981000000000000E+009;-1.898189806688087E-001;-7.657645524746173E-001;
1.992000000000000E+009;-2.052369899365601E-001;-7.616309278079636E-001;
2.003000000000000E+009;-2.192257531652087E-001;-7.588293576787503E-001;
2.014000000000000E+009;-2.303895168206217E-001;-7.584261885205756E-001;
2.025000000000000E+009;-2.417755394721457E-001;-7.610424951057093E-001;
2.036000000000000E+009;-2.507620873322575E-001;-7.621557167886579E-001;
2.047000000000000E+009;-2.588965952151178E-001;-7.587896836409745E-001;
2.058000000000000E+009;-2.672754147152392E-001;-7.526512804652165E-001;
2.069000000000000E+009;-2.740477804936398E-001;-7.446767251545811E-001;
2.080000000000000E+009;-2.879261835817222E-001;-7.380567126619515E-001;
2.091000000000000E+009;-3.037404443411110E-001;-7.283009102692025E-001;
2.102000000000000E+009;-3.172739756349750E-001;-7.218131261748155E-001;
2.113000000000000E+009;-3.312370825143474E-001;-7.158515642105923E-001;
2.124000000000000E+009;-3.380666339046025E-001;-7.111021508024613E-001;
2.135000000000000E+009;-3.465545743408614E-001;-7.107480377138252E-001;
2.146000000000000E+009;-3.515198137065879E-001;-7.047210512551760E-001;
2.157000000000000E+009;-3.572670361504346E-001;-7.013435474340707E-001;
2.168000000000000E+009;-3.641612577935118E-001;-6.951675816050936E-001;
2.179000000000000E+009;-3.757237116405839E-001;-6.855791001586127E-001;
2.190000000000000E+009;-3.884480926342985E-001;-6.770556058902710E-001;
2.201000000000000E+009;-4.063490856995741E-001;-6.661189017731654E-001;
2.212000000000000E+009;-4.182559044223136E-001;-6.546665861806196E-001;
2.223000000000000E+009;-4.292277766408542E-001;-6.510497724948380E-001;
2.234000000000000E+009;-4.348972397052990E-001;-6.461869042544985E-001;
2.245000000000000E+009;-4.377031071777637E-001;-6.461807367768280E-001;
2.256000000000000E+009;-4.456609731185866E-001;-6.410036290825071E-001;
2.267000000000000E+009;-4.508332663974326E-001;-6.300183141479969E-001;
2.278000000000000E+009;-4.601382965455848E-001;-6.174771247892373E-001;
2.289000000000000E+009;-4.717166402025091E-001;-6.013947316822799E-001;
2.300000000000000E+009;-4.796296452191299E-001;-5.858683704754124E-001;
2.311000000000000E+009;-4.875170911192580E-001;-5.757124681589504E-001;
2.322000000000000E+009;-4.927214548912351E-001;-5.706411355087340E-001;
2.333000000000000E+009;-5.012098490481057E-001;-5.688549154692177E-001;
2.344000000000000E+009;-5.086421924649697E-001;-5.618249998141749E-001;
2.355000000000000E+009;-5.111140215750799E-001;-5.523057560061626E-001;
2.366000000000000E+009;-5.134236372216650E-001;-5.399567706289138E-001;
2.377000000000000E+009;-5.152675112092955E-001;-5.247636521692232E-001;
2.388000000000000E+009;-5.175692983368607E-001;-5.107111602678818E-001;
2.399000000000000E+009;-5.266705026021893E-001;-4.962114552629260E-001;
2.410000000000000E+009;-5.352808800986098E-001;-4.853747095670171E-001;
2.421000000000000E+009;-5.471715849016794E-001;-4.738026153349605E-001;
2.432000000000000E+009;-5.532220702199594E-001;-4.619918663616061E-001;
2.443000000000000E+009;-5.517680418881001E-001;-4.514315269343884E-001;
2.454000000000000E+009;-5.501762962513118E-001;-4.434635381746748E-001;
2.465000000000000E+009;-5.484580467718577E-001;-4.312306408304306E-001;
2.476000000000000E+009;-5.492405518403719E-001;-4.167082646841042E-001;
2.487000000000000E+009;-5.497675838433209E-001;-3.944088240482448E-001;
2.498000000000000E+009;-5.476278199970414E-001;-3.732322272988319E-001;
2.509000000000000E+009;-5.480243505562492E-001;-3.599840060852303E-001;
2.520000000000000E+009;-5.506129201944843E-001;-3.480217724207115E-001;
2.531000000000000E+009;-5.507144393870931E-001;-3.398898508617488E-001;
2.542000000000000E+009;-5.507945339685711E-001;-3.334276462459290E-001;
2.553000000000000E+009;-5.482674076345641E-001;-3.242944282470334E-001;
2.564000000000000E+009;-5.454433781581336E-001;-3.102646325433439E-001;
2.575000000000000E+009;-5.375387005788956E-001;-2.891322969618255E-001;
2.586000000000000E+009;-5.242451485278192E-001;-2.712663270216625E-001;
2.597000000000000E+009;-5.162018677105391E-001;-2.558915630089137E-001;
2.608000000000000E+009;-5.144301718600064E-001;-2.416446023391508E-001;
2.619000000000000E+009;-5.129819891690219E-001;-2.264644502999131E-001;
2.630000000000000E+009;-5.027478484040435E-001;-2.156527246684216E-001;
2.641000000000000E+009;-4.952733625167262E-001;-2.126307992051467E-001;
2.652000000000000E+009;-4.856606787890150E-001;-2.060952546806394E-001;
2.663000000000000E+009;-4.704825763653627E-001;-1.901515470739525E-001;
2.674000000000000E+009;-4.474144482435394E-001;-1.817656602396719E-001;
2.685000000000000E+009;-4.308176490290623E-001;-1.700036049439955E-001;
2.696000000000000E+009;-4.180446961414446E-001;-1.594163244572542E-001;
2.707000000000000E+009;-4.101245931726423E-001;-1.457453067519565E-001;
2.718000000000000E+009;-3.960747874634611E-001;-1.349069780880046E-001;
2.729000000000000E+009;-3.842520622817443E-001;-1.377932169010282E-001;
2.740000000000000E+009;-3.750781941397177E-001;-1.387058081635444E-001;
2.751000000000000E+009;-3.563084524333129E-001;-1.401235386416855E-001;
2.762000000000000E+009;-3.378463109019969E-001;-1.464689877024862E-001;
2.773000000000000E+009;-3.137931825938153E-001;-1.448104684350077E-001;
2.784000000000000E+009;-2.930580975246942E-001;-1.466218396156077E-001;
2.795000000000000E+009;-2.787926511658204E-001;-1.458876569781406E-001;
2.806000000000000E+009;-2.654317646175765E-001;-1.451437211134851E-001;
2.817000000000000E+009;-2.622923894265296E-001;-1.476499804633779E-001;
2.828000000000000E+009;-2.601383917386768E-001;-1.552295821390759E-001;
2.839000000000000E+009;-2.512649072886917E-001;-1.600637216797482E-001;
2.850000000000000E+009;-2.444683808593794E-001;-1.791375655391378E-001;
2.861000000000000E+009;-2.316378548955415E-001;-1.913752459691638E-001;
2.872000000000000E+009;-2.127629962153010E-001;-2.065483432382027E-001;
2.883000000000000E+009;-2.006314557579989E-001;-2.169804819592217E-001;
2.894000000000000E+009;-1.859328619731425E-001;-2.205687593928745E-001;
2.905000000000000E+009;-1.752107906000686E-001;-2.264269032427900E-001;
2.916000000000000E+009;-1.711495709296742E-001;-2.351103726217651E-001;
2.927000000000000E+009;-1.804361259724976E-001;-2.477182316637356E-001;
2.938000000000000E+009;-1.910481551062825E-001;-2.582667968252213E-001;
2.949000000000000E+009;-1.951675707234387E-001;-2.719410181777436E-001;
2.960000000000000E+009;-1.894886364480610E-001;-2.853780879285095E-001;
2.971000000000000E+009;-1.750305386168415E-001;-3.064228930127527E-001;
2.982000000000000E+009;-1.678054656073817E-001;-3.277470750447364E-001;
2.993000000000000E+009;-1.631511727954955E-001;-3.400681088171833E-001;
3.004000000000000E+009;-1.615592044903696E-001;-3.453356009552521E-001;
3.015000000000000E+009;-1.630275955631196E-001;-3.524551207119891E-001;
3.026000000000000E+009;-1.738095432086502E-001;-3.560025398641735E-001;
3.037000000000000E+009;-1.875000211770554E-001;-3.673420126327274E-001;
3.048000000000000E+009;-2.043468175194688E-001;-3.768661184110508E-001;
3.059000000000000E+009;-2.114465774993340E-001;-3.906982820441532E-001;
3.070000000000000E+009;-2.161360684711493E-001;-4.055224222476195E-001;
3.081000000000000E+009;-2.118999401372022E-001;-4.173224488368884E-001;
3.092000000000000E+009;-2.055512124342949E-001;-4.281184419435889E-001;
3.103000000000000E+009;-2.094415083857777E-001;-4.327004636202882E-001;
3.114000000000000E+009;-2.144969457383426E-001;-4.316078463073338E-001;
3.125000000000000E+009;-2.275829341720478E-001;-4.303781765831232E-001;
3.136000000000000E+009;-2.437278419401951E-001;-4.280390715221396E-001;
3.147000000000000E+009;-2.569855309363553E-001;-4.325279348817701E-001;
