# Version 1.00
#
freq[Hz];re:Trc1_S22;im:Trc1_S22;
1.000000000000000E+008;9.774118172032476E-001;-2.007719496437098E-001;
1.110000000000000E+008;9.715147183437786E-001;-2.243896432520007E-001;
1.220000000000000E+008;9.641147269596236E-001;-2.468675835229593E-001;
1.330000000000000E+008;9.548389292906115E-001;-2.709147055492106E-001;
1.440000000000000E+008;9.416281783422229E-001;-2.933033291393905E-001;
1.550000000000000E+008;9.279169438557515E-001;-3.079226336134659E-001;
1.660000000000000E+008;9.213032835557455E-001;-3.217197910599495E-001;
1.770000000000000E+008;9.161464492643006E-001;-3.394536318962332E-001;
1.880000000000000E+008;9.085636128642473E-001;-3.558765620177840E-001;
1.990000000000000E+008;9.009841883989267E-001;-3.704789000111222E-001;
2.100000000000000E+008;8.951428662036173E-001;-3.880246096196188E-001;
2.210000000000000E+008;8.863647919515123E-001;-4.082721735829427E-001;
2.320000000000000E+008;8.750469143542076E-001;-4.277111468306564E-001;
2.430000000000000E+008;8.630332618998331E-001;-4.448320592728650E-001;
2.540000000000000E+008;8.533606335055834E-001;-4.597694334298702E-001;
2.650000000000000E+008;8.448513195207863E-001;-4.722238790072750E-001;
2.760000000000000E+008;8.390689556878549E-001;-4.854367990963175E-001;
2.870000000000000E+008;8.337298567445219E-001;-4.996206615900701E-001;
2.980000000000000E+008;8.279514344571781E-001;-5.163873196576971E-001;
3.090000000000000E+008;8.197298359102454E-001;-5.358027582677641E-001;
3.200000000000000E+008;8.092312444409685E-001;-5.549361551818628E-001;
3.310000000000000E+008;7.971112943250467E-001;-5.740864725019678E-001;
3.420000000000000E+008;7.833547046255314E-001;-5.930037674939879E-001;
3.530000000000000E+008;7.689706674761992E-001;-6.111192570327713E-001;
3.640000000000000E+008;7.547748782019741E-001;-6.277482257075822E-001;
3.750000000000000E+008;7.410637428659280E-001;-6.429861239529598E-001;
3.860000000000000E+008;7.275066633507940E-001;-6.570279273434808E-001;
3.970000000000000E+008;7.136286670381852E-001;-6.696290130747925E-001;
4.080000000000000E+008;6.993392690741606E-001;-6.824495084808894E-001;
4.190000000000000E+008;6.831042347860167E-001;-6.968960381523310E-001;
4.300000000000000E+008;6.658075628559155E-001;-7.107827412767956E-001;
4.410000000000000E+008;6.493045959155901E-001;-7.244519704639435E-001;
4.520000000000000E+008;6.346788167762199E-001;-7.384305784073747E-001;
4.630000000000000E+008;6.209110785868135E-001;-7.531487764377070E-001;
4.740000000000000E+008;6.064995197010606E-001;-7.679228693334634E-001;
4.850000000000000E+008;5.911352243337414E-001;-7.831060172258657E-001;
4.960000000000000E+008;5.736501575708870E-001;-7.978755009437213E-001;
5.070000000000000E+008;5.542692365888109E-001;-8.119670281567762E-001;
5.180000000000000E+008;5.326934504550179E-001;-8.250837677161252E-001;
5.290000000000000E+008;5.101766282897264E-001;-8.376149549407730E-001;
5.400000000000000E+008;4.867053095697841E-001;-8.488494444309808E-001;
5.510000000000000E+008;4.637177639042438E-001;-8.590316829941929E-001;
5.620000000000000E+008;4.416406734700966E-001;-8.684896328766257E-001;
5.730000000000000E+008;4.214770679062109E-001;-8.776776141695643E-001;
5.840000000000000E+008;4.028029124702949E-001;-8.855367721290285E-001;
5.950000000000000E+008;3.840852004237130E-001;-8.924507044550698E-001;
6.060000000000000E+008;3.632235130001760E-001;-8.995900629402024E-001;
6.170000000000000E+008;3.399554191013208E-001;-9.062107615598273E-001;
6.280000000000000E+008;3.157134963740940E-001;-9.117370557317748E-001;
6.390000000000000E+008;2.917695690499462E-001;-9.189278373294199E-001;
6.500000000000000E+008;2.676860365630336E-001;-9.252647740208955E-001;
6.610000000000000E+008;2.454304271516238E-001;-9.314515908977644E-001;
6.720000000000000E+008;2.230598372388968E-001;-9.358272553335937E-001;
6.830000000000000E+008;2.007269065256999E-001;-9.396526961027908E-001;
6.940000000000000E+008;1.780174734039461E-001;-9.433868644973895E-001;
7.050000000000000E+008;1.532770547003194E-001;-9.456330917490154E-001;
7.160000000000000E+008;1.268201968396585E-001;-9.472916700133396E-001;
7.270000000000000E+008;9.931268083117967E-002;-9.469771560737927E-001;
7.380000000000000E+008;7.129087838210714E-002;-9.461056027237302E-001;
7.490000000000000E+008;3.994771256813247E-002;-9.462166066201652E-001;
7.600000000000000E+008;9.511026140205643E-003;-9.434725311984691E-001;
7.710000000000000E+008;-1.778893863373988E-002;-9.394436531893078E-001;
7.820000000000000E+008;-4.450708368032048E-002;-9.357337486405962E-001;
7.930000000000000E+008;-7.209362766601671E-002;-9.282738259895503E-001;
8.040000000000000E+008;-9.940002616573340E-002;-9.185846679552746E-001;
8.150000000000000E+008;-1.286037986350851E-001;-9.042211485546081E-001;
8.260000000000000E+008;-1.574439198722149E-001;-8.878475159145531E-001;
8.370000000000000E+008;-1.846954318097279E-001;-8.715448572391956E-001;
8.480000000000000E+008;-2.133184432611082E-001;-8.556230950589578E-001;
8.590000000000000E+008;-2.345062637236200E-001;-8.420058701177173E-001;
8.700000000000000E+008;-2.588152477712293E-001;-8.281907782851971E-001;
8.810000000000000E+008;-2.834098266983017E-001;-8.078657151601735E-001;
8.920000000000000E+008;-3.000513311489605E-001;-7.845805307347601E-001;
9.030000000000000E+008;-3.197111630236122E-001;-7.669697298450366E-001;
9.140000000000000E+008;-3.438481488351888E-001;-7.428584924674421E-001;
9.250000000000000E+008;-3.648191556316447E-001;-7.162320516099832E-001;
9.360000000000000E+008;-3.850571523200488E-001;-6.880169670392190E-001;
9.470000000000000E+008;-4.082611502490319E-001;-6.587815964546728E-001;
9.580000000000000E+008;-4.265779433341281E-001;-6.246279867000438E-001;
9.690000000000000E+008;-4.318785702455336E-001;-5.960593648195689E-001;
9.800000000000000E+008;-4.432262231995519E-001;-5.735709391083448E-001;
9.910000000000000E+008;-4.526495484592603E-001;-5.428777104672951E-001;
1.002000000000000E+009;-4.576299819230162E-001;-5.117755830000849E-001;
1.013000000000000E+009;-4.639506468695249E-001;-4.762513057334564E-001;
1.024000000000000E+009;-4.706484892628023E-001;-4.359043467046145E-001;
1.035000000000000E+009;-4.685142450022528E-001;-3.966567436161607E-001;
1.046000000000000E+009;-4.737332257008908E-001;-3.633663477096131E-001;
1.057000000000000E+009;-4.707224350659440E-001;-3.261479070820200E-001;
1.068000000000000E+009;-4.582433397969685E-001;-2.990253260348653E-001;
1.079000000000000E+009;-4.607186107064935E-001;-2.742661042158179E-001;
1.090000000000000E+009;-4.506223877098538E-001;-2.375024730979931E-001;
1.101000000000000E+009;-4.304702543205876E-001;-1.976026229220987E-001;
1.112000000000000E+009;-3.981353669682731E-001;-1.657119591326144E-001;
1.123000000000000E+009;-3.745660283827481E-001;-1.400213945261538E-001;
1.134000000000000E+009;-3.560742241592438E-001;-1.128400273829344E-001;
1.145000000000000E+009;-3.347737762279340E-001;-7.729682532757216E-002;
1.156000000000000E+009;-2.981192786800838E-001;-5.761973252309938E-002;
1.167000000000000E+009;-2.751750905994584E-001;-5.641086462364740E-002;
1.178000000000000E+009;-2.602398801390390E-001;-4.852835418585690E-002;
1.189000000000000E+009;-2.415945952671273E-001;-4.441403946071658E-002;
1.200000000000000E+009;-2.122073054198292E-001;-2.185870358610560E-002;
1.211000000000000E+009;-1.840204022882268E-001;-1.444471450765985E-002;
1.222000000000000E+009;-1.537382216130864E-001;-2.224164371221579E-003;
1.233000000000000E+009;-1.248638647953619E-001;1.613223222261772E-002;
1.244000000000000E+009;-7.721961188141166E-002;2.589980308202036E-002;
1.255000000000000E+009;-4.701610741189599E-002;1.360235213395525E-002;
1.266000000000000E+009;-2.113114497372024E-002;8.957487726879612E-003;
1.277000000000000E+009;-1.054036423905310E-002;-9.534686900180583E-003;
1.288000000000000E+009;1.429795393981694E-002;-1.194566758956956E-002;
1.299000000000000E+009;4.059684395802574E-002;-2.031694112689972E-002;
1.310000000000000E+009;5.970723003634500E-002;-4.019084957754832E-002;
1.321000000000000E+009;8.061916926193827E-002;-4.666074050490818E-002;
1.332000000000000E+009;9.525817495321846E-002;-5.482922008399494E-002;
1.343000000000000E+009;1.071910378262459E-001;-5.537614702981650E-002;
1.354000000000000E+009;1.197962132651479E-001;-5.686202735831081E-002;
1.365000000000000E+009;1.331279657337258E-001;-6.194914258963426E-002;
1.376000000000000E+009;1.424917621041424E-001;-6.661512054514149E-002;
1.387000000000000E+009;1.583512588755985E-001;-6.714091674315249E-002;
1.398000000000000E+009;1.873368526246698E-001;-7.470634077855270E-002;
1.409000000000000E+009;2.120275739192974E-001;-8.967716921650196E-002;
1.420000000000000E+009;2.367839612618844E-001;-1.059252373775106E-001;
1.431000000000000E+009;2.622305739112944E-001;-1.190803814044159E-001;
1.442000000000000E+009;2.886125461198047E-001;-1.431123546591963E-001;
1.453000000000000E+009;2.925563344656697E-001;-1.638866141274541E-001;
1.464000000000000E+009;3.007131783603015E-001;-1.767205726593657E-001;
1.475000000000000E+009;3.148596936481607E-001;-2.002296121089588E-001;
1.486000000000000E+009;3.182470786777678E-001;-2.266913891724653E-001;
1.497000000000000E+009;3.231227052307568E-001;-2.529708715821711E-001;
1.508000000000000E+009;3.346338613742703E-001;-2.796074101480685E-001;
1.519000000000000E+009;3.387063441301705E-001;-3.118820645879603E-001;
1.530000000000000E+009;3.386851005518032E-001;-3.311467172395100E-001;
1.541000000000000E+009;3.429376544997420E-001;-3.472653522119006E-001;
1.552000000000000E+009;3.377488431048319E-001;-3.661761583717095E-001;
1.563000000000000E+009;3.312629696114456E-001;-3.791416583097651E-001;
1.574000000000000E+009;3.248504131482071E-001;-3.947490303537931E-001;
1.585000000000000E+009;3.171996164137211E-001;-4.200332428436679E-001;
1.596000000000000E+009;3.015660983230918E-001;-4.324423724420117E-001;
1.607000000000000E+009;3.037481444901540E-001;-4.516400331523010E-001;
1.618000000000000E+009;2.992752361290815E-001;-4.718412689335822E-001;
1.629000000000000E+009;3.009219261285807E-001;-4.867199819388410E-001;
1.640000000000000E+009;3.000144624646009E-001;-5.055431963004327E-001;
1.651000000000000E+009;2.899251809132090E-001;-5.177603946204497E-001;
1.662000000000000E+009;2.815112834628181E-001;-5.250044634362645E-001;
1.673000000000000E+009;2.683011267739686E-001;-5.301887053751042E-001;
1.684000000000000E+009;2.611223217954215E-001;-5.397246460285849E-001;
1.695000000000000E+009;2.490522626469804E-001;-5.557908609570431E-001;
1.706000000000000E+009;2.386962444331486E-001;-5.724998410872024E-001;
1.717000000000000E+009;2.326204200873495E-001;-5.864581599860461E-001;
1.728000000000000E+009;2.286797120720225E-001;-6.032265718411443E-001;
1.739000000000000E+009;2.214572062870641E-001;-6.118003106378129E-001;
1.750000000000000E+009;2.142710691038048E-001;-6.184911977142636E-001;
1.761000000000000E+009;2.089153039179007E-001;-6.261412960205868E-001;
1.772000000000000E+009;1.958598327019892E-001;-6.328959182928080E-001;
1.783000000000000E+009;1.833881885728746E-001;-6.383165772268522E-001;
1.794000000000000E+009;1.742730596940356E-001;-6.494996166042405E-001;
1.805000000000000E+009;1.574980673072406E-001;-6.670030709744779E-001;
1.816000000000000E+009;1.409343662178241E-001;-6.798403555029868E-001;
1.827000000000000E+009;1.310865816123766E-001;-6.882331209346222E-001;
1.838000000000000E+009;1.243318247012325E-001;-6.957380814558690E-001;
1.849000000000000E+009;1.166326466934109E-001;-7.023019058826534E-001;
1.860000000000000E+009;1.092352247140190E-001;-7.045634316404487E-001;
1.871000000000000E+009;9.633411759007585E-002;-7.086861634486655E-001;
1.882000000000000E+009;7.978811805451067E-002;-7.089848338615351E-001;
1.893000000000000E+009;6.308721071410277E-002;-7.139251610524976E-001;
1.904000000000000E+009;4.785355494455792E-002;-7.170617278851492E-001;
1.915000000000000E+009;3.753053224520731E-002;-7.256110125568163E-001;
1.926000000000000E+009;2.563426700792315E-002;-7.318669793157847E-001;
1.937000000000000E+009;1.963500021645356E-002;-7.313431553660882E-001;
1.948000000000000E+009;1.788957451834196E-002;-7.355836304857427E-001;
1.959000000000000E+009;1.124124642653672E-002;-7.378924068072579E-001;
1.970000000000000E+009;3.099666765412622E-003;-7.389553260449608E-001;
1.981000000000000E+009;-9.772550427956253E-003;-7.383920917517584E-001;
1.992000000000000E+009;-2.258544103581465E-002;-7.397344948403893E-001;
2.003000000000000E+009;-3.905089894244008E-002;-7.411317376442457E-001;
2.014000000000000E+009;-4.991723554329935E-002;-7.433073220198073E-001;
2.025000000000000E+009;-6.110409036679430E-002;-7.480897587106948E-001;
2.036000000000000E+009;-6.724083985564916E-002;-7.532743270938946E-001;
2.047000000000000E+009;-7.344459368052159E-002;-7.564283619379468E-001;
2.058000000000000E+009;-7.959855393939883E-002;-7.557492173884288E-001;
2.069000000000000E+009;-8.897438723319256E-002;-7.536919870162436E-001;
2.080000000000000E+009;-9.952212642587734E-002;-7.488614128212683E-001;
2.091000000000000E+009;-1.138588948938385E-001;-7.494171619925788E-001;
2.102000000000000E+009;-1.296088490888364E-001;-7.480626896476360E-001;
2.113000000000000E+009;-1.433028215184460E-001;-7.505215856809854E-001;
2.124000000000000E+009;-1.567183347297375E-001;-7.521647177244831E-001;
2.135000000000000E+009;-1.639993620681952E-001;-7.516321267258981E-001;
2.146000000000000E+009;-1.684405230575967E-001;-7.505556293703724E-001;
2.157000000000000E+009;-1.727333819580998E-001;-7.529457867492659E-001;
2.168000000000000E+009;-1.808910957008079E-001;-7.511577700674653E-001;
2.179000000000000E+009;-1.919324827267867E-001;-7.487000497941476E-001;
2.190000000000000E+009;-2.058915426426994E-001;-7.427908760727150E-001;
2.201000000000000E+009;-2.217265000617757E-001;-7.396473387906912E-001;
2.212000000000000E+009;-2.360496993039300E-001;-7.350019323070705E-001;
2.223000000000000E+009;-2.472084846525109E-001;-7.376912009936253E-001;
2.234000000000000E+009;-2.584075901021586E-001;-7.396276660298342E-001;
2.245000000000000E+009;-2.634117614338449E-001;-7.402747090632110E-001;
2.256000000000000E+009;-2.672830314995759E-001;-7.386496813232116E-001;
2.267000000000000E+009;-2.730763372133698E-001;-7.353687069185173E-001;
2.278000000000000E+009;-2.814522080480498E-001;-7.288914596578819E-001;
2.289000000000000E+009;-2.941744307748327E-001;-7.237630871181413E-001;
2.300000000000000E+009;-3.081289882717032E-001;-7.163123629399673E-001;
2.311000000000000E+009;-3.207976037309323E-001;-7.114702606061882E-001;
2.322000000000000E+009;-3.326414280591969E-001;-7.094617409618906E-001;
2.333000000000000E+009;-3.397521733748591E-001;-7.080534743291475E-001;
2.344000000000000E+009;-3.443452347116405E-001;-7.078114199663657E-001;
2.355000000000000E+009;-3.479426657763040E-001;-7.086906157146334E-001;
2.366000000000000E+009;-3.517904796202027E-001;-7.047862127809792E-001;
2.377000000000000E+009;-3.582218407011544E-001;-7.015081034004874E-001;
2.388000000000000E+009;-3.724172671463862E-001;-6.921230774709870E-001;
2.399000000000000E+009;-3.815088887425135E-001;-6.798977649825317E-001;
2.410000000000000E+009;-3.918231246536124E-001;-6.753671552574071E-001;
2.421000000000000E+009;-4.040298010048435E-001;-6.750181623723000E-001;
2.432000000000000E+009;-4.160167998165777E-001;-6.748585501225525E-001;
2.443000000000000E+009;-4.229739640134080E-001;-6.738444970575495E-001;
2.454000000000000E+009;-4.282389965933046E-001;-6.732419663579466E-001;
2.465000000000000E+009;-4.346031202888395E-001;-6.688370213102144E-001;
2.476000000000000E+009;-4.400417882032126E-001;-6.598881872544564E-001;
2.487000000000000E+009;-4.500356636758928E-001;-6.498746412800156E-001;
2.498000000000000E+009;-4.603042705681603E-001;-6.371536086643430E-001;
2.509000000000000E+009;-4.746123049178359E-001;-6.271071194185178E-001;
2.520000000000000E+009;-4.860341802320832E-001;-6.166571166223229E-001;
2.531000000000000E+009;-4.936992699868614E-001;-6.111215048403917E-001;
2.542000000000000E+009;-4.992495049336824E-001;-6.083300688234727E-001;
2.553000000000000E+009;-5.023974670016340E-001;-6.063608040075560E-001;
2.564000000000000E+009;-5.042988461795190E-001;-6.025599552832648E-001;
2.575000000000000E+009;-5.074842162277443E-001;-5.961289642851583E-001;
2.586000000000000E+009;-5.131158021291208E-001;-5.847421808590300E-001;
2.597000000000000E+009;-5.197402100194246E-001;-5.722917953730635E-001;
2.608000000000000E+009;-5.305305413876573E-001;-5.615660059955784E-001;
2.619000000000000E+009;-5.408839121899506E-001;-5.511738839065677E-001;
2.630000000000000E+009;-5.474129279855572E-001;-5.470096738422059E-001;
2.641000000000000E+009;-5.532249265354220E-001;-5.455512868802461E-001;
2.652000000000000E+009;-5.570729457957093E-001;-5.455883965147370E-001;
2.663000000000000E+009;-5.608410019090634E-001;-5.405164763949698E-001;
2.674000000000000E+009;-5.641825144572259E-001;-5.303192524281424E-001;
2.685000000000000E+009;-5.686495221937453E-001;-5.150492316024863E-001;
2.696000000000000E+009;-5.726740925087167E-001;-4.984305809249849E-001;
2.707000000000000E+009;-5.794982546903896E-001;-4.832787664770383E-001;
2.718000000000000E+009;-5.891171448326071E-001;-4.736115251797546E-001;
2.729000000000000E+009;-6.014259563317352E-001;-4.665314754951639E-001;
2.740000000000000E+009;-6.094268946680542E-001;-4.591153306048421E-001;
2.751000000000000E+009;-6.113334793565306E-001;-4.535455930660905E-001;
2.762000000000000E+009;-6.090652881817409E-001;-4.465045842770112E-001;
2.773000000000000E+009;-6.040189514822165E-001;-4.375418705549509E-001;
2.784000000000000E+009;-6.025544853662493E-001;-4.241218325964899E-001;
2.795000000000000E+009;-6.029339406015648E-001;-4.075782813856353E-001;
2.806000000000000E+009;-6.108581883530105E-001;-3.910260768959519E-001;
2.817000000000000E+009;-6.182905906875116E-001;-3.723254672174759E-001;
2.828000000000000E+009;-6.256028227717464E-001;-3.625101296356678E-001;
2.839000000000000E+009;-6.309306585186497E-001;-3.558595442135492E-001;
2.850000000000000E+009;-6.333925668334512E-001;-3.573271097077931E-001;
2.861000000000000E+009;-6.357034997071910E-001;-3.559009693133828E-001;
2.872000000000000E+009;-6.300029866084680E-001;-3.497833183123746E-001;
2.883000000000000E+009;-6.262336261102882E-001;-3.394363493767645E-001;
2.894000000000000E+009;-6.229909446117509E-001;-3.201658860571425E-001;
2.905000000000000E+009;-6.222697991941737E-001;-2.973853615230538E-001;
2.916000000000000E+009;-6.235061575249191E-001;-2.758829657932371E-001;
2.927000000000000E+009;-6.281795316855805E-001;-2.613788911980479E-001;
2.938000000000000E+009;-6.360222324620232E-001;-2.514553188644206E-001;
2.949000000000000E+009;-6.396589944752538E-001;-2.431484580049069E-001;
2.960000000000000E+009;-6.319515815076302E-001;-2.402311357202106E-001;
2.971000000000000E+009;-6.227951715955710E-001;-2.397665860080623E-001;
2.982000000000000E+009;-6.126171068056031E-001;-2.310357367511116E-001;
2.993000000000000E+009;-5.979213741166796E-001;-2.183267265458636E-001;
3.004000000000000E+009;-5.870745492813658E-001;-2.037695643005189E-001;
3.015000000000000E+009;-5.800774063262715E-001;-1.854771198136644E-001;
3.026000000000000E+009;-5.781781181811325E-001;-1.691564883214412E-001;
3.037000000000000E+009;-5.771976610490540E-001;-1.613937509994868E-001;
3.048000000000000E+009;-5.842284363378292E-001;-1.584340132477886E-001;
3.059000000000000E+009;-5.842258139582575E-001;-1.564307840910822E-001;
3.070000000000000E+009;-5.790942596016865E-001;-1.527564897478735E-001;
3.081000000000000E+009;-5.587073681325112E-001;-1.466891826586672E-001;
3.092000000000000E+009;-5.427522536006002E-001;-1.432085628210844E-001;
3.103000000000000E+009;-5.282953458406615E-001;-1.306001994211546E-001;
3.114000000000000E+009;-5.209146106041153E-001;-1.121129840473281E-001;
3.125000000000000E+009;-5.111480459964048E-001;-9.407141769496408E-002;
3.136000000000000E+009;-5.082908980803355E-001;-8.274012603026588E-002;
3.147000000000000E+009;-5.061675658417012E-001;-7.449952043056768E-002;
