#Parameters = {D=8; L=80; d_a=10; e_m=9; e_s=30; gap=1.5; m_x=30; m_y=40; m_z=100; mu_m=1; mu_s=1; s_d=2}
#"Frequency / GHz"	"S1,1 (m_z=100) [Re]"	"S1,1 (m_z=100) [Im]"	"Ref.Imp. [Re]"	"Ref.Imp. [Im]"
#---------------------------------------------------------------------------------------------
0.0000000000000	0.99994099140167	-0.0000000000000	73.000000000000	0.0000000000000
0.0040000001899898	0.99987113475800	-0.011831778101623	73.000000000000	0.0000000000000
0.0080000003799796	0.99966132640839	-0.023662798106670	73.000000000000	0.0000000000000
0.012000000104308	0.99931150674820	-0.035492271184921	73.000000000000	0.0000000000000
0.016000000759959	0.99882131814957	-0.047319386154413	73.000000000000	0.0000000000000
0.019999999552965	0.99819040298462	-0.059143215417862	73.000000000000	0.0000000000000
0.024000000208616	0.99741834402084	-0.070962779223919	73.000000000000	0.0000000000000
0.028000000864267	0.99650448560715	-0.082776963710785	73.000000000000	0.0000000000000
0.032000001519918	0.99544829130173	-0.094584561884403	73.000000000000	0.0000000000000
0.035999998450279	0.99424922466278	-0.10638422518969	73.000000000000	0.0000000000000
0.039999999105930	0.99290657043457	-0.11817449331284	73.000000000000	0.0000000000000
0.043999999761581	0.99142003059387	-0.12995378673077	73.000000000000	0.0000000000000
0.048000000417233	0.98978877067566	-0.14172039926052	73.000000000000	0.0000000000000
0.052000001072884	0.98801261186600	-0.15347254276276	73.000000000000	0.0000000000000
0.056000001728535	0.98609125614166	-0.16520835459232	73.000000000000	0.0000000000000
0.059999998658895	0.98402440547943	-0.17692594230175	73.000000000000	0.0000000000000
0.064000003039837	0.98181200027466	-0.18862332403660	73.000000000000	0.0000000000000
0.068000003695488	0.97945410013199	-0.20029850304127	73.000000000000	0.0000000000000
0.071999996900558	0.97695088386536	-0.21194963157177	73.000000000000	0.0000000000000
0.075999997556210	0.97430264949799	-0.22357475757599	73.000000000000	0.0000000000000
0.079999998211861	0.97150963544846	-0.23517204821110	73.000000000000	0.0000000000000
0.083999998867512	0.96857249736786	-0.24673976004124	73.000000000000	0.0000000000000
0.087999999523163	0.96549159288406	-0.25827628374100	73.000000000000	0.0000000000000
0.092000000178814	0.96226763725281	-0.26978006958961	73.000000000000	0.0000000000000
0.096000000834465	0.95890104770660	-0.28124973177910	73.000000000000	0.0000000000000
0.10000000149012	0.95539271831512	-0.29268395900726	73.000000000000	0.0000000000000
0.10400000214577	0.95174276828766	-0.30408161878586	73.000000000000	0.0000000000000
0.10800000280142	0.94795197248459	-0.31544160842896	73.000000000000	0.0000000000000
0.11200000345707	0.94402068853378	-0.32676306366920	73.000000000000	0.0000000000000
0.11599999666214	0.93994915485382	-0.33804506063461	73.000000000000	0.0000000000000
0.11999999731779	0.93573755025864	-0.34928676486015	73.000000000000	0.0000000000000
0.12399999797344	0.93138599395752	-0.36048743128777	73.000000000000	0.0000000000000
0.12800000607967	0.92689418792725	-0.37164622545242	73.000000000000	0.0000000000000
0.13199999928474	0.92226219177246	-0.38276240229607	73.000000000000	0.0000000000000
0.13600000739098	0.91748946905136	-0.39383503794670	73.000000000000	0.0000000000000
0.14000000059605	0.91257548332214	-0.40486332774162	73.000000000000	0.0000000000000
0.14399999380112	0.90751969814301	-0.41584616899490	73.000000000000	0.0000000000000
0.14800000190735	0.90232151746750	-0.42678245902061	73.000000000000	0.0000000000000
0.15199999511242	0.89698010683060	-0.43767091631889	73.000000000000	0.0000000000000
0.15600000321865	0.89149451255798	-0.44851019978523	73.000000000000	0.0000000000000
0.15999999642372	0.88586407899857	-0.45929870009422	73.000000000000	0.0000000000000
0.16400000452995	0.88008785247803	-0.47003474831581	73.000000000000	0.0000000000000
0.16799999773502	0.87416499853134	-0.48071649670601	73.000000000000	0.0000000000000
0.17200000584126	0.86809486150742	-0.49134203791618	73.000000000000	0.0000000000000
0.17599999904633	0.86187678575516	-0.50190925598145	73.000000000000	0.0000000000000
0.18000000715256	0.85550987720490	-0.51241582632065	73.000000000000	0.0000000000000
0.18400000035763	0.84899395704269	-0.52285969257355	73.000000000000	0.0000000000000
0.18799999356270	0.84232848882675	-0.53323835134506	73.000000000000	0.0000000000000
0.19200000166893	0.83551305532455	-0.54354959726334	73.000000000000	0.0000000000000
0.19599999487400	0.82854771614075	-0.55379092693329	73.000000000000	0.0000000000000
0.20000000298023	0.82143205404282	-0.56396007537842	73.000000000000	0.0000000000000
0.20399999618530	0.81416624784470	-0.57405447959900	73.000000000000	0.0000000000000
0.20800000429153	0.80675035715103	-0.58407205343246	73.000000000000	0.0000000000000
0.21199999749660	0.79918444156647	-0.59401035308838	73.000000000000	0.0000000000000
0.21600000560284	0.79146856069565	-0.60386723279953	73.000000000000	0.0000000000000
0.21999999880791	0.78360271453857	-0.61364060640335	73.000000000000	0.0000000000000
0.22400000691414	0.77558737993240	-0.62332838773727	73.000000000000	0.0000000000000
0.22800000011921	0.76742231845856	-0.63292837142944	73.000000000000	0.0000000000000
0.23199999332428	0.75910758972168	-0.64243865013123	73.000000000000	0.0000000000000
0.23600000143051	0.75064319372177	-0.65185725688934	73.000000000000	0.0000000000000
0.23999999463558	0.74202895164490	-0.66118216514587	73.000000000000	0.0000000000000
0.24400000274181	0.73326444625854	-0.67041128873825	73.000000000000	0.0000000000000
0.24799999594688	0.72434955835342	-0.67954254150391	73.000000000000	0.0000000000000
0.25200000405312	0.71528375148773	-0.68857371807098	73.000000000000	0.0000000000000
0.25600001215935	0.70606613159180	-0.69750255346298	73.000000000000	0.0000000000000
0.25999999046326	0.69669640064240	-0.70632666349411	73.000000000000	0.0000000000000
0.26399999856949	0.68717378377914	-0.71504324674606	73.000000000000	0.0000000000000
0.26800000667572	0.67749738693237	-0.72364974021912	73.000000000000	0.0000000000000
0.27200001478195	0.66766649484634	-0.73214298486710	73.000000000000	0.0000000000000
0.27599999308586	0.65768027305603	-0.74051976203918	73.000000000000	0.0000000000000
0.28000000119209	0.64753800630569	-0.74877673387527	73.000000000000	0.0000000000000
0.28400000929832	0.63723939657211	-0.75691026449203	73.000000000000	0.0000000000000
0.28799998760223	0.62678325176239	-0.76491647958755	73.000000000000	0.0000000000000
0.29199999570847	0.61616951227188	-0.77279120683670	73.000000000000	0.0000000000000
0.29600000381470	0.60539811849594	-0.78053039312363	73.000000000000	0.0000000000000
0.30000001192093	0.59446853399277	-0.78812938928604	73.000000000000	0.0000000000000
0.30399999022484	0.58338141441345	-0.79558384418488	73.000000000000	0.0000000000000
0.30799999833107	0.57213675975800	-0.80288904905319	73.000000000000	0.0000000000000
0.31200000643730	0.56073486804962	-0.81004011631012	73.000000000000	0.0000000000000
0.31600001454353	0.54917711019516	-0.81703227758408	73.000000000000	0.0000000000000
0.31999999284744	0.53746408224106	-0.82386070489883	73.000000000000	0.0000000000000
0.32400000095367	0.52559745311737	-0.83052033185959	73.000000000000	0.0000000000000
0.32800000905991	0.51357805728912	-0.83700662851334	73.000000000000	0.0000000000000
0.33199998736382	0.50140798091888	-0.84331440925598	73.000000000000	0.0000000000000
0.33599999547005	0.48908880352974	-0.84943908452988	73.000000000000	0.0000000000000
0.34000000357628	0.47662252187729	-0.85537576675415	73.000000000000	0.0000000000000
0.34400001168251	0.46401116251945	-0.86111992597580	73.000000000000	0.0000000000000
0.34799998998642	0.45125690102577	-0.86666661500931	73.000000000000	0.0000000000000
0.35199999809265	0.43836218118668	-0.87201154232025	73.000000000000	0.0000000000000
0.35600000619888	0.42532899975777	-0.87714993953705	73.000000000000	0.0000000000000
0.36000001430511	0.41215997934341	-0.88207709789276	73.000000000000	0.0000000000000
0.36399999260902	0.39885735511780	-0.88678884506226	73.000000000000	0.0000000000000
0.36800000071526	0.38542380928993	-0.89128005504608	73.000000000000	0.0000000000000
0.37200000882149	0.37186220288277	-0.89554649591446	73.000000000000	0.0000000000000
0.37599998712540	0.35817420482635	-0.89958322048187	73.000000000000	0.0000000000000
0.37999999523163	0.34436342120171	-0.90338522195816	73.000000000000	0.0000000000000
0.38400000333786	0.33043229579926	-0.90694797039032	73.000000000000	0.0000000000000
0.38800001144409	0.31638377904892	-0.91026586294174	73.000000000000	0.0000000000000
0.39199998974800	0.30222105979919	-0.91333401203156	73.000000000000	0.0000000000000
0.39599999785423	0.28794708848000	-0.91614687442780	73.000000000000	0.0000000000000
0.40000000596046	0.27356544137001	-0.91869896650314	73.000000000000	0.0000000000000
0.40400001406670	0.25907978415489	-0.92098468542099	73.000000000000	0.0000000000000
0.40799999237061	0.24449463188648	-0.92299801111221	73.000000000000	0.0000000000000
0.41200000047684	0.22981379926205	-0.92473322153091	73.000000000000	0.0000000000000
0.41600000858307	0.21504241228104	-0.92618429660797	73.000000000000	0.0000000000000
0.41999998688698	0.20018529891968	-0.92734521627426	73.000000000000	0.0000000000000
0.42399999499321	0.18524792790413	-0.92821002006531	73.000000000000	0.0000000000000
0.42800000309944	0.17023685574532	-0.92877268791199	73.000000000000	0.0000000000000
0.43200001120567	0.15515772998333	-0.92902731895447	73.000000000000	0.0000000000000
0.43599998950958	0.14001767337322	-0.92896819114685	73.000000000000	0.0000000000000
0.43999999761581	0.12482411414385	-0.92858976125717	73.000000000000	0.0000000000000
0.44400000572205	0.10958459228277	-0.92788672447205	73.000000000000	0.0000000000000
0.44800001382828	0.094306915998459	-0.92685395479202	73.000000000000	0.0000000000000
0.45199999213219	0.078999683260918	-0.92548668384552	73.000000000000	0.0000000000000
0.45600000023842	0.063671730458736	-0.92378044128418	73.000000000000	0.0000000000000
0.46000000834465	0.048332199454308	-0.92173123359680	73.000000000000	0.0000000000000
0.46399998664856	0.032990481704473	-0.91933536529541	73.000000000000	0.0000000000000
0.46799999475479	0.017655774950981	-0.91658967733383	73.000000000000	0.0000000000000
0.47200000286102	0.0023381537757814	-0.91349118947983	73.000000000000	0.0000000000000
0.47600001096725	-0.012952753342688	-0.91003745794296	73.000000000000	0.0000000000000
0.47999998927116	-0.028206689283252	-0.90622651576996	73.000000000000	0.0000000000000
0.48399999737740	-0.043413873761892	-0.90205675363541	73.000000000000	0.0000000000000
0.48800000548363	-0.058563932776451	-0.89752674102783	73.000000000000	0.0000000000000
0.49200001358986	-0.073646977543831	-0.89263564348221	73.000000000000	0.0000000000000
0.49599999189377	-0.088652566075325	-0.88738304376602	73.000000000000	0.0000000000000
0.50000000000000	-0.10357094556093	-0.88176840543747	73.000000000000	0.0000000000000
0.50400000810623	-0.11839202791452	-0.87579196691513	73.000000000000	0.0000000000000
0.50800001621246	-0.13310518860817	-0.86945402622223	73.000000000000	0.0000000000000
0.51200002431870	-0.14770090579987	-0.86275500059128	73.000000000000	0.0000000000000
0.51599997282028	-0.16216892004013	-0.85569578409195	73.000000000000	0.0000000000000
0.51999998092651	-0.17649923264980	-0.84827744960785	73.000000000000	0.0000000000000
0.52399998903275	-0.19068250060081	-0.84050083160400	73.000000000000	0.0000000000000
0.52799999713898	-0.20470686256886	-0.83236801624298	73.000000000000	0.0000000000000
0.53200000524521	-0.21856425702572	-0.82388001680374	73.000000000000	0.0000000000000
0.53600001335144	-0.23224292695522	-0.81503915786743	73.000000000000	0.0000000000000
0.54000002145767	-0.24573299288750	-0.80584746599197	73.000000000000	0.0000000000000
0.54400002956390	-0.25902429223061	-0.79630720615387	73.000000000000	0.0000000000000
0.54799997806549	-0.27210661768913	-0.78642094135284	73.000000000000	0.0000000000000
0.55199998617172	-0.28496924042702	-0.77619183063507	73.000000000000	0.0000000000000
0.55599999427795	-0.29760089516640	-0.76562333106995	73.000000000000	0.0000000000000
0.56000000238419	-0.30999204516411	-0.75471866130829	73.000000000000	0.0000000000000
0.56400001049042	-0.32213130593300	-0.74348211288452	73.000000000000	0.0000000000000
0.56800001859665	-0.33400776982307	-0.73191815614700	73.000000000000	0.0000000000000
0.57200002670288	-0.34561133384705	-0.72003132104874	73.000000000000	0.0000000000000
0.57599997520447	-0.35693109035492	-0.70782703161240	73.000000000000	0.0000000000000
0.57999998331070	-0.36795604228973	-0.69531112909317	73.000000000000	0.0000000000000
0.58399999141693	-0.37867593765259	-0.68248945474625	73.000000000000	0.0000000000000
0.58799999952316	-0.38908070325851	-0.66936850547791	73.000000000000	0.0000000000000
0.59200000762939	-0.39915949106216	-0.65595537424088	73.000000000000	0.0000000000000
0.59600001573563	-0.40890291333199	-0.64225715398788	73.000000000000	0.0000000000000
0.60000002384186	-0.41830039024353	-0.62828177213669	73.000000000000	0.0000000000000
0.60399997234344	-0.42734292149544	-0.61403709650040	73.000000000000	0.0000000000000
0.60799998044968	-0.43602120876312	-0.59953135251999	73.000000000000	0.0000000000000
0.61199998855591	-0.44432616233826	-0.58477300405502	73.000000000000	0.0000000000000
0.61599999666214	-0.45224869251251	-0.56977099180222	73.000000000000	0.0000000000000
0.62000000476837	-0.45978036522865	-0.55453449487686	73.000000000000	0.0000000000000
0.62400001287460	-0.46691295504570	-0.53907227516174	73.000000000000	0.0000000000000
0.62800002098083	-0.47363817691803	-0.52339404821396	73.000000000000	0.0000000000000
0.63200002908707	-0.47994807362556	-0.50750905275345	73.000000000000	0.0000000000000
0.63599997758865	-0.48583504557610	-0.49142694473267	73.000000000000	0.0000000000000
0.63999998569489	-0.49129086732864	-0.47515749931335	73.000000000000	0.0000000000000
0.64399999380112	-0.49630808830261	-0.45871073007584	73.000000000000	0.0000000000000
0.64800000190735	-0.50087946653366	-0.44209629297256	73.000000000000	0.0000000000000
0.65200001001358	-0.50499647855759	-0.42532485723495	73.000000000000	0.0000000000000
0.65600001811981	-0.50865215063095	-0.40840664505959	73.000000000000	0.0000000000000
0.66000002622604	-0.51183807849884	-0.39135265350342	73.000000000000	0.0000000000000
0.66399997472763	-0.51454693078995	-0.37417373061180	73.000000000000	0.0000000000000
0.66799998283386	-0.51677054166794	-0.35688164830208	73.000000000000	0.0000000000000
0.67199999094009	-0.51850092411041	-0.33948814868927	73.000000000000	0.0000000000000
0.67599999904633	-0.51972973346710	-0.32200616598129	73.000000000000	0.0000000000000
0.68000000715256	-0.52044945955276	-0.30444851517677	73.000000000000	0.0000000000000
0.68400001525879	-0.52065134048462	-0.28682956099510	73.000000000000	0.0000000000000
0.68800002336502	-0.52032798528671	-0.26916354894638	73.000000000000	0.0000000000000
0.69199997186661	-0.51947146654129	-0.25146594643593	73.000000000000	0.0000000000000
0.69599997997284	-0.51807403564453	-0.23375333845615	73.000000000000	0.0000000000000
0.69999998807907	-0.51612877845764	-0.21604293584824	73.000000000000	0.0000000000000
0.70399999618530	-0.51362895965576	-0.19835279881954	73.000000000000	0.0000000000000
0.70800000429153	-0.51056861877441	-0.18070201575756	73.000000000000	0.0000000000000
0.71200001239777	-0.50694221258163	-0.16311095654964	73.000000000000	0.0000000000000
0.71600002050400	-0.50274533033371	-0.14560006558895	73.000000000000	0.0000000000000
0.72000002861023	-0.49797421693802	-0.12819167971611	73.000000000000	0.0000000000000
0.72399997711182	-0.49262654781342	-0.11090814322233	73.000000000000	0.0000000000000
0.72799998521805	-0.48670098185539	-0.093772850930691	73.000000000000	0.0000000000000
0.73199999332428	-0.48019742965698	-0.076809860765934	73.000000000000	0.0000000000000
0.73600000143051	-0.47311720252037	-0.060043733566999	73.000000000000	0.0000000000000
0.74000000953674	-0.46546325087547	-0.043499302119017	73.000000000000	0.0000000000000
0.74400001764297	-0.45723983645439	-0.027202067896724	73.000000000000	0.0000000000000
0.74800002574921	-0.44845291972160	-0.011177152395248	73.000000000000	0.0000000000000
0.75199997425079	-0.43911001086235	0.0045498288236558	73.000000000000	0.0000000000000
0.75599998235703	-0.42922031879425	0.019953504204750	73.000000000000	0.0000000000000
0.75999999046326	-0.41879466176033	0.035008952021599	73.000000000000	0.0000000000000
0.76399999856949	-0.40784540772438	0.049691502004862	73.000000000000	0.0000000000000
0.76800000667572	-0.39638668298721	0.063976906239986	73.000000000000	0.0000000000000
0.77200001478195	-0.38443392515182	0.077842056751251	73.000000000000	0.0000000000000
0.77600002288818	-0.37200427055359	0.091264002025127	73.000000000000	0.0000000000000
0.77999997138977	-0.35911616683006	0.10422140359879	73.000000000000	0.0000000000000
0.78399997949600	-0.34578946232796	0.11669328808784	73.000000000000	0.0000000000000
0.78799998760223	-0.33204510807991	0.12866039574146	73.000000000000	0.0000000000000
0.79199999570847	-0.31790545582771	0.14010414481163	73.000000000000	0.0000000000000
0.79600000381470	-0.30339366197586	0.15100762248039	73.000000000000	0.0000000000000
0.80000001192093	-0.28853401541710	0.16135525703430	73.000000000000	0.0000000000000
0.80400002002716	-0.27335172891617	0.17113253474236	73.000000000000	0.0000000000000
0.80800002813339	-0.25787246227264	0.18032678961754	73.000000000000	0.0000000000000
0.81199997663498	-0.24212284386158	0.18892662227154	73.000000000000	0.0000000000000
0.81599998474121	-0.22612991929054	0.19692218303680	73.000000000000	0.0000000000000
0.81999999284744	-0.20992124080658	0.20430502295494	73.000000000000	0.0000000000000
0.82400000095367	-0.19352462887764	0.21106860041618	73.000000000000	0.0000000000000
0.82800000905991	-0.17696817219257	0.21720758080482	73.000000000000	0.0000000000000
0.83200001716614	-0.16028027236462	0.22271841764450	73.000000000000	0.0000000000000
0.83600002527237	-0.14348931610584	0.22759890556335	73.000000000000	0.0000000000000
0.83999997377396	-0.12662357091904	0.23184864223003	73.000000000000	0.0000000000000
0.84399998188019	-0.10971137136221	0.23546862602234	73.000000000000	0.0000000000000
0.84799998998642	-0.092780746519566	0.23846149444580	73.000000000000	0.0000000000000
0.85199999809265	-0.075859315693378	0.24083143472672	73.000000000000	0.0000000000000
0.85600000619888	-0.058974552899599	0.24258409440517	73.000000000000	0.0000000000000
0.86000001430511	-0.042153123766184	0.24372662603855	73.000000000000	0.0000000000000
0.86400002241135	-0.025421520695090	0.24426771700382	73.000000000000	0.0000000000000
0.86799997091293	-0.0088050961494446	0.24421741068363	73.000000000000	0.0000000000000
0.87199997901917	0.0076713552698493	0.24358722567558	73.000000000000	0.0000000000000
0.87599998712540	0.023983897641301	0.24238997697830	73.000000000000	0.0000000000000
0.87999999523163	0.040109675377607	0.24063968658447	73.000000000000	0.0000000000000
0.88400000333786	0.056026913225651	0.23835162818432	73.000000000000	0.0000000000000
0.88800001144409	0.071714989840984	0.23554222285748	73.000000000000	0.0000000000000
0.89200001955032	0.087154559791088	0.23222884535789	73.000000000000	0.0000000000000
0.89600002765656	0.10232752561569	0.22842980921268	73.000000000000	0.0000000000000
0.89999997615814	0.11721722036600	0.22416418790817	73.000000000000	0.0000000000000
0.90399998426437	0.13180854916573	0.21945182979107	73.000000000000	0.0000000000000
0.90799999237061	0.14608770608902	0.21431300044060	73.000000000000	0.0000000000000
0.91200000047684	0.16004252433777	0.20876842737198	73.000000000000	0.0000000000000
0.91600000858307	0.17366230487823	0.20283913612366	73.000000000000	0.0000000000000
0.92000001668930	0.18693785369396	0.19654628634453	73.000000000000	0.0000000000000
0.92400002479553	0.19986160099506	0.18991099298000	73.000000000000	0.0000000000000
0.92799997329712	0.21242728829384	0.18295426666737	73.000000000000	0.0000000000000
