#Parameters = {D=8; L=80; d_a=10; e_m=9; e_s=30; gap=1.5; m_x=30; m_y=40; m_z=100; mu_m=1; mu_s=1; s_d=2}
#"Frequency / GHz"	"S1,1 [Re]"	"S1,1 [Im]"	"Ref.Imp. [Re]"	"Ref.Imp. [Im]"
#-------------------------------------------------------------------------
0.0000000000000	1.0000000000000	-0.0000000000000	73.000000000000	0.0000000000000
0.0040000001899898	0.99992501735687	-0.011498214676976	73.000000000000	0.0000000000000
0.0080000003799796	0.99970048666000	-0.022993449121714	73.000000000000	0.0000000000000
0.012000000104308	0.99932640790939	-0.034482728689909	73.000000000000	0.0000000000000
0.016000000759959	0.99880319833755	-0.045963108539581	73.000000000000	0.0000000000000
0.019999999552965	0.99813139438629	-0.057431664317846	73.000000000000	0.0000000000000
0.024000000208616	0.99731153249741	-0.068885549902916	73.000000000000	0.0000000000000
0.028000000864267	0.99634462594986	-0.080321922898293	73.000000000000	0.0000000000000
0.032000001519918	0.99523127079010	-0.091738052666187	73.000000000000	0.0000000000000
0.035999998450279	0.99397283792496	-0.10313127189875	73.000000000000	0.0000000000000
0.039999999105930	0.99257016181946	-0.11449898034334	73.000000000000	0.0000000000000
0.043999999761581	0.99102455377579	-0.12583868205547	73.000000000000	0.0000000000000
0.048000000417233	0.98933738470078	-0.13714799284935	73.000000000000	0.0000000000000
0.052000001072884	0.98751032352448	-0.14842462539673	73.000000000000	0.0000000000000
0.056000001728535	0.98554462194443	-0.15966641902924	73.000000000000	0.0000000000000
0.059999998658895	0.98344212770462	-0.17087133228779	73.000000000000	0.0000000000000
0.064000003039837	0.98120415210724	-0.18203745782375	73.000000000000	0.0000000000000
0.068000003695488	0.97883290052414	-0.19316300749779	73.000000000000	0.0000000000000
0.071999996900558	0.97632962465286	-0.20424631237984	73.000000000000	0.0000000000000
0.075999997556210	0.97369658946991	-0.21528594195843	73.000000000000	0.0000000000000
0.079999998211861	0.97093540430069	-0.22628043591976	73.000000000000	0.0000000000000
0.083999998867512	0.96804773807526	-0.23722861707211	73.000000000000	0.0000000000000
0.087999999523163	0.96503573656082	-0.24812945723534	73.000000000000	0.0000000000000
0.092000000178814	0.96190100908279	-0.25898194313049	73.000000000000	0.0000000000000
0.096000000834465	0.95864528417587	-0.26978528499603	73.000000000000	0.0000000000000
0.10000000149012	0.95527046918869	-0.28053891658783	73.000000000000	0.0000000000000
0.10400000214577	0.95177811384201	-0.29124215245247	73.000000000000	0.0000000000000
0.10800000280142	0.94816994667053	-0.30189469456673	73.000000000000	0.0000000000000
0.11200000345707	0.94444733858109	-0.31249630451202	73.000000000000	0.0000000000000
0.11599999666214	0.94061195850372	-0.32304674386978	73.000000000000	0.0000000000000
0.11999999731779	0.93666505813599	-0.33354601264000	73.000000000000	0.0000000000000
0.12399999797344	0.93260806798935	-0.34399414062500	73.000000000000	0.0000000000000
0.12800000607967	0.92844194173813	-0.35439127683640	73.000000000000	0.0000000000000
0.13199999928474	0.92416787147522	-0.36473765969276	73.000000000000	0.0000000000000
0.13600000739098	0.91978669166565	-0.37503355741501	73.000000000000	0.0000000000000
0.14000000059605	0.91529923677444	-0.38527944684029	73.000000000000	0.0000000000000
0.14399999380112	0.91070610284805	-0.39547562599182	73.000000000000	0.0000000000000
0.14800000190735	0.90600770711899	-0.40562260150909	73.000000000000	0.0000000000000
0.15199999511242	0.90120458602905	-0.41572085022926	73.000000000000	0.0000000000000
0.15600000321865	0.89629691839218	-0.42577093839645	73.000000000000	0.0000000000000
0.15999999642372	0.89128452539444	-0.43577325344086	73.000000000000	0.0000000000000
0.16400000452995	0.88616758584976	-0.44572836160660	73.000000000000	0.0000000000000
0.16799999773502	0.88094568252563	-0.45563679933548	73.000000000000	0.0000000000000
0.17200000584126	0.87561821937561	-0.46549883484840	73.000000000000	0.0000000000000
0.17599999904633	0.87018495798111	-0.47531506419182	73.000000000000	0.0000000000000
0.18000000715256	0.86464500427246	-0.48508563637733	73.000000000000	0.0000000000000
0.18400000035763	0.85899740457535	-0.49481087923050	73.000000000000	0.0000000000000
0.18799999356270	0.85324132442474	-0.50449091196060	73.000000000000	0.0000000000000
0.19200000166893	0.84737557172775	-0.51412588357925	73.000000000000	0.0000000000000
0.19599999487400	0.84139871597290	-0.52371561527252	73.000000000000	0.0000000000000
0.20000000298023	0.83530944585800	-0.53326004743576	73.000000000000	0.0000000000000
0.20399999618530	0.82910639047623	-0.54275876283646	73.000000000000	0.0000000000000
0.20800000429153	0.82278758287430	-0.55221140384674	73.000000000000	0.0000000000000
0.21199999749660	0.81635171175003	-0.56161719560623	73.000000000000	0.0000000000000
0.21600000560284	0.80979669094086	-0.57097566127777	73.000000000000	0.0000000000000
0.21999999880791	0.80312067270279	-0.58028566837311	73.000000000000	0.0000000000000
0.22400000691414	0.79632192850113	-0.58954596519470	73.000000000000	0.0000000000000
0.22800000011921	0.78939825296402	-0.59875541925430	73.000000000000	0.0000000000000
0.23199999332428	0.78234767913818	-0.60791248083115	73.000000000000	0.0000000000000
0.23600000143051	0.77516824007034	-0.61701542139053	73.000000000000	0.0000000000000
0.23999999463558	0.76785784959793	-0.62606233358383	73.000000000000	0.0000000000000
0.24400000274181	0.76041442155838	-0.63505113124847	73.000000000000	0.0000000000000
0.24799999594688	0.75283592939377	-0.64397954940796	73.000000000000	0.0000000000000
0.25200000405312	0.74512070417404	-0.65284502506256	73.000000000000	0.0000000000000
0.25600001215935	0.73726630210876	-0.66164463758469	73.000000000000	0.0000000000000
0.25999999046326	0.72927123308182	-0.67037576436996	73.000000000000	0.0000000000000
0.26399999856949	0.72113370895386	-0.67903512716293	73.000000000000	0.0000000000000
0.26800000667572	0.71285188198090	-0.68761938810349	73.000000000000	0.0000000000000
0.27200001478195	0.70442414283752	-0.69612509012222	73.000000000000	0.0000000000000
0.27599999308586	0.69584935903549	-0.70454835891724	73.000000000000	0.0000000000000
0.28000000119209	0.68712568283081	-0.71288561820984	73.000000000000	0.0000000000000
0.28400000929832	0.67825245857239	-0.72113239765167	73.000000000000	0.0000000000000
0.28799998760223	0.66922855377197	-0.72928464412689	73.000000000000	0.0000000000000
0.29199999570847	0.66005319356918	-0.73733800649643	73.000000000000	0.0000000000000
0.29600000381470	0.65072530508041	-0.74528789520264	73.000000000000	0.0000000000000
0.30000001192093	0.64124518632889	-0.75312960147858	73.000000000000	0.0000000000000
0.30399999022484	0.63161182403564	-0.76085841655731	73.000000000000	0.0000000000000
0.30799999833107	0.62182581424713	-0.76846933364868	73.000000000000	0.0000000000000
0.31200000643730	0.61188703775406	-0.77595734596252	73.000000000000	0.0000000000000
0.31600001454353	0.60179644823074	-0.78331732749939	73.000000000000	0.0000000000000
0.31999999284744	0.59155386686325	-0.79054421186447	73.000000000000	0.0000000000000
0.32400000095367	0.58116096258163	-0.79763263463974	73.000000000000	0.0000000000000
0.32800000905991	0.57061851024628	-0.80457741022110	73.000000000000	0.0000000000000
0.33199998736382	0.55992823839188	-0.81137329339981	73.000000000000	0.0000000000000
0.33599999547005	0.54909169673920	-0.81801486015320	73.000000000000	0.0000000000000
0.34000000357628	0.53811091184616	-0.82449692487717	73.000000000000	0.0000000000000
0.34400001168251	0.52698773145676	-0.83081394433975	73.000000000000	0.0000000000000
0.34799998998642	0.51572507619858	-0.83696103096008	73.000000000000	0.0000000000000
0.35199999809265	0.50432562828064	-0.84293282032013	73.000000000000	0.0000000000000
0.35600000619888	0.49279224872589	-0.84872412681580	73.000000000000	0.0000000000000
0.36000001430511	0.48112806677818	-0.85433006286621	73.000000000000	0.0000000000000
0.36399999260902	0.46933639049530	-0.85974538326263	73.000000000000	0.0000000000000
0.36800000071526	0.45742148160934	-0.86496555805206	73.000000000000	0.0000000000000
0.37200000882149	0.44538682699203	-0.86998564004898	73.000000000000	0.0000000000000
0.37599998712540	0.43323659896851	-0.87480121850967	73.000000000000	0.0000000000000
0.37999999523163	0.42097550630569	-0.87940776348114	73.000000000000	0.0000000000000
0.38400000333786	0.40860748291016	-0.88380104303360	73.000000000000	0.0000000000000
0.38800001144409	0.39613807201385	-0.88797688484192	73.000000000000	0.0000000000000
0.39199998974800	0.38357135653496	-0.89193141460419	73.000000000000	0.0000000000000
0.39599999785423	0.37091317772865	-0.89566093683243	73.000000000000	0.0000000000000
0.40000000596046	0.35816857218742	-0.89916175603867	73.000000000000	0.0000000000000
0.40400001406670	0.34534275531769	-0.90243077278137	73.000000000000	0.0000000000000
0.40799999237061	0.33244180679321	-0.90546482801437	73.000000000000	0.0000000000000
0.41200000047684	0.31947079300880	-0.90826106071472	73.000000000000	0.0000000000000
0.41600000858307	0.30643582344055	-0.91081678867340	73.000000000000	0.0000000000000
0.41999998688698	0.29334285855293	-0.91312944889069	73.000000000000	0.0000000000000
0.42399999499321	0.28019744157791	-0.91519695520401	73.000000000000	0.0000000000000
0.42800000309944	0.26700606942177	-0.91701745986938	73.000000000000	0.0000000000000
0.43200001120567	0.25377449393272	-0.91858899593353	73.000000000000	0.0000000000000
0.43599998950958	0.24050891399384	-0.91991037130356	73.000000000000	0.0000000000000
0.43999999761581	0.22721529006958	-0.92098015546799	73.000000000000	0.0000000000000
0.44400000572205	0.21389991044998	-0.92179727554321	73.000000000000	0.0000000000000
0.44800001382828	0.20056881010532	-0.92236107587814	73.000000000000	0.0000000000000
0.45199999213219	0.18722838163376	-0.92267096042633	73.000000000000	0.0000000000000
0.45600000023842	0.17388422787189	-0.92272645235062	73.000000000000	0.0000000000000
0.46000000834465	0.16054265201092	-0.92252737283707	73.000000000000	0.0000000000000
0.46399998664856	0.14720949530602	-0.92207401990891	73.000000000000	0.0000000000000
0.46799999475479	0.13389082252979	-0.92136639356613	73.000000000000	0.0000000000000
0.47200000286102	0.12059225887060	-0.92040514945984	73.000000000000	0.0000000000000
0.47600001096725	0.10731964558363	-0.91919076442719	73.000000000000	0.0000000000000
0.47999998927116	0.094078801572323	-0.91772407293320	73.000000000000	0.0000000000000
0.48399999737740	0.080874897539616	-0.91600608825684	73.000000000000	0.0000000000000
0.48800000548363	0.067713476717472	-0.91403776407242	73.000000000000	0.0000000000000
0.49200001358986	0.054600298404694	-0.91182035207748	73.000000000000	0.0000000000000
0.49599999189377	0.041540209203959	-0.90935540199280	73.000000000000	0.0000000000000
0.50000000000000	0.028538025915623	-0.90664410591125	73.000000000000	0.0000000000000
0.50400000810623	0.015599410980940	-0.90368807315826	73.000000000000	0.0000000000000
0.50800001621246	0.0027284675743431	-0.90048927068710	73.000000000000	0.0000000000000
0.51200002431870	-0.010069436393678	-0.89704912900925	73.000000000000	0.0000000000000
0.51599997282028	-0.022790044546127	-0.89336955547333	73.000000000000	0.0000000000000
0.51999998092651	-0.035428903996944	-0.88945239782333	73.000000000000	0.0000000000000
0.52399998903275	-0.047981608659029	-0.88529962301254	73.000000000000	0.0000000000000
0.52799999713898	-0.060443971306086	-0.88091301918030	73.000000000000	0.0000000000000
0.53200000524521	-0.072811618447304	-0.87629467248917	73.000000000000	0.0000000000000
0.53600001335144	-0.085080385208130	-0.87144654989243	73.000000000000	0.0000000000000
0.54000002145767	-0.097247436642647	-0.86637061834335	73.000000000000	0.0000000000000
0.54400002956390	-0.10930797457695	-0.86106872558594	73.000000000000	0.0000000000000
0.54799997806549	-0.12125810980797	-0.85554295778275	73.000000000000	0.0000000000000
0.55199998617172	-0.13309553265572	-0.84979510307312	73.000000000000	0.0000000000000
0.55599999427795	-0.14481505751610	-0.84382718801498	73.000000000000	0.0000000000000
0.56000000238419	-0.15641392767429	-0.83764094114304	73.000000000000	0.0000000000000
0.56400001049042	-0.16788856685162	-0.83123826980591	73.000000000000	0.0000000000000
0.56800001859665	-0.17923492193222	-0.82462108135223	73.000000000000	0.0000000000000
0.57200002670288	-0.19045048952103	-0.81779086589813	73.000000000000	0.0000000000000
0.57599997520447	-0.20153154432774	-0.81074947118759	73.000000000000	0.0000000000000
0.57999998331070	-0.21247462928295	-0.80349850654602	73.000000000000	0.0000000000000
0.58399999141693	-0.22327622771263	-0.79603934288025	73.000000000000	0.0000000000000
0.58799999952316	-0.23393315076828	-0.78837376832962	73.000000000000	0.0000000000000
0.59200000762939	-0.24444174766541	-0.78050327301025	73.000000000000	0.0000000000000
0.59600001573563	-0.25479853153229	-0.77242916822433	73.000000000000	0.0000000000000
0.60000002384186	-0.26500001549721	-0.76415294408798	73.000000000000	0.0000000000000
0.60399997234344	-0.27504220604897	-0.75567609071732	73.000000000000	0.0000000000000
0.60799998044968	-0.28492161631584	-0.74699991941452	73.000000000000	0.0000000000000
0.61199998855591	-0.29463472962379	-0.73812568187714	73.000000000000	0.0000000000000
0.61599999666214	-0.30417710542679	-0.72905480861664	73.000000000000	0.0000000000000
0.62000000476837	-0.31354489922523	-0.71978873014450	73.000000000000	0.0000000000000
0.62400001287460	-0.32273408770561	-0.71032881736755	73.000000000000	0.0000000000000
0.62800002098083	-0.33174046874046	-0.70067632198334	73.000000000000	0.0000000000000
0.63200002908707	-0.34055966138840	-0.69083267450333	73.000000000000	0.0000000000000
0.63599997758865	-0.34918683767319	-0.68079966306686	73.000000000000	0.0000000000000
0.63999998569489	-0.35761791467667	-0.67057842016220	73.000000000000	0.0000000000000
0.64399999380112	-0.36584734916687	-0.66017109155655	73.000000000000	0.0000000000000
0.64800000190735	-0.37387046217918	-0.64957940578461	73.000000000000	0.0000000000000
0.65200001001358	-0.38168257474899	-0.63880467414856	73.000000000000	0.0000000000000
0.65600001811981	-0.38927799463272	-0.62784945964813	73.000000000000	0.0000000000000
0.66000002622604	-0.39665138721466	-0.61671566963196	73.000000000000	0.0000000000000
0.66399997472763	-0.40379729866982	-0.60540574789047	73.000000000000	0.0000000000000
0.66799998283386	-0.41071015596390	-0.59392213821411	73.000000000000	0.0000000000000
0.67199999094009	-0.41738381981850	-0.58226782083511	73.000000000000	0.0000000000000
0.67599999904633	-0.42381283640862	-0.57044512033463	73.000000000000	0.0000000000000
0.68000000715256	-0.42999091744423	-0.55845767259598	73.000000000000	0.0000000000000
0.68400001525879	-0.43591189384460	-0.54630869626999	73.000000000000	0.0000000000000
0.68800002336502	-0.44156956672668	-0.53400212526321	73.000000000000	0.0000000000000
0.69199997186661	-0.44695779681206	-0.52154147624969	73.000000000000	0.0000000000000
0.69599997997284	-0.45206996798515	-0.50893139839172	73.000000000000	0.0000000000000
0.69999998807907	-0.45689958333969	-0.49617615342140	73.000000000000	0.0000000000000
0.70399999618530	-0.46144026517868	-0.48328086733818	73.000000000000	0.0000000000000
0.70800000429153	-0.46568566560745	-0.47025069594383	73.000000000000	0.0000000000000
0.71200001239777	-0.46962895989418	-0.45709109306335	73.000000000000	0.0000000000000
0.71600002050400	-0.47326385974884	-0.44380801916122	73.000000000000	0.0000000000000
0.72000002861023	-0.47658380866051	-0.43040788173676	73.000000000000	0.0000000000000
0.72399997711182	-0.47958245873451	-0.41689720749855	73.000000000000	0.0000000000000
0.72799998521805	-0.48225358128548	-0.40328311920166	73.000000000000	0.0000000000000
0.73199999332428	-0.48459115624428	-0.38957273960114	73.000000000000	0.0000000000000
0.73600000143051	-0.48658853769302	-0.37577435374260	73.000000000000	0.0000000000000
0.74000000953674	-0.48824033141136	-0.36189576983452	73.000000000000	0.0000000000000
0.74400001764297	-0.48954066634178	-0.34794586896896	73.000000000000	0.0000000000000
0.74800002574921	-0.49048385024071	-0.33393341302872	73.000000000000	0.0000000000000
0.75199997425079	-0.49106466770172	-0.31986787915230	73.000000000000	0.0000000000000
0.75599998235703	-0.49127808213234	-0.30575898289680	73.000000000000	0.0000000000000
0.75999999046326	-0.49111947417259	-0.29161658883095	73.000000000000	0.0000000000000
0.76399999856949	-0.49058413505554	-0.27745157480240	73.000000000000	0.0000000000000
0.76800000667572	-0.48966807126999	-0.26327452063560	73.000000000000	0.0000000000000
0.77200001478195	-0.48836758732796	-0.24909669160843	73.000000000000	0.0000000000000
0.77600002288818	-0.48667898774147	-0.23492972552776	73.000000000000	0.0000000000000
0.77999997138977	-0.48459967970848	-0.22078509628773	73.000000000000	0.0000000000000
0.78399997949600	-0.48212689161301	-0.20667509734631	73.000000000000	0.0000000000000
0.78799998760223	-0.47925868630409	-0.19261212646961	73.000000000000	0.0000000000000
0.79199999570847	-0.47599312663078	-0.17860904335976	73.000000000000	0.0000000000000
0.79600000381470	-0.47232943773270	-0.16467858850956	73.000000000000	0.0000000000000
0.80000001192093	-0.46826684474945	-0.15083369612694	73.000000000000	0.0000000000000
0.80400002002716	-0.46380525827408	-0.13708792626858	73.000000000000	0.0000000000000
0.80800002813339	-0.45894521474838	-0.12345474213362	73.000000000000	0.0000000000000
0.81199997663498	-0.45368763804436	-0.10994756966829	73.000000000000	0.0000000000000
0.81599998474121	-0.44803428649902	-0.096580281853676	73.000000000000	0.0000000000000
0.81999999284744	-0.44198721647263	-0.083366602659225	73.000000000000	0.0000000000000
0.82400000095367	-0.43554934859276	-0.070320554077625	73.000000000000	0.0000000000000
0.82800000905991	-0.42872405052185	-0.057455774396658	73.000000000000	0.0000000000000
0.83200001716614	-0.42151543498039	-0.044786144047976	73.000000000000	0.0000000000000
0.83600002527237	-0.41392812132835	-0.032325681298971	73.000000000000	0.0000000000000
0.83999997377396	-0.40596732497215	-0.020088071003556	73.000000000000	0.0000000000000
0.84399998188019	-0.39763909578323	-0.0080867456272244	73.000000000000	0.0000000000000
0.84799998998642	-0.38894990086555	0.0036647852975875	73.000000000000	0.0000000000000
0.85199999809265	-0.37990701198578	0.015153085812926	73.000000000000	0.0000000000000
0.85600000619888	-0.37051808834076	0.026365110650659	73.000000000000	0.0000000000000
0.86000001430511	-0.36079168319702	0.037288069725037	73.000000000000	0.0000000000000
0.86400002241135	-0.35073676705360	0.047909356653690	73.000000000000	0.0000000000000
0.86799997091293	-0.34036287665367	0.058216858655214	73.000000000000	0.0000000000000
0.87199997901917	-0.32968023419380	0.068198658525944	73.000000000000	0.0000000000000
0.87599998712540	-0.31869977712631	0.077843122184277	73.000000000000	0.0000000000000
0.87999999523163	-0.30743256211281	0.087139375507832	73.000000000000	0.0000000000000
0.88400000333786	-0.29589062929153	0.096076600253582	73.000000000000	0.0000000000000
0.88800001144409	-0.28408619761467	0.10464476794004	73.000000000000	0.0000000000000
0.89200001955032	-0.27203223109245	0.11283405125141	73.000000000000	0.0000000000000
0.89600002765656	-0.25974199175835	0.12063549458981	73.000000000000	0.0000000000000
0.89999997615814	-0.24722927808762	0.12804034352303	73.000000000000	0.0000000000000
0.90399998426437	-0.23450812697411	0.13504074513912	73.000000000000	0.0000000000000
0.90799999237061	-0.22159321606159	0.14162921905518	73.000000000000	0.0000000000000
0.91200000047684	-0.20849928259850	0.14779908955097	73.000000000000	0.0000000000000
0.91600000858307	-0.19524174928665	0.15354408323765	73.000000000000	0.0000000000000
0.92000001668930	-0.18183599412441	0.15885888040066	73.000000000000	0.0000000000000
0.92400002479553	-0.16829770803452	0.16373868286610	73.000000000000	0.0000000000000
0.92799997329712	-0.15464298427105	0.16817936301231	73.000000000000	0.0000000000000
