# Version 1.00
#
freq[Hz];re:Trc1_S22;im:Trc1_S22;
1.000000000000000E+008;9.703628067879809E-001;-2.219680981507285E-001;
1.110000000000000E+008;9.628395560114228E-001;-2.482803195159451E-001;
1.220000000000000E+008;9.538086634654809E-001;-2.732232601747648E-001;
1.330000000000000E+008;9.412209071272827E-001;-2.998602695448405E-001;
1.440000000000000E+008;9.234887144012273E-001;-3.229715824089846E-001;
1.550000000000000E+008;9.080048766221784E-001;-3.352250227187454E-001;
1.660000000000000E+008;9.006386420632641E-001;-3.512038841370151E-001;
1.770000000000000E+008;8.911433314237349E-001;-3.699734227939820E-001;
1.880000000000000E+008;8.798424062935319E-001;-3.832105112761415E-001;
1.990000000000000E+008;8.746013730598036E-001;-3.950366540726844E-001;
2.100000000000000E+008;8.707793271800242E-001;-4.168952809083147E-001;
2.210000000000000E+008;8.598073206856937E-001;-4.402705636935709E-001;
2.320000000000000E+008;8.441765860810248E-001;-4.608878768107131E-001;
2.430000000000000E+008;8.305614788902277E-001;-4.768779519268552E-001;
2.540000000000000E+008;8.194728921632981E-001;-4.917529311649396E-001;
2.650000000000000E+008;8.101384158526060E-001;-5.042837535956845E-001;
2.760000000000000E+008;8.029674543608099E-001;-5.188471906096969E-001;
2.870000000000000E+008;7.964999094525230E-001;-5.346929212377097E-001;
2.980000000000000E+008;7.872778123604500E-001;-5.539924670099715E-001;
3.090000000000000E+008;7.742813490741070E-001;-5.754977788717144E-001;
3.200000000000000E+008;7.572458598218124E-001;-5.949839599817631E-001;
3.310000000000000E+008;7.384258662415638E-001;-6.122420060573210E-001;
3.420000000000000E+008;7.199103162715855E-001;-6.260794541734414E-001;
3.530000000000000E+008;7.035485449229146E-001;-6.381990801285065E-001;
3.640000000000000E+008;6.903144129131515E-001;-6.493244740642002E-001;
3.750000000000000E+008;6.793608835761952E-001;-6.603949864931037E-001;
3.860000000000000E+008;6.704646054915214E-001;-6.734434365648137E-001;
3.970000000000000E+008;6.608052750318531E-001;-6.878083024581871E-001;
4.080000000000000E+008;6.494013128831522E-001;-7.057882191848003E-001;
4.190000000000000E+008;6.329242117419837E-001;-7.263307931336653E-001;
4.300000000000000E+008;6.129651094199481E-001;-7.457352016357135E-001;
4.410000000000000E+008;5.921107654062238E-001;-7.651286790612800E-001;
4.520000000000000E+008;5.705325812782268E-001;-7.831120171455611E-001;
4.630000000000000E+008;5.485416363959077E-001;-7.993518519820968E-001;
4.740000000000000E+008;5.258648392975048E-001;-8.134214232783479E-001;
4.850000000000000E+008;5.032380232305400E-001;-8.264865485236994E-001;
4.960000000000000E+008;4.785981035286075E-001;-8.384059161871807E-001;
5.070000000000000E+008;4.531488690990561E-001;-8.486235085577518E-001;
5.180000000000000E+008;4.257290010681613E-001;-8.569513954775587E-001;
5.290000000000000E+008;3.997923419966492E-001;-8.632282151488145E-001;
5.400000000000000E+008;3.751149091403822E-001;-8.690173226164909E-001;
5.510000000000000E+008;3.520080752979956E-001;-8.750583969578752E-001;
5.620000000000000E+008;3.307141300517692E-001;-8.811182789200758E-001;
5.730000000000000E+008;3.111573963709078E-001;-8.898357850048895E-001;
5.840000000000000E+008;2.905849628059595E-001;-8.989047618188656E-001;
5.950000000000000E+008;2.684867502429789E-001;-9.067408786366875E-001;
6.060000000000000E+008;2.429542874697844E-001;-9.153803536862876E-001;
6.170000000000000E+008;2.113356513156145E-001;-9.222020100096330E-001;
6.280000000000000E+008;1.795875600163865E-001;-9.250163126537917E-001;
6.390000000000000E+008;1.474589039783790E-001;-9.295462480276699E-001;
6.500000000000000E+008;1.147940607935690E-001;-9.311164634236299E-001;
6.610000000000000E+008;8.491458704716390E-002;-9.324124798693981E-001;
6.720000000000000E+008;5.356631626033163E-002;-9.306722744031696E-001;
6.830000000000000E+008;2.244452315089634E-002;-9.273477253926280E-001;
6.940000000000000E+008;-9.684359054105887E-003;-9.218736764785385E-001;
7.050000000000000E+008;-4.402468068958250E-002;-9.146498133840110E-001;
7.160000000000000E+008;-8.114743436574183E-002;-9.045109603610425E-001;
7.270000000000000E+008;-1.160294812109501E-001;-8.912190435889484E-001;
7.380000000000000E+008;-1.538792492577168E-001;-8.772795376641623E-001;
7.490000000000000E+008;-1.909458674223486E-001;-8.613715515339147E-001;
7.600000000000000E+008;-2.275675134403113E-001;-8.431144294443815E-001;
7.710000000000000E+008;-2.590206963591866E-001;-8.215205305809489E-001;
7.820000000000000E+008;-2.901878422917095E-001;-7.992790092974537E-001;
7.930000000000000E+008;-3.198192606810220E-001;-7.708895834176788E-001;
8.040000000000000E+008;-3.509943083057142E-001;-7.372388320473513E-001;
8.150000000000000E+008;-3.758018379627709E-001;-6.986463409842806E-001;
8.260000000000000E+008;-4.049055335140622E-001;-6.587527360356061E-001;
8.370000000000000E+008;-4.276340977356321E-001;-6.174666158877098E-001;
8.480000000000000E+008;-4.527796336940737E-001;-5.700671958685583E-001;
8.590000000000000E+008;-4.632155145492352E-001;-5.290709196971222E-001;
8.700000000000000E+008;-4.737372981990618E-001;-4.871387507477256E-001;
8.810000000000000E+008;-4.889124030605389E-001;-4.391792845049229E-001;
8.920000000000000E+008;-4.896441371941970E-001;-3.787943325293232E-001;
9.030000000000000E+008;-4.772770777929791E-001;-3.224179615780760E-001;
9.140000000000000E+008;-4.643859702784232E-001;-2.614073553327795E-001;
9.250000000000000E+008;-4.363794225155104E-001;-2.095583402561478E-001;
9.360000000000000E+008;-4.070179984816754E-001;-1.631319674382929E-001;
9.470000000000000E+008;-3.820189094596386E-001;-1.193939014973051E-001;
9.580000000000000E+008;-3.451781364661412E-001;-7.981467038954684E-002;
9.690000000000000E+008;-2.967467760064850E-001;-5.741854805216848E-002;
9.800000000000000E+008;-2.576441316043812E-001;-5.221804638298149E-002;
9.910000000000000E+008;-2.351677702717286E-001;-2.674842597944524E-002;
1.002000000000000E+009;-1.875592653198881E-001;-9.879971645986016E-003;
1.013000000000000E+009;-1.526408360847300E-001;-2.778838004838605E-003;
1.024000000000000E+009;-1.173360869893580E-001;2.255793649682110E-002;
1.035000000000000E+009;-7.940926613569511E-002;2.439496403561006E-002;
1.046000000000000E+009;-5.604527399701294E-002;4.083875170437434E-002;
1.057000000000000E+009;-1.261769333436681E-002;4.593863436391979E-002;
1.068000000000000E+009;2.670337203924661E-002;2.978049108847978E-002;
1.079000000000000E+009;4.520823231403382E-002;3.307248298694319E-002;
1.090000000000000E+009;9.106590445742369E-002;3.142056015386027E-002;
1.101000000000000E+009;1.424461167339781E-001;1.693971187296864E-002;
1.112000000000000E+009;1.878894636519380E-001;-6.697708979761318E-003;
1.123000000000000E+009;2.149122175690315E-001;-2.989439300090329E-002;
1.134000000000000E+009;2.388752693576533E-001;-5.312253813280950E-002;
1.145000000000000E+009;2.514788024145742E-001;-7.096876704728831E-002;
1.156000000000000E+009;2.692200634642256E-001;-9.516087354092211E-002;
1.167000000000000E+009;2.751953210885867E-001;-1.157435824131828E-001;
1.178000000000000E+009;2.936055844633547E-001;-1.395376245146247E-001;
1.189000000000000E+009;2.989729383982066E-001;-1.687702385103977E-001;
1.200000000000000E+009;3.217228242679111E-001;-1.799023493537964E-001;
1.211000000000000E+009;3.381292604251703E-001;-2.115624071277260E-001;
1.222000000000000E+009;3.532883446122984E-001;-2.342535389841488E-001;
1.233000000000000E+009;3.633708302909754E-001;-2.614291510762158E-001;
1.244000000000000E+009;3.630293774815839E-001;-2.893878616386662E-001;
1.255000000000000E+009;3.590867588687752E-001;-3.070870092085413E-001;
1.266000000000000E+009;3.579774296482890E-001;-3.289539059917309E-001;
1.277000000000000E+009;3.527457379286770E-001;-3.511611463844595E-001;
1.288000000000000E+009;3.474302486790759E-001;-3.678059167235654E-001;
1.299000000000000E+009;3.615310891607118E-001;-3.938346390579268E-001;
1.310000000000000E+009;3.549703644942312E-001;-4.283331057211507E-001;
1.321000000000000E+009;3.484431615514898E-001;-4.484277932745201E-001;
1.332000000000000E+009;3.391380687472175E-001;-4.640981062414573E-001;
1.343000000000000E+009;3.259026459860376E-001;-4.726372407056861E-001;
1.354000000000000E+009;3.182617940397398E-001;-4.764029684461839E-001;
1.365000000000000E+009;3.098778110369433E-001;-4.845097981731605E-001;
1.376000000000000E+009;3.074054385751844E-001;-4.990714234969793E-001;
1.387000000000000E+009;2.991022345186619E-001;-5.118108440458413E-001;
1.398000000000000E+009;3.014061733561128E-001;-5.304508271797975E-001;
1.409000000000000E+009;2.943201340622790E-001;-5.474667546433721E-001;
1.420000000000000E+009;2.895550424644977E-001;-5.619140651133767E-001;
1.431000000000000E+009;2.880828833257315E-001;-5.718542724281394E-001;
1.442000000000000E+009;2.814689903710249E-001;-5.865572328711169E-001;
1.453000000000000E+009;2.713053470077885E-001;-5.953696377971102E-001;
1.464000000000000E+009;2.578075811512903E-001;-6.018679795749916E-001;
1.475000000000000E+009;2.516115307676125E-001;-6.137019945948927E-001;
1.486000000000000E+009;2.373501877110403E-001;-6.323648166736251E-001;
1.497000000000000E+009;2.248181527193052E-001;-6.490891445900321E-001;
1.508000000000000E+009;2.127029555758536E-001;-6.646598326892669E-001;
1.519000000000000E+009;2.014619768769466E-001;-6.746874750982524E-001;
1.530000000000000E+009;1.940239041424666E-001;-6.775051657474611E-001;
1.541000000000000E+009;1.917279734955587E-001;-6.816319050377698E-001;
1.552000000000000E+009;1.807496010341612E-001;-6.885467405517495E-001;
1.563000000000000E+009;1.699357131967701E-001;-6.951474310146216E-001;
1.574000000000000E+009;1.531078523716520E-001;-7.044400694197044E-001;
1.585000000000000E+009;1.353481330818247E-001;-7.136534355814659E-001;
1.596000000000000E+009;1.210428663554207E-001;-7.166967627860302E-001;
1.607000000000000E+009;1.144550313027830E-001;-7.312597792313332E-001;
1.618000000000000E+009;1.026207452904344E-001;-7.433185550623619E-001;
1.629000000000000E+009;9.478922848167699E-002;-7.498903078125452E-001;
1.640000000000000E+009;8.683059901790485E-002;-7.569169276911850E-001;
1.651000000000000E+009;7.334411210009781E-002;-7.593244159267488E-001;
1.662000000000000E+009;6.181815471991826E-002;-7.542123056530039E-001;
1.673000000000000E+009;4.789463519326041E-002;-7.541483352298356E-001;
1.684000000000000E+009;3.499705933883920E-002;-7.577096457982829E-001;
1.695000000000000E+009;1.745503323799506E-002;-7.646366998965573E-001;
1.706000000000000E+009;5.893573468022372E-003;-7.713826912426881E-001;
1.717000000000000E+009;-4.952720687482028E-003;-7.805680240539508E-001;
1.728000000000000E+009;-1.443360955967160E-002;-7.877331116506410E-001;
1.739000000000000E+009;-2.512758488297122E-002;-7.907604619752748E-001;
1.750000000000000E+009;-3.797682266319501E-002;-7.897702000224735E-001;
1.761000000000000E+009;-4.928441477070397E-002;-7.865609831430503E-001;
1.772000000000000E+009;-6.390430197191581E-002;-7.851325306350017E-001;
1.783000000000000E+009;-8.023946268367502E-002;-7.840595261581032E-001;
1.794000000000000E+009;-9.694639067321691E-002;-7.840153792737044E-001;
1.805000000000000E+009;-1.129709028333583E-001;-7.864170244039871E-001;
1.816000000000000E+009;-1.274727099710689E-001;-7.895867383786238E-001;
1.827000000000000E+009;-1.383442422444455E-001;-7.898221302015603E-001;
1.838000000000000E+009;-1.446238700913709E-001;-7.897456598992428E-001;
1.849000000000000E+009;-1.520376469231972E-001;-7.883547558859240E-001;
1.860000000000000E+009;-1.603067545758443E-001;-7.843732301368221E-001;
1.871000000000000E+009;-1.721846860156624E-001;-7.789051848594794E-001;
1.882000000000000E+009;-1.859418464209927E-001;-7.752257134871665E-001;
1.893000000000000E+009;-2.002737579400992E-001;-7.728041593921012E-001;
1.904000000000000E+009;-2.157736517369076E-001;-7.754824629020880E-001;
1.915000000000000E+009;-2.284124419995427E-001;-7.776488966263903E-001;
1.926000000000000E+009;-2.393052018388612E-001;-7.802279744582645E-001;
1.937000000000000E+009;-2.493342956284426E-001;-7.779876020376739E-001;
1.948000000000000E+009;-2.561543642012582E-001;-7.744497855484730E-001;
1.959000000000000E+009;-2.661375295350668E-001;-7.673630316618636E-001;
1.970000000000000E+009;-2.724731295087276E-001;-7.583515117035660E-001;
1.981000000000000E+009;-2.848705087706389E-001;-7.525289488361397E-001;
1.992000000000000E+009;-2.978162951112433E-001;-7.441184069784085E-001;
2.003000000000000E+009;-3.099653508131038E-001;-7.386124873551140E-001;
2.014000000000000E+009;-3.204377798607541E-001;-7.355433583362764E-001;
2.025000000000000E+009;-3.302807811446573E-001;-7.358135983085894E-001;
2.036000000000000E+009;-3.368907610133798E-001;-7.336905165709864E-001;
2.047000000000000E+009;-3.413927664851617E-001;-7.314263383011688E-001;
2.058000000000000E+009;-3.479857306460031E-001;-7.277185300308112E-001;
2.069000000000000E+009;-3.556217339536939E-001;-7.187048162118938E-001;
2.080000000000000E+009;-3.688562573730183E-001;-7.111631805054635E-001;
2.091000000000000E+009;-3.850385086831168E-001;-7.003375532060461E-001;
2.102000000000000E+009;-3.990447306763340E-001;-6.893155758762311E-001;
2.113000000000000E+009;-4.085279127403705E-001;-6.835185939493906E-001;
2.124000000000000E+009;-4.195115389224494E-001;-6.816268455384204E-001;
2.135000000000000E+009;-4.293147011122638E-001;-6.796455250620003E-001;
2.146000000000000E+009;-4.396675577567958E-001;-6.724222472634378E-001;
2.157000000000000E+009;-4.477682453088265E-001;-6.648162594054318E-001;
2.168000000000000E+009;-4.571275784989521E-001;-6.498006685520873E-001;
2.179000000000000E+009;-4.633780505237430E-001;-6.358001315561657E-001;
2.190000000000000E+009;-4.745625339067757E-001;-6.201636077477183E-001;
2.201000000000000E+009;-4.837848397436069E-001;-6.057705933604697E-001;
2.212000000000000E+009;-4.932509835697464E-001;-5.944263311042844E-001;
2.223000000000000E+009;-5.015441873292957E-001;-5.867451401677840E-001;
2.234000000000000E+009;-5.050487544023778E-001;-5.811276388529236E-001;
2.245000000000000E+009;-5.063200786068939E-001;-5.782362591932497E-001;
2.256000000000000E+009;-5.115593582971194E-001;-5.732852629910876E-001;
2.267000000000000E+009;-5.160021994363728E-001;-5.618783342392146E-001;
2.278000000000000E+009;-5.233945134476793E-001;-5.507817607040962E-001;
2.289000000000000E+009;-5.335259846473837E-001;-5.352584780156985E-001;
2.300000000000000E+009;-5.424829390185000E-001;-5.183610485360612E-001;
2.311000000000000E+009;-5.492262582418382E-001;-5.030201216676221E-001;
2.322000000000000E+009;-5.532526827975774E-001;-4.941494320704300E-001;
2.333000000000000E+009;-5.564461439937397E-001;-4.853846789105922E-001;
2.344000000000000E+009;-5.602927294456083E-001;-4.773088406710403E-001;
2.355000000000000E+009;-5.588918613702770E-001;-4.667528862725641E-001;
2.366000000000000E+009;-5.622422245441080E-001;-4.532424812574060E-001;
2.377000000000000E+009;-5.638544528740883E-001;-4.336561261305840E-001;
2.388000000000000E+009;-5.632914559689900E-001;-4.122474914478627E-001;
2.399000000000000E+009;-5.633372386022437E-001;-3.934970982247849E-001;
2.410000000000000E+009;-5.599948252649908E-001;-3.809998370020901E-001;
2.421000000000000E+009;-5.646296178161281E-001;-3.739920494743366E-001;
2.432000000000000E+009;-5.642092529811388E-001;-3.658462539955271E-001;
2.443000000000000E+009;-5.646763465630976E-001;-3.571861606129254E-001;
2.454000000000000E+009;-5.588066188458437E-001;-3.440634133912362E-001;
2.465000000000000E+009;-5.508698382431300E-001;-3.293185641422914E-001;
2.476000000000000E+009;-5.441308535586016E-001;-3.140563588105240E-001;
2.487000000000000E+009;-5.380069670399184E-001;-2.953858194602452E-001;
2.498000000000000E+009;-5.361773756187818E-001;-2.775696267115168E-001;
2.509000000000000E+009;-5.305800206543688E-001;-2.623259723086773E-001;
2.520000000000000E+009;-5.286696913001605E-001;-2.495775972770193E-001;
2.531000000000000E+009;-5.225955098303237E-001;-2.388022448101568E-001;
2.542000000000000E+009;-5.098704289971952E-001;-2.308312390065630E-001;
2.553000000000000E+009;-4.999593403267130E-001;-2.264080087717048E-001;
2.564000000000000E+009;-4.864572846521801E-001;-2.181409229733713E-001;
2.575000000000000E+009;-4.681094541913008E-001;-2.039142369662711E-001;
2.586000000000000E+009;-4.527326614464860E-001;-1.918748078824985E-001;
2.597000000000000E+009;-4.362918718603280E-001;-1.771665195165904E-001;
2.608000000000000E+009;-4.230057248557116E-001;-1.710268116311209E-001;
2.619000000000000E+009;-4.125496829388844E-001;-1.693361696760389E-001;
2.630000000000000E+009;-4.053011617884629E-001;-1.709550797276149E-001;
2.641000000000000E+009;-3.969127543030493E-001;-1.734844599269552E-001;
2.652000000000000E+009;-3.812686976842288E-001;-1.733250824855638E-001;
2.663000000000000E+009;-3.675727880581734E-001;-1.754418746204463E-001;
2.674000000000000E+009;-3.479220643949849E-001;-1.698102325897344E-001;
2.685000000000000E+009;-3.336001597066430E-001;-1.643273421016972E-001;
2.696000000000000E+009;-3.101736537522664E-001;-1.584549515379938E-001;
2.707000000000000E+009;-3.019320000855003E-001;-1.600802948540442E-001;
2.718000000000000E+009;-2.907296024573378E-001;-1.617910804846463E-001;
2.729000000000000E+009;-2.860933243764180E-001;-1.694280428494012E-001;
2.740000000000000E+009;-2.761243444011775E-001;-1.777491662807066E-001;
2.751000000000000E+009;-2.669266246035481E-001;-1.854727286075251E-001;
2.762000000000000E+009;-2.458807414927326E-001;-1.925857026761194E-001;
2.773000000000000E+009;-2.239206064371193E-001;-2.026711436545000E-001;
2.784000000000000E+009;-2.070030991719200E-001;-2.105146901620657E-001;
2.795000000000000E+009;-1.885575771741239E-001;-2.196978211353643E-001;
2.806000000000000E+009;-1.824848904321240E-001;-2.365513353662018E-001;
2.817000000000000E+009;-1.858364880976490E-001;-2.446599686617191E-001;
2.828000000000000E+009;-1.856491660683679E-001;-2.597732989238878E-001;
2.839000000000000E+009;-1.860086502351933E-001;-2.802219234486346E-001;
2.850000000000000E+009;-1.876025824092526E-001;-3.050713921946066E-001;
2.861000000000000E+009;-1.888675873130953E-001;-3.289138772090246E-001;
2.872000000000000E+009;-1.884029513368268E-001;-3.476198995108343E-001;
2.883000000000000E+009;-1.895156608868068E-001;-3.585123661085418E-001;
2.894000000000000E+009;-1.914508907246053E-001;-3.612716772291482E-001;
2.905000000000000E+009;-1.905718293829742E-001;-3.611642185003652E-001;
2.916000000000000E+009;-1.953432012928072E-001;-3.672666038689410E-001;
2.927000000000000E+009;-2.061502365619788E-001;-3.799879341157878E-001;
2.938000000000000E+009;-2.237845841603205E-001;-3.940191571813710E-001;
2.949000000000000E+009;-2.371149299346494E-001;-4.056715080506100E-001;
2.960000000000000E+009;-2.417731283156934E-001;-4.191126286552946E-001;
2.971000000000000E+009;-2.405897322069519E-001;-4.314422635528158E-001;
2.982000000000000E+009;-2.348735340673616E-001;-4.422261299511297E-001;
2.993000000000000E+009;-2.306962527600395E-001;-4.518511677556802E-001;
3.004000000000000E+009;-2.353908749216946E-001;-4.630608185520901E-001;
3.015000000000000E+009;-2.494358321247408E-001;-4.628231159585032E-001;
3.026000000000000E+009;-2.651282992884676E-001;-4.651058987447186E-001;
3.037000000000000E+009;-2.856526915921993E-001;-4.692762045870003E-001;
3.048000000000000E+009;-3.051489403668389E-001;-4.750982654516012E-001;
3.059000000000000E+009;-3.147485342978762E-001;-4.839740107623780E-001;
3.070000000000000E+009;-3.231669624557808E-001;-4.969054730151354E-001;
3.081000000000000E+009;-3.211910498605895E-001;-5.037572551333147E-001;
3.092000000000000E+009;-3.224124573398096E-001;-5.112037082539983E-001;
3.103000000000000E+009;-3.295164248921976E-001;-5.097858964377096E-001;
3.114000000000000E+009;-3.405061477726333E-001;-5.008869239055501E-001;
3.125000000000000E+009;-3.549271460322038E-001;-4.917316734281026E-001;
3.136000000000000E+009;-3.718043754400063E-001;-4.876569301800918E-001;
3.147000000000000E+009;-3.909441620055586E-001;-4.853228310811754E-001;
