#Parameters = {D=40; L=50}
#"Frequency / GHz"	"S1,1 (D=40) [Re]"	"S1,1 (D=40) [Im]"	"Ref.Imp. [Re]"	"Ref.Imp. [Im]"
#---------------------------------------------------------------------------------------
0.0000000000000	1.0000000000000	-0.0000000000000	73.000000000000	0.0000000000000
0.0040000001899898	0.99999785423279	-0.0018158801831305	73.000000000000	0.0000000000000
0.0080000003799796	0.99999117851257	-0.0036316839978099	73.000000000000	0.0000000000000
0.012000000104308	0.99998021125793	-0.0054473350755870	73.000000000000	0.0000000000000
0.016000000759959	0.99996489286423	-0.0072627589106560	73.000000000000	0.0000000000000
0.019999999552965	0.99994516372681	-0.0090778796002269	73.000000000000	0.0000000000000
0.024000000208616	0.99992114305496	-0.010892624035478	73.000000000000	0.0000000000000
0.028000000864267	0.99989277124405	-0.012706917710602	73.000000000000	0.0000000000000
0.032000001519918	0.99986010789871	-0.014520690776408	73.000000000000	0.0000000000000
0.035999998450279	0.99982309341431	-0.016333874315023	73.000000000000	0.0000000000000
0.039999999105930	0.99978202581406	-0.018146399408579	73.000000000000	0.0000000000000
0.043999999761581	0.99973672628403	-0.019958203658462	73.000000000000	0.0000000000000
0.048000000417233	0.99968725442886	-0.021769218146801	73.000000000000	0.0000000000000
0.052000001072884	0.99963366985321	-0.023579388856888	73.000000000000	0.0000000000000
0.056000001728535	0.99957609176636	-0.025388652458787	73.000000000000	0.0000000000000
0.059999998658895	0.99951440095901	-0.027196953073144	73.000000000000	0.0000000000000
0.064000003039837	0.99944871664047	-0.029004244133830	73.000000000000	0.0000000000000
0.068000003695488	0.99937927722931	-0.030810473486781	73.000000000000	0.0000000000000
0.071999996900558	0.99930584430695	-0.032615594565868	73.000000000000	0.0000000000000
0.075999997556210	0.99922871589661	-0.034419562667608	73.000000000000	0.0000000000000
0.079999998211861	0.99914789199829	-0.036222349852324	73.000000000000	0.0000000000000
0.083999998867512	0.99906331300735	-0.038023907691240	73.000000000000	0.0000000000000
0.087999999523163	0.99897527694702	-0.039824221283197	73.000000000000	0.0000000000000
0.092000000178814	0.99888366460800	-0.041623249650002	73.000000000000	0.0000000000000
0.096000000834465	0.99878853559494	-0.043420974165201	73.000000000000	0.0000000000000
0.10000000149012	0.99869012832642	-0.045217383652925	73.000000000000	0.0000000000000
0.10400000214577	0.99858844280243	-0.047012452036142	73.000000000000	0.0000000000000
0.10800000280142	0.99848330020905	-0.048806179314852	73.000000000000	0.0000000000000
0.11200000345707	0.99837511777878	-0.050598550587893	73.000000000000	0.0000000000000
0.11599999666214	0.99826383590698	-0.052389569580555	73.000000000000	0.0000000000000
0.11999999731779	0.99814951419830	-0.054179225116968	73.000000000000	0.0000000000000
0.12399999797344	0.99803221225739	-0.055967539548874	73.000000000000	0.0000000000000
0.12800000607967	0.99791193008423	-0.057754516601562	73.000000000000	0.0000000000000
0.13199999928474	0.99778896570206	-0.059540171176195	73.000000000000	0.0000000000000
0.13600000739098	0.99766314029694	-0.061324525624514	73.000000000000	0.0000000000000
0.14000000059605	0.99753469228745	-0.063107594847679	73.000000000000	0.0000000000000
0.14399999380112	0.99740356206894	-0.064889401197433	73.000000000000	0.0000000000000
0.14800000190735	0.99726980924606	-0.066669985651970	73.000000000000	0.0000000000000
0.15199999511242	0.99713361263275	-0.068449370563030	73.000000000000	0.0000000000000
0.15600000321865	0.99699497222900	-0.070227593183517	73.000000000000	0.0000000000000
0.15999999642372	0.99685376882553	-0.072004713118076	73.000000000000	0.0000000000000
0.16400000452995	0.99671041965485	-0.073780737817287	73.000000000000	0.0000000000000
0.16799999773502	0.99656462669373	-0.075555749237537	73.000000000000	0.0000000000000
0.17200000584126	0.99641656875610	-0.077329762279987	73.000000000000	0.0000000000000
0.17599999904633	0.99626618623734	-0.079102843999863	73.000000000000	0.0000000000000
0.18000000715256	0.99611377716064	-0.080875046551228	73.000000000000	0.0000000000000
0.18400000035763	0.99595904350281	-0.082646436989307	73.000000000000	0.0000000000000
0.18799999356270	0.99580246210098	-0.084417045116425	73.000000000000	0.0000000000000
0.19200000166893	0.99564355611801	-0.086186952888966	73.000000000000	0.0000000000000
0.19599999487400	0.99548274278641	-0.087956219911575	73.000000000000	0.0000000000000
0.20000000298023	0.99531966447830	-0.089724890887737	73.000000000000	0.0000000000000
0.20399999618530	0.99515479803085	-0.091493047773838	73.000000000000	0.0000000000000
0.20800000429153	0.99498766660690	-0.093260742723942	73.000000000000	0.0000000000000
0.21199999749660	0.99481868743896	-0.095028035342693	73.000000000000	0.0000000000000
0.21600000560284	0.99464750289917	-0.096794992685318	73.000000000000	0.0000000000000
0.21999999880791	0.99447435140610	-0.098561689257622	73.000000000000	0.0000000000000
0.22400000691414	0.99429923295975	-0.10032818466425	73.000000000000	0.0000000000000
0.22800000011921	0.99412196874619	-0.10209451615810	73.000000000000	0.0000000000000
0.23199999332428	0.99394267797470	-0.10386078804731	73.000000000000	0.0000000000000
0.23600000143051	0.99376130104065	-0.10562703758478	73.000000000000	0.0000000000000
0.23999999463558	0.99357789754868	-0.10739333182573	73.000000000000	0.0000000000000
0.24400000274181	0.99339222908020	-0.10915972292423	73.000000000000	0.0000000000000
0.24799999594688	0.99320447444916	-0.11092627793550	73.000000000000	0.0000000000000
0.25200000405312	0.99301451444626	-0.11269304156303	73.000000000000	0.0000000000000
0.25600001215935	0.99282240867615	-0.11446008086205	73.000000000000	0.0000000000000
0.25999999046326	0.99262791872025	-0.11622743308544	73.000000000000	0.0000000000000
0.26399999856949	0.99243122339249	-0.11799515038729	73.000000000000	0.0000000000000
0.26800000667572	0.99223202466965	-0.11976327002048	73.000000000000	0.0000000000000
0.27200001478195	0.99203056097031	-0.12153184413910	73.000000000000	0.0000000000000
0.27599999308586	0.99182659387589	-0.12330093234777	73.000000000000	0.0000000000000
0.28000000119209	0.99162000417709	-0.12507052719593	73.000000000000	0.0000000000000
0.28400000929832	0.99141085147858	-0.12684069573879	73.000000000000	0.0000000000000
0.28799998760223	0.99119907617569	-0.12861146032810	73.000000000000	0.0000000000000
0.29199999570847	0.99098455905914	-0.13038280606270	73.000000000000	0.0000000000000
0.29600000381470	0.99076718091965	-0.13215480744839	73.000000000000	0.0000000000000
0.30000001192093	0.99054712057114	-0.13392747938633	73.000000000000	0.0000000000000
0.30399999022484	0.99032407999039	-0.13570079207420	73.000000000000	0.0000000000000
0.30799999833107	0.99009799957275	-0.13747479021549	73.000000000000	0.0000000000000
0.31200000643730	0.98986905813217	-0.13924945890903	73.000000000000	0.0000000000000
0.31600001454353	0.98963677883148	-0.14102481305599	73.000000000000	0.0000000000000
0.31999999284744	0.98940145969391	-0.14280086755753	73.000000000000	0.0000000000000
0.32400000095367	0.98916268348694	-0.14457756280899	73.000000000000	0.0000000000000
0.32800000905991	0.98892080783844	-0.14635492861271	73.000000000000	0.0000000000000
0.33199998736382	0.98867541551590	-0.14813295006752	73.000000000000	0.0000000000000
0.33599999547005	0.98842632770538	-0.14991153776646	73.000000000000	0.0000000000000
0.34000000357628	0.98817396163940	-0.15169078111649	73.000000000000	0.0000000000000
0.34400001168251	0.98791784048080	-0.15347056090832	73.000000000000	0.0000000000000
0.34799998998642	0.98765814304352	-0.15525087714195	73.000000000000	0.0000000000000
0.35199999809265	0.98739451169968	-0.15703167021275	73.000000000000	0.0000000000000
0.35600000619888	0.98712724447250	-0.15881292521954	73.000000000000	0.0000000000000
0.36000001430511	0.98685610294342	-0.16059461236000	73.000000000000	0.0000000000000
0.36399999260902	0.98658102750778	-0.16237664222717	73.000000000000	0.0000000000000
0.36800000071526	0.98630183935165	-0.16415898501873	73.000000000000	0.0000000000000
0.37200000882149	0.98601871728897	-0.16594158113003	73.000000000000	0.0000000000000
0.37599998712540	0.98573142290115	-0.16772437095642	73.000000000000	0.0000000000000
0.37999999523163	0.98543995618820	-0.16950727999210	73.000000000000	0.0000000000000
0.38400000333786	0.98514443635941	-0.17129027843475	73.000000000000	0.0000000000000
0.38800001144409	0.98484462499619	-0.17307327687740	73.000000000000	0.0000000000000
0.39199998974800	0.98454058170319	-0.17485615611076	73.000000000000	0.0000000000000
0.39599999785423	0.98423218727112	-0.17663894593716	73.000000000000	0.0000000000000
0.40000000596046	0.98391956090927	-0.17842151224613	73.000000000000	0.0000000000000
0.40400001406670	0.98360246419907	-0.18020376563072	73.000000000000	0.0000000000000
0.40799999237061	0.98328113555908	-0.18198569118977	73.000000000000	0.0000000000000
0.41200000047684	0.98295533657074	-0.18376712501049	73.000000000000	0.0000000000000
0.41600000858307	0.98262506723404	-0.18554803729057	73.000000000000	0.0000000000000
0.41999998688698	0.98229050636292	-0.18732836842537	73.000000000000	0.0000000000000
0.42399999499321	0.98195147514343	-0.18910799920559	73.000000000000	0.0000000000000
0.42800000309944	0.98160809278488	-0.19088685512543	73.000000000000	0.0000000000000
0.43200001120567	0.98126018047333	-0.19266484677792	73.000000000000	0.0000000000000
0.43599998950958	0.98090803623199	-0.19444194436073	73.000000000000	0.0000000000000
0.43999999761581	0.98055142164230	-0.19621798396111	73.000000000000	0.0000000000000
0.44400000572205	0.98019051551819	-0.19799299538136	73.000000000000	0.0000000000000
0.44800001382828	0.97982519865036	-0.19976678490639	73.000000000000	0.0000000000000
0.45199999213219	0.97945553064346	-0.20153933763504	73.000000000000	0.0000000000000
0.45600000023842	0.97908163070679	-0.20331059396267	73.000000000000	0.0000000000000
0.46000000834465	0.97870343923569	-0.20508043467999	73.000000000000	0.0000000000000
0.46399998664856	0.97832107543945	-0.20684881508350	73.000000000000	0.0000000000000
0.46799999475479	0.97793453931808	-0.20861563086510	73.000000000000	0.0000000000000
0.47200000286102	0.97754389047623	-0.21038086712360	73.000000000000	0.0000000000000
0.47600001096725	0.97714906930923	-0.21214441955090	73.000000000000	0.0000000000000
0.47999998927116	0.97675043344498	-0.21390630304813	73.000000000000	0.0000000000000
0.48399999737740	0.97634774446487	-0.21566633880138	73.000000000000	0.0000000000000
0.48800000548363	0.97594118118286	-0.21742458641529	73.000000000000	0.0000000000000
0.49200001358986	0.97553080320358	-0.21918088197708	73.000000000000	0.0000000000000
0.49599999189377	0.97511661052704	-0.22093528509140	73.000000000000	0.0000000000000
0.50000000000000	0.97469872236252	-0.22268769145012	73.000000000000	0.0000000000000
0.50400000810623	0.97427719831467	-0.22443807125092	73.000000000000	0.0000000000000
0.50800001621246	0.97385209798813	-0.22618639469147	73.000000000000	0.0000000000000
0.51200002431870	0.97342360019684	-0.22793261706829	73.000000000000	0.0000000000000
0.51599997282028	0.97299164533615	-0.22967673838139	73.000000000000	0.0000000000000
0.51999998092651	0.97255647182465	-0.23141875863075	73.000000000000	0.0000000000000
0.52399998903275	0.97211784124374	-0.23315857350826	73.000000000000	0.0000000000000
0.52799999713898	0.97167623043060	-0.23489624261856	73.000000000000	0.0000000000000
0.53200000524521	0.97123140096664	-0.23663173615932	73.000000000000	0.0000000000000
0.53600001335144	0.97078365087509	-0.23836503922939	73.000000000000	0.0000000000000
0.54000002145767	0.97033280134201	-0.24009618163109	73.000000000000	0.0000000000000
0.54400002956390	0.96987920999527	-0.24182514846325	73.000000000000	0.0000000000000
0.54799997806549	0.96942287683487	-0.24355193972588	73.000000000000	0.0000000000000
0.55199998617172	0.96896386146545	-0.24527660012245	73.000000000000	0.0000000000000
0.55599999427795	0.96850216388702	-0.24699912965298	73.000000000000	0.0000000000000
0.56000000238419	0.96803796291351	-0.24871954321861	73.000000000000	0.0000000000000
0.56400001049042	0.96757113933563	-0.25043788552284	73.000000000000	0.0000000000000
0.56800001859665	0.96710199117661	-0.25215414166451	73.000000000000	0.0000000000000
0.57200002670288	0.96663051843643	-0.25386846065521	73.000000000000	0.0000000000000
0.57599997520447	0.96615672111511	-0.25558075308800	73.000000000000	0.0000000000000
0.57999998331070	0.96568071842194	-0.25729116797447	73.000000000000	0.0000000000000
0.58399999141693	0.96520274877548	-0.25899967551231	73.000000000000	0.0000000000000
0.58799999952316	0.96472239494324	-0.26070633530617	73.000000000000	0.0000000000000
0.59200000762939	0.96424013376236	-0.26241126656532	73.000000000000	0.0000000000000
0.59600001573563	0.96375590562820	-0.26411446928978	73.000000000000	0.0000000000000
0.60000002384186	0.96326965093613	-0.26581597328186	73.000000000000	0.0000000000000
0.60399997234344	0.96278148889542	-0.26751595735550	73.000000000000	0.0000000000000
0.60799998044968	0.96229147911072	-0.26921439170837	73.000000000000	0.0000000000000
0.61199998855591	0.96179968118668	-0.27091136574745	73.000000000000	0.0000000000000
0.61599999666214	0.96130603551865	-0.27260696887970	73.000000000000	0.0000000000000
0.62000000476837	0.96081054210663	-0.27430126070976	73.000000000000	0.0000000000000
0.62400001287460	0.96031337976456	-0.27599427103996	73.000000000000	0.0000000000000
0.62800002098083	0.95981436967850	-0.27768611907959	73.000000000000	0.0000000000000
0.63200002908707	0.95931380987167	-0.27937692403793	73.000000000000	0.0000000000000
0.63599997758865	0.95881128311157	-0.28106668591499	73.000000000000	0.0000000000000
0.63999998569489	0.95830714702606	-0.28275546431541	73.000000000000	0.0000000000000
0.64399999380112	0.95780128240585	-0.28444343805313	73.000000000000	0.0000000000000
0.64800000190735	0.95729368925095	-0.28613060712814	73.000000000000	0.0000000000000
0.65200001001358	0.95678430795670	-0.28781706094742	73.000000000000	0.0000000000000
0.65600001811981	0.95627313852310	-0.28950282931328	73.000000000000	0.0000000000000
0.66000002622604	0.95576012134552	-0.29118806123734	73.000000000000	0.0000000000000
0.66399997472763	0.95524525642395	-0.29287278652191	73.000000000000	0.0000000000000
0.66799998283386	0.95472860336304	-0.29455712437630	73.000000000000	0.0000000000000
0.67199999094009	0.95420998334885	-0.29624104499817	73.000000000000	0.0000000000000
0.67599999904633	0.95368951559067	-0.29792469739914	73.000000000000	0.0000000000000
0.68000000715256	0.95316690206528	-0.29960811138153	73.000000000000	0.0000000000000
0.68400001525879	0.95264238119125	-0.30129134654999	73.000000000000	0.0000000000000
0.68800002336502	0.95211571455002	-0.30297446250916	73.000000000000	0.0000000000000
0.69199997186661	0.95158690214157	-0.30465754866600	73.000000000000	0.0000000000000
0.69599997997284	0.95105576515198	-0.30634060502052	73.000000000000	0.0000000000000
0.69999998807907	0.95052254199982	-0.30802369117737	73.000000000000	0.0000000000000
0.70399999618530	0.94998681545258	-0.30970683693886	73.000000000000	0.0000000000000
0.70800000429153	0.94944876432419	-0.31139013171196	73.000000000000	0.0000000000000
0.71200001239777	0.94890803098679	-0.31307354569435	73.000000000000	0.0000000000000
0.71600002050400	0.94836497306824	-0.31475719809532	73.000000000000	0.0000000000000
0.72000002861023	0.94781923294067	-0.31644099950790	73.000000000000	0.0000000000000
0.72399997711182	0.94727063179016	-0.31812506914139	73.000000000000	0.0000000000000
0.72799998521805	0.94671922922134	-0.31980934739113	73.000000000000	0.0000000000000
0.73199999332428	0.94616496562958	-0.32149386405945	73.000000000000	0.0000000000000
0.73600000143051	0.94560772180557	-0.32317867875099	73.000000000000	0.0000000000000
0.74000000953674	0.94504737854004	-0.32486376166344	73.000000000000	0.0000000000000
0.74400001764297	0.94448399543762	-0.32654905319214	73.000000000000	0.0000000000000
0.74800002574921	0.94391721487045	-0.32823458313942	73.000000000000	0.0000000000000
0.75199997425079	0.94334715604782	-0.32992038130760	73.000000000000	0.0000000000000
0.75599998235703	0.94277375936508	-0.33160635828972	73.000000000000	0.0000000000000
0.75999999046326	0.94219678640366	-0.33329248428345	73.000000000000	0.0000000000000
0.76399999856949	0.94161629676819	-0.33497878909111	73.000000000000	0.0000000000000
0.76800000667572	0.94103211164474	-0.33666524291039	73.000000000000	0.0000000000000
0.77200001478195	0.94044417142868	-0.33835175633430	73.000000000000	0.0000000000000
0.77600002288818	0.93985241651535	-0.34003832936287	73.000000000000	0.0000000000000
0.77999997138977	0.93925684690475	-0.34172478318214	73.000000000000	0.0000000000000
0.78399997949600	0.93865722417831	-0.34341126680374	73.000000000000	0.0000000000000
0.78799998760223	0.93805360794067	-0.34509754180908	73.000000000000	0.0000000000000
0.79199999570847	0.93744581937790	-0.34678366780281	73.000000000000	0.0000000000000
0.79600000381470	0.93683379888535	-0.34846943616867	73.000000000000	0.0000000000000
0.80000001192093	0.93621766567230	-0.35015496611595	73.000000000000	0.0000000000000
0.80400002002716	0.93559718132019	-0.35184004902840	73.000000000000	0.0000000000000
0.80800002813339	0.93497240543365	-0.35352462530136	73.000000000000	0.0000000000000
0.81199997663498	0.93434321880341	-0.35520866513252	73.000000000000	0.0000000000000
0.81599998474121	0.93370956182480	-0.35689204931259	73.000000000000	0.0000000000000
0.81999999284744	0.93307155370712	-0.35857462882996	73.000000000000	0.0000000000000
0.82400000095367	0.93242889642715	-0.36025637388229	73.000000000000	0.0000000000000
0.82800000905991	0.93178170919418	-0.36193722486496	73.000000000000	0.0000000000000
0.83200001716614	0.93113005161285	-0.36361700296402	73.000000000000	0.0000000000000
0.83600002527237	0.93047374486923	-0.36529570817947	73.000000000000	0.0000000000000
0.83999997377396	0.92981284856796	-0.36697313189507	73.000000000000	0.0000000000000
0.84399998188019	0.92914730310440	-0.36864930391312	73.000000000000	0.0000000000000
0.84799998998642	0.92847728729248	-0.37032401561737	73.000000000000	0.0000000000000
0.85199999809265	0.92780262231827	-0.37199720740318	73.000000000000	0.0000000000000
0.85600000619888	0.92712330818176	-0.37366878986359	73.000000000000	0.0000000000000
0.86000001430511	0.92643934488297	-0.37533864378929	73.000000000000	0.0000000000000
0.86400002241135	0.92575103044510	-0.37700670957565	73.000000000000	0.0000000000000
0.86799997091293	0.92505800724030	-0.37867286801338	73.000000000000	0.0000000000000
0.87199997901917	0.92436057329178	-0.38033697009087	73.000000000000	0.0000000000000
0.87599998712540	0.92365866899490	-0.38199901580811	73.000000000000	0.0000000000000
0.87999999523163	0.92295235395432	-0.38365885615349	73.000000000000	0.0000000000000
0.88400000333786	0.92224168777466	-0.38531640172005	73.000000000000	0.0000000000000
0.88800001144409	0.92152661085129	-0.38697159290314	73.000000000000	0.0000000000000
0.89200001955032	0.92080718278885	-0.38862431049347	73.000000000000	0.0000000000000
0.89600002765656	0.92008370161057	-0.39027449488640	73.000000000000	0.0000000000000
0.89999997615814	0.91935592889786	-0.39192208647728	73.000000000000	0.0000000000000
0.90399998426437	0.91862422227859	-0.39356696605682	73.000000000000	0.0000000000000
0.90799999237061	0.91788840293884	-0.39520910382271	73.000000000000	0.0000000000000
0.91200000047684	0.91714876890182	-0.39684841036797	73.000000000000	0.0000000000000
0.91600000858307	0.91640532016754	-0.39848479628563	73.000000000000	0.0000000000000
0.92000001668930	0.91565805673599	-0.40011826157570	73.000000000000	0.0000000000000
0.92400002479553	0.91490715742111	-0.40174874663353	73.000000000000	0.0000000000000
0.92799997329712	0.91415262222290	-0.40337625145912	73.000000000000	0.0000000000000
0.93199998140335	0.91339468955994	-0.40500062704086	73.000000000000	0.0000000000000
