#Parameters = {D=50; L=50}
#"Frequency / GHz"	"S1,1 (D=50) [Re]"	"S1,1 (D=50) [Im]"	"Ref.Imp. [Re]"	"Ref.Imp. [Im]"
#---------------------------------------------------------------------------------------
0.0000000000000	1.0000000000000	-0.0000000000000	73.000000000000	0.0000000000000
0.0040000001899898	0.99999797344208	-0.0018144566565752	73.000000000000	0.0000000000000
0.0080000003799796	0.99999183416367	-0.0036288665141910	73.000000000000	0.0000000000000
0.012000000104308	0.99998170137405	-0.0054431818425655	73.000000000000	0.0000000000000
0.016000000759959	0.99996757507324	-0.0072573563084006	73.000000000000	0.0000000000000
0.019999999552965	0.99994927644730	-0.0090713435783982	73.000000000000	0.0000000000000
0.024000000208616	0.99992698431015	-0.010885096155107	73.000000000000	0.0000000000000
0.028000000864267	0.99990069866180	-0.012698571197689	73.000000000000	0.0000000000000
0.032000001519918	0.99987047910690	-0.014511721208692	73.000000000000	0.0000000000000
0.035999998450279	0.99983602762222	-0.016324499621987	73.000000000000	0.0000000000000
0.039999999105930	0.99979770183563	-0.018136868253350	73.000000000000	0.0000000000000
0.043999999761581	0.99975550174713	-0.019948780536652	73.000000000000	0.0000000000000
0.048000000417233	0.99970936775208	-0.021760197356343	73.000000000000	0.0000000000000
0.052000001072884	0.99965929985046	-0.023571072146297	73.000000000000	0.0000000000000
0.056000001728535	0.99960523843765	-0.025381369516253	73.000000000000	0.0000000000000
0.059999998658895	0.99954736232758	-0.027191046625376	73.000000000000	0.0000000000000
0.064000003039837	0.99948573112488	-0.029000073671341	73.000000000000	0.0000000000000
0.068000003695488	0.99942010641098	-0.030808407813311	73.000000000000	0.0000000000000
0.071999996900558	0.99935084581375	-0.032616011798382	73.000000000000	0.0000000000000
0.075999997556210	0.99927765130997	-0.034422859549522	73.000000000000	0.0000000000000
0.079999998211861	0.99920088052750	-0.036228913813829	73.000000000000	0.0000000000000
0.083999998867512	0.99912041425705	-0.038034144788980	73.000000000000	0.0000000000000
0.087999999523163	0.99903613328934	-0.039838526397943	73.000000000000	0.0000000000000
0.092000000178814	0.99894845485687	-0.041642028838396	73.000000000000	0.0000000000000
0.096000000834465	0.99885696172714	-0.043444626033306	73.000000000000	0.0000000000000
0.10000000149012	0.99876207113266	-0.045246295630932	73.000000000000	0.0000000000000
0.10400000214577	0.99866354465485	-0.047047019004822	73.000000000000	0.0000000000000
0.10800000280142	0.99856162071228	-0.048846770077944	73.000000000000	0.0000000000000
0.11200000345707	0.99845635890961	-0.050645533949137	73.000000000000	0.0000000000000
0.11599999666214	0.99834746122360	-0.052443295717239	73.000000000000	0.0000000000000
0.11999999731779	0.99823534488678	-0.054240033030510	73.000000000000	0.0000000000000
0.12399999797344	0.99811995029449	-0.056035745888948	73.000000000000	0.0000000000000
0.12800000607967	0.99800121784210	-0.057830411940813	73.000000000000	0.0000000000000
0.13199999928474	0.99787920713425	-0.059624023735523	73.000000000000	0.0000000000000
0.13600000739098	0.99775403738022	-0.061416588723660	73.000000000000	0.0000000000000
0.14000000059605	0.99762588739395	-0.063208080828190	73.000000000000	0.0000000000000
0.14399999380112	0.99749428033829	-0.064998514950275	73.000000000000	0.0000000000000
0.14800000190735	0.99735987186432	-0.066787883639336	73.000000000000	0.0000000000000
0.15199999511242	0.99722236394882	-0.068576186895370	73.000000000000	0.0000000000000
0.15600000321865	0.99708181619644	-0.070363432168961	73.000000000000	0.0000000000000
0.15999999642372	0.99693840742111	-0.072149626910686	73.000000000000	0.0000000000000
0.16400000452995	0.99679201841354	-0.073934763669968	73.000000000000	0.0000000000000
0.16799999773502	0.99664270877838	-0.075718872249126	73.000000000000	0.0000000000000
0.17200000584126	0.99649059772491	-0.077501937747002	73.000000000000	0.0000000000000
0.17599999904633	0.99633574485779	-0.079283989965916	73.000000000000	0.0000000000000
0.18000000715256	0.99617809057236	-0.081065036356449	73.000000000000	0.0000000000000
0.18400000035763	0.99601769447327	-0.082845099270344	73.000000000000	0.0000000000000
0.18799999356270	0.99585461616516	-0.084624193608761	73.000000000000	0.0000000000000
0.19200000166893	0.99568879604340	-0.086402334272861	73.000000000000	0.0000000000000
0.19599999487400	0.99552035331726	-0.088179543614388	73.000000000000	0.0000000000000
0.20000000298023	0.99534946680069	-0.089955858886242	73.000000000000	0.0000000000000
0.20399999618530	0.99517583847046	-0.091731280088425	73.000000000000	0.0000000000000
0.20800000429153	0.99499976634979	-0.093505837023258	73.000000000000	0.0000000000000
0.21199999749660	0.99482113122940	-0.095279559493065	73.000000000000	0.0000000000000
0.21600000560284	0.99463999271393	-0.097052484750748	73.000000000000	0.0000000000000
0.21999999880791	0.99445635080338	-0.098824620246887	73.000000000000	0.0000000000000
0.22400000691414	0.99427026510239	-0.10059601813555	73.000000000000	0.0000000000000
0.22800000011921	0.99408179521561	-0.10236668586731	73.000000000000	0.0000000000000
0.23199999332428	0.99389076232910	-0.10413668304682	73.000000000000	0.0000000000000
0.23600000143051	0.99369746446609	-0.10590600967407	73.000000000000	0.0000000000000
0.23999999463558	0.99350160360336	-0.10767471045256	73.000000000000	0.0000000000000
0.24400000274181	0.99330353736877	-0.10944282263517	73.000000000000	0.0000000000000
0.24799999594688	0.99310302734375	-0.11121039092541	73.000000000000	0.0000000000000
0.25200000405312	0.99290019273758	-0.11297743767500	73.000000000000	0.0000000000000
0.25600001215935	0.99269491434097	-0.11474397778511	73.000000000000	0.0000000000000
0.25999999046326	0.99248731136322	-0.11651008576155	73.000000000000	0.0000000000000
0.26399999856949	0.99227732419968	-0.11827576160431	73.000000000000	0.0000000000000
0.26800000667572	0.99206501245499	-0.12004104256630	73.000000000000	0.0000000000000
0.27200001478195	0.99185031652451	-0.12180599570274	73.000000000000	0.0000000000000
0.27599999308586	0.99163323640823	-0.12357062846422	73.000000000000	0.0000000000000
0.28000000119209	0.99141389131546	-0.12533497810364	73.000000000000	0.0000000000000
0.28400000929832	0.99119210243225	-0.12709908187389	73.000000000000	0.0000000000000
0.28799998760223	0.99096786975861	-0.12886296212673	73.000000000000	0.0000000000000
0.29199999570847	0.99074137210846	-0.13062669336796	73.000000000000	0.0000000000000
0.29600000381470	0.99051225185394	-0.13239024579525	73.000000000000	0.0000000000000
0.30000001192093	0.99028086662292	-0.13415369391441	73.000000000000	0.0000000000000
0.30399999022484	0.99004697799683	-0.13591705262661	73.000000000000	0.0000000000000
0.30799999833107	0.98981058597565	-0.13768036663532	73.000000000000	0.0000000000000
0.31200000643730	0.98957175016403	-0.13944363594055	73.000000000000	0.0000000000000
0.31600001454353	0.98933041095734	-0.14120692014694	73.000000000000	0.0000000000000
0.31999999284744	0.98908656835556	-0.14297021925449	73.000000000000	0.0000000000000
0.32400000095367	0.98883998394012	-0.14473356306553	73.000000000000	0.0000000000000
0.32800000905991	0.98859095573425	-0.14649701118469	73.000000000000	0.0000000000000
0.33199998736382	0.98833924531937	-0.14826051890850	73.000000000000	0.0000000000000
0.33599999547005	0.98808479309082	-0.15002417564392	73.000000000000	0.0000000000000
0.34000000357628	0.98782777786255	-0.15178793668747	73.000000000000	0.0000000000000
0.34400001168251	0.98756802082062	-0.15355189144611	73.000000000000	0.0000000000000
0.34799998998642	0.98730552196503	-0.15531601011753	73.000000000000	0.0000000000000
0.35199999809265	0.98704016208649	-0.15708030760288	73.000000000000	0.0000000000000
0.35600000619888	0.98677211999893	-0.15884479880333	73.000000000000	0.0000000000000
0.36000001430511	0.98650103807449	-0.16060952842236	73.000000000000	0.0000000000000
0.36399999260902	0.98622709512711	-0.16237443685532	73.000000000000	0.0000000000000
0.36800000071526	0.98595023155212	-0.16413961350918	73.000000000000	0.0000000000000
0.37200000882149	0.98567038774490	-0.16590498387814	73.000000000000	0.0000000000000
0.37599998712540	0.98538756370544	-0.16767060756683	73.000000000000	0.0000000000000
0.37999999523163	0.98510158061981	-0.16943646967411	73.000000000000	0.0000000000000
0.38400000333786	0.98481249809265	-0.17120255529881	73.000000000000	0.0000000000000
0.38800001144409	0.98452025651932	-0.17296889424324	73.000000000000	0.0000000000000
0.39199998974800	0.98422491550446	-0.17473544180393	73.000000000000	0.0000000000000
0.39599999785423	0.98392629623413	-0.17650221288204	73.000000000000	0.0000000000000
0.40000000596046	0.98362445831299	-0.17826919257641	73.000000000000	0.0000000000000
0.40400001406670	0.98331916332245	-0.18003638088703	73.000000000000	0.0000000000000
0.40799999237061	0.98301059007645	-0.18180376291275	73.000000000000	0.0000000000000
0.41200000047684	0.98269855976105	-0.18357127904892	73.000000000000	0.0000000000000
0.41600000858307	0.98238319158554	-0.18533898890018	73.000000000000	0.0000000000000
0.41999998688698	0.98206424713135	-0.18710681796074	73.000000000000	0.0000000000000
0.42399999499321	0.98174178600311	-0.18887473642826	73.000000000000	0.0000000000000
0.42800000309944	0.98141580820084	-0.19064274430275	73.000000000000	0.0000000000000
0.43200001120567	0.98108619451523	-0.19241084158421	73.000000000000	0.0000000000000
0.43599998950958	0.98075294494629	-0.19417896866798	73.000000000000	0.0000000000000
0.43999999761581	0.98041617870331	-0.19594712555408	73.000000000000	0.0000000000000
0.44400000572205	0.98007553815842	-0.19771522283554	73.000000000000	0.0000000000000
0.44800001382828	0.97973120212555	-0.19948326051235	73.000000000000	0.0000000000000
0.45199999213219	0.97938323020935	-0.20125126838684	73.000000000000	0.0000000000000
0.45600000023842	0.97903126478195	-0.20301908254623	73.000000000000	0.0000000000000
0.46000000834465	0.97867548465729	-0.20478674769402	73.000000000000	0.0000000000000
0.46399998664856	0.97831588983536	-0.20655423402786	73.000000000000	0.0000000000000
0.46799999475479	0.97795248031616	-0.20832146704197	73.000000000000	0.0000000000000
0.47200000286102	0.97758501768112	-0.21008838713169	73.000000000000	0.0000000000000
0.47600001096725	0.97721362113953	-0.21185499429703	73.000000000000	0.0000000000000
0.47999998927116	0.97683835029602	-0.21362121403217	73.000000000000	0.0000000000000
0.48399999737740	0.97645908594131	-0.21538703143597	73.000000000000	0.0000000000000
0.48800000548363	0.97607576847076	-0.21715238690376	73.000000000000	0.0000000000000
0.49200001358986	0.97568839788437	-0.21891723573208	73.000000000000	0.0000000000000
0.49599999189377	0.97529715299606	-0.22068150341511	73.000000000000	0.0000000000000
0.50000000000000	0.97490179538727	-0.22244517505169	73.000000000000	0.0000000000000
0.50400000810623	0.97450244426727	-0.22420819103718	73.000000000000	0.0000000000000
0.50800001621246	0.97409898042679	-0.22597049176693	73.000000000000	0.0000000000000
0.51200002431870	0.97369146347046	-0.22773203253746	73.000000000000	0.0000000000000
0.51599997282028	0.97327983379364	-0.22949272394180	73.000000000000	0.0000000000000
0.51999998092651	0.97286415100098	-0.23125259578228	73.000000000000	0.0000000000000
0.52399998903275	0.97244447469711	-0.23301157355309	73.000000000000	0.0000000000000
0.52799999713898	0.97202080488205	-0.23476952314377	73.000000000000	0.0000000000000
0.53200000524521	0.97159284353256	-0.23652647435665	73.000000000000	0.0000000000000
0.53600001335144	0.97116100788116	-0.23828238248825	73.000000000000	0.0000000000000
0.54000002145767	0.97072505950928	-0.24003714323044	73.000000000000	0.0000000000000
0.54400002956390	0.97028511762619	-0.24179074168205	73.000000000000	0.0000000000000
0.54799997806549	0.96984124183655	-0.24354314804077	73.000000000000	0.0000000000000
0.55199998617172	0.96939331293106	-0.24529425799847	73.000000000000	0.0000000000000
0.55599999427795	0.96894145011902	-0.24704404175282	73.000000000000	0.0000000000000
0.56000000238419	0.96848535537720	-0.24879246950150	73.000000000000	0.0000000000000
0.56400001049042	0.96802562475204	-0.25053948163986	73.000000000000	0.0000000000000
0.56800001859665	0.96756196022034	-0.25228506326675	73.000000000000	0.0000000000000
0.57200002670288	0.96709436178207	-0.25402909517288	73.000000000000	0.0000000000000
0.57599997520447	0.96662288904190	-0.25577160716057	73.000000000000	0.0000000000000
0.57999998331070	0.96614748239517	-0.25751248002052	73.000000000000	0.0000000000000
0.58399999141693	0.96566832065582	-0.25925177335739	73.000000000000	0.0000000000000
0.58799999952316	0.96518546342850	-0.26098939776421	73.000000000000	0.0000000000000
0.59200000762939	0.96469902992249	-0.26272529363632	73.000000000000	0.0000000000000
0.59600001573563	0.96420854330063	-0.26445943117142	73.000000000000	0.0000000000000
0.60000002384186	0.96371471881866	-0.26619181036949	73.000000000000	0.0000000000000
0.60399997234344	0.96321713924408	-0.26792240142822	73.000000000000	0.0000000000000
0.60799998044968	0.96271598339081	-0.26965105533600	73.000000000000	0.0000000000000
0.61199998855591	0.96221137046814	-0.27137786149979	73.000000000000	0.0000000000000
0.61599999666214	0.96170324087143	-0.27310284972191	73.000000000000	0.0000000000000
0.62000000476837	0.96119165420532	-0.27482587099075	73.000000000000	0.0000000000000
0.62400001287460	0.96067678928375	-0.27654692530632	73.000000000000	0.0000000000000
0.62800002098083	0.96015846729279	-0.27826604247093	73.000000000000	0.0000000000000
0.63200002908707	0.95963686704636	-0.27998310327530	73.000000000000	0.0000000000000
0.63599997758865	0.95911192893982	-0.28169822692871	73.000000000000	0.0000000000000
0.63999998569489	0.95858383178711	-0.28341132402420	73.000000000000	0.0000000000000
0.64399999380112	0.95805263519287	-0.28512236475945	73.000000000000	0.0000000000000
0.64800000190735	0.95751839876175	-0.28683137893677	73.000000000000	0.0000000000000
0.65200001001358	0.95698094367981	-0.28853833675385	73.000000000000	0.0000000000000
0.65600001811981	0.95644050836563	-0.29024326801300	73.000000000000	0.0000000000000
0.66000002622604	0.95589721202850	-0.29194611310959	73.000000000000	0.0000000000000
0.66399997472763	0.95535093545914	-0.29364690184593	73.000000000000	0.0000000000000
0.66799998283386	0.95480179786682	-0.29534566402435	73.000000000000	0.0000000000000
0.67199999094009	0.95424985885620	-0.29704231023788	73.000000000000	0.0000000000000
0.67599999904633	0.95369517803192	-0.29873701930046	73.000000000000	0.0000000000000
0.68000000715256	0.95313775539398	-0.30042961239815	73.000000000000	0.0000000000000
0.68400001525879	0.95257759094238	-0.30212023854256	73.000000000000	0.0000000000000
0.68800002336502	0.95201492309570	-0.30380883812904	73.000000000000	0.0000000000000
0.69199997186661	0.95144957304001	-0.30549544095993	73.000000000000	0.0000000000000
0.69599997997284	0.95088183879852	-0.30718004703522	73.000000000000	0.0000000000000
0.69999998807907	0.95031136274338	-0.30886268615723	73.000000000000	0.0000000000000
0.70399999618530	0.94973868131638	-0.31054344773293	73.000000000000	0.0000000000000
0.70800000429153	0.94916355609894	-0.31222230195999	73.000000000000	0.0000000000000
0.71200001239777	0.94858598709106	-0.31389924883842	73.000000000000	0.0000000000000
0.71600002050400	0.94800615310669	-0.31557434797287	73.000000000000	0.0000000000000
0.72000002861023	0.94742393493652	-0.31724759936333	73.000000000000	0.0000000000000
0.72399997711182	0.94683957099915	-0.31891909241676	73.000000000000	0.0000000000000
0.72799998521805	0.94625282287598	-0.32058882713318	73.000000000000	0.0000000000000
0.73199999332428	0.94566398859024	-0.32225689291954	73.000000000000	0.0000000000000
0.73600000143051	0.94507300853729	-0.32392317056656	73.000000000000	0.0000000000000
0.74000000953674	0.94447994232178	-0.32558789849281	73.000000000000	0.0000000000000
0.74400001764297	0.94388467073441	-0.32725095748901	73.000000000000	0.0000000000000
0.74800002574921	0.94328719377518	-0.32891246676445	73.000000000000	0.0000000000000
0.75199997425079	0.94268780946732	-0.33057248592377	73.000000000000	0.0000000000000
0.75599998235703	0.94208627939224	-0.33223098516464	73.000000000000	0.0000000000000
0.75999999046326	0.94148272275925	-0.33388805389404	73.000000000000	0.0000000000000
0.76399999856949	0.94087713956833	-0.33554369211197	73.000000000000	0.0000000000000
0.76800000667572	0.94026952981949	-0.33719804883003	73.000000000000	0.0000000000000
0.77200001478195	0.93965995311737	-0.33885100483894	73.000000000000	0.0000000000000
0.77600002288818	0.93904829025269	-0.34050276875496	73.000000000000	0.0000000000000
0.77999997138977	0.93843472003937	-0.34215337038040	73.000000000000	0.0000000000000
0.78399997949600	0.93781912326813	-0.34380277991295	73.000000000000	0.0000000000000
0.78799998760223	0.93720149993896	-0.34545105695724	73.000000000000	0.0000000000000
0.79199999570847	0.93658185005188	-0.34709823131561	73.000000000000	0.0000000000000
0.79600000381470	0.93596029281616	-0.34874442219734	73.000000000000	0.0000000000000
0.80000001192093	0.93533658981323	-0.35038962960243	73.000000000000	0.0000000000000
0.80400002002716	0.93471086025238	-0.35203391313553	73.000000000000	0.0000000000000
0.80800002813339	0.93408316373825	-0.35367730259895	73.000000000000	0.0000000000000
0.81199997663498	0.93345332145691	-0.35531979799271	73.000000000000	0.0000000000000
0.81599998474121	0.93282139301300	-0.35696157813072	73.000000000000	0.0000000000000
0.81999999284744	0.93218731880188	-0.35860255360603	73.000000000000	0.0000000000000
0.82400000095367	0.93155121803284	-0.36024287343025	73.000000000000	0.0000000000000
0.82800000905991	0.93091291189194	-0.36188244819641	73.000000000000	0.0000000000000
0.83200001716614	0.93027240037918	-0.36352139711380	73.000000000000	0.0000000000000
0.83600002527237	0.92962962388992	-0.36515983939171	73.000000000000	0.0000000000000
0.83999997377396	0.92898464202881	-0.36679765582085	73.000000000000	0.0000000000000
0.84399998188019	0.92833733558655	-0.36843496561050	73.000000000000	0.0000000000000
0.84799998998642	0.92768770456314	-0.37007179856300	73.000000000000	0.0000000000000
0.85199999809265	0.92703568935394	-0.37170815467834	73.000000000000	0.0000000000000
0.85600000619888	0.92638134956360	-0.37334409356117	73.000000000000	0.0000000000000
0.86000001430511	0.92572438716888	-0.37497961521149	73.000000000000	0.0000000000000
0.86400002241135	0.92506498098373	-0.37661477923393	73.000000000000	0.0000000000000
0.86799997091293	0.92440307140350	-0.37824961543083	73.000000000000	0.0000000000000
0.87199997901917	0.92373853921890	-0.37988409399986	73.000000000000	0.0000000000000
0.87599998712540	0.92307138442993	-0.38151833415031	73.000000000000	0.0000000000000
0.87999999523163	0.92240148782730	-0.38315218687057	73.000000000000	0.0000000000000
0.88400000333786	0.92172873020172	-0.38478580117226	73.000000000000	0.0000000000000
0.88800001144409	0.92105329036713	-0.38641914725304	73.000000000000	0.0000000000000
0.89200001955032	0.92037492990494	-0.38805219531059	73.000000000000	0.0000000000000
0.89600002765656	0.91969364881516	-0.38968506455421	73.000000000000	0.0000000000000
0.89999997615814	0.91900944709778	-0.39131763577461	73.000000000000	0.0000000000000
0.90399998426437	0.91832208633423	-0.39294999837875	73.000000000000	0.0000000000000
0.90799999237061	0.91763168573380	-0.39458206295967	73.000000000000	0.0000000000000
0.91200000047684	0.91693818569183	-0.39621388912201	73.000000000000	0.0000000000000
0.91600000858307	0.91624134778976	-0.39784547686577	73.000000000000	0.0000000000000
0.92000001668930	0.91554135084152	-0.39947673678398	73.000000000000	0.0000000000000
0.92400002479553	0.91483795642853	-0.40110775828362	73.000000000000	0.0000000000000
0.92799997329712	0.91413122415543	-0.40273845195770	73.000000000000	0.0000000000000
0.93199998140335	0.91342103481293	-0.40436884760857	73.000000000000	0.0000000000000
