#Parameters = {D=8; L=80; d_a=10; e_m=9; e_s=30; gap=1.5; m_x=30; m_y=40; m_z=100; mu_m=1; mu_s=1; s_d=2}
#"Frequency / GHz"	"S2,1 (m_z=100) [Re]"	"S2,1 (m_z=100) [Im]"
#-------------------------------------------------------------
0.0000000000000	0.00010155014024349	-0.0000000000000
0.0040000001899898	8.4337079897523e-05	-0.0013189223827794
0.0080000003799796	3.2783002097858e-05	-0.0026363921351731
0.012000000104308	-5.2859413699480e-05	-0.0039509856142104
0.016000000759959	-0.00017217705317307	-0.0052613411098719
0.019999999552965	-0.00032461265800521	-0.0065661813132465
0.024000000208616	-0.00050948472926393	-0.0078643383458257
0.028000000864267	-0.00072600384010002	-0.0091547761112452
0.032000001519918	-0.00097330933203921	-0.010436601936817
0.035999998450279	-0.0012504879850894	-0.011709077283740
0.039999999105930	-0.0015566169749945	-0.012971620075405
0.043999999761581	-0.0018907748162746	-0.014223807491362
0.048000000417233	-0.0022520876955241	-0.015465357340872
0.052000001072884	-0.0026397500187159	-0.016696128994226
0.056000001728535	-0.0030530453659594	-0.017916096374393
0.059999998658895	-0.0034913762938231	-0.019125323742628
0.064000003039837	-0.0039542601443827	-0.020323947072029
0.068000003695488	-0.0044413739815354	-0.021512134000659
0.071999996900558	-0.0049525066278875	-0.022690070793033
0.075999997556210	-0.0054876063950360	-0.023857912048697
0.079999998211861	-0.0060467571020126	-0.025015765801072
0.083999998867512	-0.0066301343031228	-0.026163665577769
0.087999999523163	-0.0072380476631224	-0.027301536872983
0.092000000178814	-0.0078708631917834	-0.028429184108973
0.096000000834465	-0.0085289878770709	-0.029546272009611
0.10000000149012	-0.0092128785327077	-0.030652314424515
0.10400000214577	-0.0099229486659169	-0.031746678054333
0.10800000280142	-0.010659605264664	-0.032828569412231
0.11200000345707	-0.011423152871430	-0.033897057175636
0.11599999666214	-0.012213820591569	-0.034951068460941
0.11999999731779	-0.013031675480306	-0.035989429801702
0.12399999797344	-0.013876681216061	-0.037010870873928
0.12800000607967	-0.014748597517610	-0.038014054298401
0.13199999928474	-0.015647016465664	-0.038997612893581
0.13600000739098	-0.016571346670389	-0.039960190653801
0.14000000059605	-0.017520824447274	-0.040900446474552
0.14399999380112	-0.018494492396712	-0.041817102581263
0.14800000190735	-0.019491225481033	-0.042708989232779
0.15199999511242	-0.020509738475084	-0.043575052171946
0.15600000321865	-0.021548649296165	-0.044414367526770
0.15999999642372	-0.022606421262026	-0.045226205140352
0.16400000452995	-0.023681480437517	-0.046009995043278
0.16799999773502	-0.024772185832262	-0.046765368431807
0.17200000584126	-0.025876941159368	-0.047492135316133
0.17599999904633	-0.026994084939361	-0.048190291970968
0.18000000715256	-0.028122080489993	-0.048860032111406
0.18400000035763	-0.029259432107210	-0.049501709640026
0.18799999356270	-0.030404731631279	-0.050115816295147
0.19200000166893	-0.031556732952595	-0.050702959299088
0.19599999487400	-0.032714277505875	-0.051263865083456
0.20000000298023	-0.033876426517963	-0.051799308508635
0.20399999618530	-0.035042334347963	-0.052310094237328
0.20800000429153	-0.036211278289557	-0.052797071635723
0.21199999749660	-0.037382759153843	-0.053261019289494
0.21600000560284	-0.038556341081858	-0.053702704608440
0.21999999880791	-0.039731681346893	-0.054122827947140
0.22400000691414	-0.040908545255661	-0.054521974176168
0.22800000011921	-0.042086798697710	-0.054900672286749
0.23199999332428	-0.043266225606203	-0.055259317159653
0.23600000143051	-0.044446721673012	-0.055598203092813
0.23999999463558	-0.045628100633621	-0.055917531251907
0.24400000274181	-0.046810142695904	-0.056217413395643
0.24799999594688	-0.047992512583733	-0.056497890502214
0.25200000405312	-0.049174748361111	-0.056758962571621
0.25600001215935	-0.050356425344944	-0.057000569999218
0.25999999046326	-0.051536794751883	-0.057222705334425
0.26399999856949	-0.052715148776770	-0.057425349950790
0.26800000667572	-0.053890470415354	-0.057608619332314
0.27200001478195	-0.055061805993319	-0.057772681117058
0.27599999308586	-0.056227967143059	-0.057917829602957
0.28000000119209	-0.057387724518776	-0.058044541627169
0.28400000929832	-0.058539777994156	-0.058153480291367
0.28799998760223	-0.059682827442884	-0.058245491236448
0.29199999570847	-0.060815475881100	-0.058321677148342
0.29600000381470	-0.061936531215906	-0.058383278548717
0.30000001192093	-0.063044756650925	-0.058431833982468
0.30399999022484	-0.064139038324356	-0.058469094336033
0.30799999833107	-0.065218456089497	-0.058497004210949
0.31200000643730	-0.066282212734222	-0.058517675846815
0.31600001454353	-0.067329801619053	-0.058533389121294
0.31999999284744	-0.068360902369022	-0.058546565473080
0.32400000095367	-0.069375433027744	-0.058559741824865
0.32800000905991	-0.070373661816120	-0.058575496077538
0.33199998736382	-0.071356073021889	-0.058596424758434
0.33599999547005	-0.072323456406593	-0.058625105768442
0.34000000357628	-0.073276832699776	-0.058664139360189
0.34400001168251	-0.074217565357685	-0.058715920895338
0.34799998998642	-0.075147196650505	-0.058782830834389
0.35199999809265	-0.076067499816418	-0.058867089450359
0.35600000619888	-0.076980464160442	-0.058970708400011
0.36000001430511	-0.077888198196888	-0.059095583856106
0.36399999260902	-0.078793041408062	-0.059243332594633
0.36800000071526	-0.079697348177433	-0.059415493160486
0.37200000882149	-0.080603562295437	-0.059613380581141
0.37599998712540	-0.081514239311218	-0.059838015586138
0.37999999523163	-0.082431875169277	-0.060090459883213
0.38400000333786	-0.083359017968178	-0.060371484607458
0.38800001144409	-0.084298208355904	-0.060681745409966
0.39199998974800	-0.085252031683922	-0.061021864414215
0.39599999785423	-0.086222939193249	-0.061392337083817
0.40000000596046	-0.087213493883610	-0.061793614178896
0.40400001406670	-0.088226228952408	-0.062226135283709
0.40799999237061	-0.089263655245304	-0.062690325081348
0.41200000047684	-0.090328417718410	-0.063186578452587
0.41600000858307	-0.091423168778419	-0.063715368509293
0.41999998688698	-0.092550732195377	-0.064277060329914
0.42399999499321	-0.093714073300362	-0.064872160553932
0.42800000309944	-0.094916254281998	-0.065501078963280
0.43200001120567	-0.096160687506199	-0.066164232790470
0.43599998950958	-0.097450852394104	-0.066861964762211
0.43999999761581	-0.098790660500526	-0.067594528198242
0.44400000572205	-0.10018421709538	-0.068362042307854
0.44800001382828	-0.10163595527411	-0.069164380431175
0.45199999213219	-0.10315059125423	-0.070001259446144
0.45600000023842	-0.10473314672709	-0.070872083306313
0.46000000834465	-0.10638889670372	-0.071775846183300
0.46399998664856	-0.10812351107597	-0.072711169719696
0.46799999475479	-0.10994268208742	-0.073676273226738
0.47200000286102	-0.11185245960951	-0.074668742716312
0.47600001096725	-0.11385893821716	-0.075685702264309
0.47999998927116	-0.11596841365099	-0.076723635196686
0.48399999737740	-0.11818701028824	-0.077778451144695
0.48800000548363	-0.12052102386951	-0.078845284879208
0.49200001358986	-0.12297644466162	-0.079918816685677
0.49599999189377	-0.12555918097496	-0.080992877483368
0.50000000000000	-0.12827482819557	-0.082060746848583
0.50400000810623	-0.13112869858742	-0.083115048706532
0.50800001621246	-0.13412560522556	-0.084147781133652
0.51200002431870	-0.13727001845837	-0.085150398313999
0.51599997282028	-0.14056582748890	-0.086113817989826
0.51999998092651	-0.14401634037495	-0.087028428912163
0.52399998903275	-0.14762426912785	-0.087884232401848
0.52799999713898	-0.15139165520668	-0.088670909404755
0.53200000524521	-0.15531989932060	-0.089377731084824
0.53600001335144	-0.15940977632999	-0.089993737637997
0.54000002145767	-0.16366116702557	-0.090507812798023
0.54400002956390	-0.16807341575623	-0.090908698737621
0.54799997806549	-0.17264518141747	-0.091184906661510
0.55199998617172	-0.17737428843975	-0.091325089335442
0.55599999427795	-0.18225800991058	-0.091317698359489
0.56000000238419	-0.18729291856289	-0.091151416301727
0.56400001049042	-0.19247484207153	-0.090814851224422
0.56800001859665	-0.19779917597771	-0.090296514332294
0.57200002670288	-0.20326040685177	-0.089585453271866
0.57599997520447	-0.20885263383389	-0.088670358061790
0.57999998331070	-0.21456916630268	-0.087540328502655
0.58399999141693	-0.22040279209614	-0.086184442043304
0.58799999952316	-0.22634562849998	-0.084592103958130
0.59200000762939	-0.23238915205002	-0.082752659916878
0.59600001573563	-0.23852415382862	-0.080655723810196
0.60000002384186	-0.24474072456360	-0.078291177749634
0.60399997234344	-0.25102835893631	-0.075649023056030
0.60799998044968	-0.25737556815147	-0.072719521820545
0.61199998855591	-0.26377040147781	-0.069493189454079
0.61599999666214	-0.27019992470741	-0.065961070358753
0.62000000476837	-0.27665036916733	-0.062114562839270
0.62400001287460	-0.28310722112656	-0.057945407927036
0.62800002098083	-0.28955498337746	-0.053445879369974
0.63200002908707	-0.29597747325897	-0.048609282821417
0.63599997758865	-0.30235752463341	-0.043429125100374
0.63999998569489	-0.30867710709572	-0.037900295108557
0.64399999380112	-0.31491750478745	-0.032018102705479
0.64800000190735	-0.32105907797813	-0.025779189541936
0.65200001001358	-0.32708171010017	-0.019181299954653
0.65600001811981	-0.33296436071396	-0.012223484925926
0.66000002622604	-0.33868563175201	-0.0049058715812862
0.66399997472763	-0.34422358870506	0.0027697046753019
0.66799998283386	-0.34955602884293	0.010799936950207
0.67199999094009	-0.35466048121452	0.019180329516530
0.67599999904633	-0.35951432585716	0.027904229238629
0.68000000715256	-0.36409515142441	0.036963880062103
0.68400001525879	-0.36838057637215	0.046349368989468
0.68800002336502	-0.37234872579575	0.056049473583698
0.69199997186661	-0.37597805261612	0.066051140427589
0.69599997997284	-0.37924787402153	0.076339878141880
0.69999998807907	-0.38213816285133	0.086899198591709
0.70399999618530	-0.38462969660759	0.097711682319641
0.70800000429153	-0.38670456409454	0.10875797271729
0.71200001239777	-0.38834589719772	0.12001771479845
0.71600002050400	-0.38953813910484	0.13146911561489
0.72000002861023	-0.39026701450348	0.14308917522430
0.72399997711182	-0.39051991701126	0.15485404431820
0.72799998521805	-0.39028558135033	0.16673894226551
0.73199999332428	-0.38955447077751	0.17871810495853
0.73600000143051	-0.38831856846809	0.19076535105705
0.74000000953674	-0.38657161593437	0.20285394787788
0.74400001764297	-0.38430914282799	0.21495643258095
0.74800002574921	-0.38152816891670	0.22704550623894
0.75199997425079	-0.37822756171227	0.23909340798855
0.75599998235703	-0.37440776824951	0.25107234716415
0.75999999046326	-0.37007117271423	0.26295468211174
0.76399999856949	-0.36522161960602	0.27471280097961
0.76800000667572	-0.35986474156380	0.28631946444511
0.77200001478195	-0.35400769114494	0.29774761199951
0.77600002288818	-0.34765920042992	0.30897089838982
0.77999997138977	-0.34082990884781	0.31996321678162
0.78399997949600	-0.33353161811829	0.33069929480553
0.78799998760223	-0.32577788829803	0.34115445613861
0.79199999570847	-0.31758353114128	0.35130494832993
0.79600000381470	-0.30896517634392	0.36112779378891
0.80000001192093	-0.29994028806686	0.37060111761093
0.80400002002716	-0.29052835702896	0.37970402836800
0.80800002813339	-0.28074958920479	0.38841697573662
0.81199997663498	-0.27062565088272	0.39672154188156
0.81599998474121	-0.26017934083939	0.40460079908371
0.81999999284744	-0.24943473935127	0.41203919053078
0.82400000095367	-0.23841623961926	0.41902279853821
0.82800000905991	-0.22714978456497	0.42553937435150
0.83200001716614	-0.21566167473793	0.43157839775085
0.83600002527237	-0.20397904515266	0.43713104724884
0.83999997377396	-0.19212920963764	0.44219049811363
0.84399998188019	-0.18013979494572	0.44675186276436
0.84799998998642	-0.16803893446922	0.45081201195717
0.85199999809265	-0.15585441887379	0.45436990261078
0.85600000619888	-0.14361403882504	0.45742645859718
0.86000001430511	-0.13134479522705	0.45998451113701
0.86400002241135	-0.11907367408276	0.46204876899719
0.86799997091293	-0.10682665556669	0.46362575888634
0.87199997901917	-0.094628810882568	0.46472379565239
0.87599998712540	-0.082504369318485	0.46535265445709
0.87999999523163	-0.070476233959198	0.46552389860153
0.88400000333786	-0.058566022664309	0.46525019407272
0.88800001144409	-0.046794064342976	0.46454560756683
0.89200001955032	-0.035178847610950	0.46342509984970
0.89600002765656	-0.023737896233797	0.46190479397774
0.89999997615814	-0.012486833147705	0.46000108122826
0.90399998426437	-0.0014396004844457	0.45773130655289
0.90799999237061	0.0093914130702615	0.45511293411255
0.91200000047684	0.019995246082544	0.45216363668442
0.91600000858307	0.030362533405423	0.44890111684799
0.92000001668930	0.040485467761755	0.44534310698509
0.92400002479553	0.050357401371002	0.44150680303574
0.92799997329712	0.059972997754812	0.43740928173065
0.93199998140335	0.069328039884567	0.43306711316109
0.93599998950958	0.078419573605061	0.42849621176720
0.93999999761581	0.087244987487793	0.42371210455894
0.94400000572205	0.095803089439869	0.41872960329056
0.94800001382828	0.10409308224916	0.41356286406517
0.95200002193451	0.11211454123259	0.40822553634644
0.95599997043610	0.11986772716045	0.40273061394691
0.95999997854233	0.12735335528851	0.39709055423737
0.96399998664856	0.13457196950912	0.39131730794907
0.96799999475479	0.14152508974075	0.38542237877846
0.97200000286102	0.14821372926235	0.37941691279411
0.97600001096725	0.15463946759701	0.37331169843674
0.98000001907349	0.16080386936665	0.36711734533310
0.98400002717972	0.16670887172222	0.36084410548210
0.98799997568130	0.17235653102398	0.35450217127800
0.99199998378754	0.17774893343449	0.34810155630112
0.99599999189377	0.18288871645927	0.34165215492249
1.0000000000000	0.18777872622013	0.33516383171082
1.0039999485016	0.19242212176323	0.32864621281624
1.0080000162125	0.19682236015797	0.32210889458656
1.0119999647141	0.20098361372948	0.31556120514870
1.0160000324249	0.20491009950638	0.30901250243187
1.0199999809265	0.20860706269741	0.30247151851654
1.0240000486374	0.21207977831364	0.29594689607620
1.0279999971390	0.21533417701721	0.28944680094719
1.0319999456406	0.21837663650513	0.28297901153564
1.0360000133514	0.22121392190456	0.27655065059662
1.0399999618530	0.22385317087173	0.27016827464104
1.0440000295639	0.22630198299885	0.26383778452873
1.0479999780655	0.22856797277927	0.25756445527077
1.0520000457764	0.23065902292728	0.25135269761086
1.0559999942780	0.23258304595947	0.24520626664162
1.0599999427795	0.23434776067734	0.23912815749645
1.0640000104904	0.23596107959747	0.23312054574490
1.0679999589920	0.23743037879467	0.22718498110771
1.0720000267029	0.23876276612282	0.22132235765457
1.0759999752045	0.23996490240097	0.21553295850754
1.0800000429153	0.24104322493076	0.20981658995152
1.0839999914169	0.24200321733952	0.20417262613773
1.0880000591278	0.24285018444061	0.19860014319420
1.0920000076294	0.24358867108822	0.19309799373150
1.0959999561310	0.24422252178192	0.18766492605209
1.1000000238419	0.24475528299809	0.18229971826077
1.1039999723434	0.24518975615501	0.17700119316578
1.1080000400543	0.24552832543850	0.17176839709282
1.1119999885559	0.24577309191227	0.16660062968731
1.1160000562668	0.24592570960522	0.16149748861790
1.1200000047684	0.24598757922649	0.15645892918110
1.1239999532700	0.24596017599106	0.15148535370827
1.1280000209808	0.24584473669529	0.14657743275166
1.1319999694824	0.24564273655415	0.14173622429371
1.1360000371933	0.24535560607910	0.13696315884590
1.1399999856949	0.24498520791531	0.13226000964642
1.1440000534058	0.24453358352184	0.12762871384621
1.1480000019073	0.24400329589844	0.12307104468346
1.1519999504089	0.24339707195759	0.11858932673931
1.1560000181198	0.24271824955940	0.11418528854847
1.1599999666214	0.24197052419186	0.10986089706421
1.1640000343323	0.24115787446499	0.10561772435904
1.1679999828339	0.24028463661671	0.10145701467991
1.1720000505447	0.23935550451279	0.097379416227341
1.1759999990463	0.23837527632713	0.093385390937328
1.1799999475479	0.23734883964062	0.089474849402905
1.1840000152588	0.23628118634224	0.085646629333496
1.1879999637604	0.23517705500126	0.081899732351303
1.1920000314713	0.23404103517532	0.078232206404209
1.1959999799728	0.23287740349770	0.074641667306423
1.2000000476837	0.23169006407261	0.071125172078609
1.2039999961853	0.23048239946365	0.067679487168789
1.2079999446869	0.22925719618797	0.064301185309887
1.2120000123978	0.22801670432091	0.060986496508121
1.2159999608994	0.22676250338554	0.057731837034225
1.2200000286102	0.22549559175968	0.054532952606678
1.2239999771118	0.22421629726887	0.051386605948210
1.2280000448227	0.22292436659336	0.048289336264133
1.2319999933243	0.22161905467510	0.045238140970469
1.2359999418259	0.22029918432236	0.042230453342199
1.2400000095367	0.21896323561668	0.039264243096113
1.2439999580383	0.21760942041874	0.036338042467833
1.2480000257492	0.21623586118221	0.033450961112976
1.2519999742508	0.21484069526196	0.030602743849158
1.2560000419617	0.21342214941978	0.027793696150184
1.2599999904633	0.21197870373726	0.025024680420756
1.2640000581741	0.21050921082497	0.022297041490674
1.2680000066757	0.20901291072369	0.019612513482571
1.2719999551773	0.20748959481716	0.016973139718175
1.2760000228882	0.20593957602978	0.014381137676537
1.2799999713898	0.20436377823353	0.011838794685900
1.2840000391006	0.20276369154453	0.0093483375385404
1.2879999876022	0.20114141702652	0.0069118039682508
1.2920000553131	0.19949953258038	0.0045309327542782
1.2960000038147	0.19784112274647	0.0022070503327996
1.2999999523163	0.19616955518723	-5.9019370382885e-05
1.3040000200272	0.19448855519295	-0.0022670240141451
1.3079999685287	0.19280193746090	-0.0044173351489007
1.3120000362396	0.19111350178719	-0.0065109739080071
1.3159999847412	0.18942697346210	-0.0085496073588729
1.3200000524521	0.18774579465389	-0.010535523295403
1.3240000009537	0.18607304990292	-0.012471574358642
1.3279999494553	0.18441134691238	-0.014361101202667
1.3320000171661	0.18276268243790	-0.016207840293646
1.3359999656677	0.18112844228745	-0.018015798181295
1.3400000333786	0.17950931191444	-0.019789125770330
1.3439999818802	0.17790520191193	-0.021531982347369
1.3480000495911	0.17631536722183	-0.023248396813869
1.3519999980927	0.17473840713501	-0.024942131713033
1.3559999465942	0.17317219078541	-0.026616530492902
1.3600000143051	0.17161411046982	-0.028274450451136
1.3639999628067	0.17006120085716	-0.029918117448688
1.3680000305176	0.16851007938385	-0.031549073755741
1.3719999790192	0.16695728898048	-0.033168133348227
1.3760000467300	0.16539929807186	-0.034775342792273
1.3799999952316	0.16383272409439	-0.036370012909174
1.3839999437332	0.16225446760654	-0.037950742989779
1.3880000114441	0.16066187620163	-0.039515491575003
1.3919999599457	0.15905277431011	-0.041061669588089
1.3960000276566	0.15742567181587	-0.042586263269186
1.3999999761581	0.15577976405621	-0.044085949659348
1.4040000438690	0.15411502122879	-0.045557275414467
1.4079999923706	0.15243215858936	-0.046996772289276
1.4119999408722	0.15073271095753	-0.048401173204184
1.4160000085831	0.14901891350746	-0.049767497926950
1.4199999570847	0.14729361236095	-0.051093246787786
1.4240000247955	0.14556026458740	-0.052376497536898
1.4279999732971	0.14382266998291	-0.053616028279066
1.4320000410080	0.14208495616913	-0.054811373353004
1.4359999895096	0.14035135507584	-0.055962890386581
1.4400000572205	0.13862603902817	-0.057071764022112
1.4440000057220	0.13691295683384	-0.058139976114035
1.4479999542236	0.13521568477154	-0.059170290827751
1.4520000219345	0.13353727757931	-0.060166124254465
1.4559999704361	0.13188011944294	-0.061131455004215
1.4600000381470	0.13024583458900	-0.062070697546005
1.4639999866486	0.12863518297672	-0.062988512217999
1.4680000543594	0.12704810500145	-0.063889682292938
1.4720000028610	0.12548357248306	-0.064778886735439
1.4759999513626	0.12393972277641	-0.065660558640957
1.4800000190735	0.12241384387016	-0.066538698971272
1.4839999675751	0.12090259790421	-0.067416705191135
