# Version 1.00
#
freq[Hz];re:Trc1_S22;im:Trc1_S22;
1.000000000000000E+008;6.983929377298597E-001;-6.695965580488320E-001;
1.110000000000000E+008;6.364597760366755E-001;-7.205449863871564E-001;
1.220000000000000E+008;5.744005113783745E-001;-7.690937244660101E-001;
1.330000000000000E+008;5.027522424809273E-001;-8.164161680428718E-001;
1.440000000000000E+008;4.286205941783499E-001;-8.513070740478183E-001;
1.550000000000000E+008;3.504627832497258E-001;-8.797741728187239E-001;
1.660000000000000E+008;2.700135836396980E-001;-9.021194097527121E-001;
1.770000000000000E+008;1.841527962483658E-001;-9.124955362714758E-001;
1.880000000000000E+008;9.942026587169658E-002;-9.054540285159214E-001;
1.990000000000000E+008;3.407983170545970E-002;-8.798188902606912E-001;
2.100000000000000E+008;-3.996689491588902E-003;-8.738520441675015E-001;
2.210000000000000E+008;-6.245906685044436E-002;-8.881499767233102E-001;
2.320000000000000E+008;-1.395375637057298E-001;-8.923172114050609E-001;
2.430000000000000E+008;-2.144426431840088E-001;-8.845702402582505E-001;
2.540000000000000E+008;-2.964514915111470E-001;-8.726953369654100E-001;
2.650000000000000E+008;-3.800813107219160E-001;-8.460489785516002E-001;
2.760000000000000E+008;-4.605285912802379E-001;-8.057675576572474E-001;
2.870000000000000E+008;-5.306080624000195E-001;-7.560638425580903E-001;
2.980000000000000E+008;-5.950051500575387E-001;-7.032247107414418E-001;
3.090000000000000E+008;-6.536690769126885E-001;-6.457575475410511E-001;
3.200000000000000E+008;-7.099097069005333E-001;-5.848981602874319E-001;
3.310000000000000E+008;-7.636370304976484E-001;-5.153911624324512E-001;
3.420000000000000E+008;-8.065369067610287E-001;-4.420944944854269E-001;
3.530000000000000E+008;-8.454951771376855E-001;-3.640798196769339E-001;
3.640000000000000E+008;-8.779295998073984E-001;-2.819366386468403E-001;
3.750000000000000E+008;-9.016396238666901E-001;-1.937533061404994E-001;
3.860000000000000E+008;-9.157941251273689E-001;-1.046075865522182E-001;
3.970000000000000E+008;-9.239576518935586E-001;-1.313663623260061E-002;
4.080000000000000E+008;-9.203132813629728E-001;8.294291953130770E-002;
4.190000000000000E+008;-9.047653332479512E-001;1.766627946289206E-001;
4.300000000000000E+008;-8.798944166380641E-001;2.690119720655979E-001;
4.410000000000000E+008;-8.432594831122749E-001;3.585398368117446E-001;
4.520000000000000E+008;-7.976449459459882E-001;4.442465406414291E-001;
4.630000000000000E+008;-7.415908191540815E-001;5.252041634242687E-001;
4.740000000000000E+008;-6.742856265293492E-001;5.989251966873532E-001;
4.850000000000000E+008;-5.979050865059793E-001;6.627904761535094E-001;
4.960000000000000E+008;-5.149760753693015E-001;7.123719089331320E-001;
5.070000000000000E+008;-4.336769557326889E-001;7.528868153744723E-001;
5.180000000000000E+008;-3.463675444075083E-001;7.864737199516605E-001;
5.290000000000000E+008;-2.559458911396925E-001;8.063252763896733E-001;
5.400000000000000E+008;-1.672205876836432E-001;8.173552781898622E-001;
5.510000000000000E+008;-7.662993929001444E-002;8.187649699941032E-001;
5.620000000000000E+008;1.196626617668511E-002;8.009800400190791E-001;
5.730000000000000E+008;8.147992505194154E-002;7.748199793647266E-001;
5.840000000000000E+008;1.453729371610498E-001;7.568095061351551E-001;
5.950000000000000E+008;2.204390921789719E-001;7.368648833787931E-001;
6.060000000000000E+008;2.968618839441249E-001;7.005844173608220E-001;
6.170000000000000E+008;3.626378687626805E-001;6.516759482187950E-001;
6.280000000000000E+008;4.213673411480139E-001;5.989631115965174E-001;
6.390000000000000E+008;4.779197076683158E-001;5.375500617052801E-001;
6.500000000000000E+008;5.186958650856104E-001;4.632580865058636E-001;
6.610000000000000E+008;5.459933154851034E-001;3.933175950231514E-001;
6.720000000000000E+008;5.652864781504916E-001;3.191339183921458E-001;
6.830000000000000E+008;5.607823476144388E-001;2.429699805235386E-001;
6.940000000000000E+008;5.405114526891129E-001;1.911065295712773E-001;
7.050000000000000E+008;5.430867669874608E-001;1.550765040525466E-001;
7.160000000000000E+008;5.416544986480445E-001;9.690394260925714E-002;
7.270000000000000E+008;5.262513305121656E-001;4.094380507489689E-002;
7.380000000000000E+008;4.961698360645662E-001;-1.026180386938774E-002;
7.490000000000000E+008;4.571727683028540E-001;-4.703068030045754E-002;
7.600000000000000E+008;4.134675360691474E-001;-6.673204658418019E-002;
7.710000000000000E+008;3.850510862227412E-001;-7.970217448342426E-002;
7.820000000000000E+008;3.483386489679420E-001;-8.653266596727904E-002;
7.930000000000000E+008;3.197486010844189E-001;-7.820308614824964E-002;
8.040000000000000E+008;3.089490772425284E-001;-6.741007685501155E-002;
8.150000000000000E+008;3.031937381358532E-001;-6.375094644872370E-002;
8.260000000000000E+008;3.034366865328841E-001;-5.608048509231974E-002;
8.370000000000000E+008;3.082362753444830E-001;-5.930279300467004E-002;
8.480000000000000E+008;3.091867866307340E-001;-6.021993413965424E-002;
8.590000000000000E+008;3.174256228021540E-001;-6.303254577145373E-002;
8.700000000000000E+008;3.310807335684996E-001;-7.181869059889327E-002;
8.810000000000000E+008;3.368423326350145E-001;-8.756619865796861E-002;
8.920000000000000E+008;3.428952186212299E-001;-1.027896350731729E-001;
9.030000000000000E+008;3.468082042740869E-001;-1.197659263019037E-001;
9.140000000000000E+008;3.444715129731827E-001;-1.341005643995137E-001;
9.250000000000000E+008;3.486347360169244E-001;-1.393672658892937E-001;
9.360000000000000E+008;3.619659291571610E-001;-1.557131758315235E-001;
9.470000000000000E+008;3.712302861923771E-001;-1.754497023363585E-001;
9.580000000000000E+008;3.845976243188909E-001;-2.016691685035822E-001;
9.690000000000000E+008;3.882301119633683E-001;-2.363662185592325E-001;
9.800000000000000E+008;3.901160190965342E-001;-2.695174158602847E-001;
9.910000000000000E+008;3.870374878440137E-001;-3.120847538442190E-001;
1.002000000000000E+009;3.699807768638890E-001;-3.502507919386012E-001;
1.013000000000000E+009;3.530685170395790E-001;-3.826264303962335E-001;
1.024000000000000E+009;3.341039379036407E-001;-4.143320828786408E-001;
1.035000000000000E+009;3.162723404386822E-001;-4.440654954392524E-001;
1.046000000000000E+009;2.962223714077175E-001;-4.806062802447642E-001;
1.057000000000000E+009;2.674113937174066E-001;-5.167353506666375E-001;
1.068000000000000E+009;2.318487313331331E-001;-5.505939591112354E-001;
1.079000000000000E+009;1.901252424044431E-001;-5.765407572206507E-001;
1.090000000000000E+009;1.498216959307687E-001;-5.964922463022359E-001;
1.101000000000000E+009;1.074864935732243E-001;-6.163128380729650E-001;
1.112000000000000E+009;6.285358612524013E-002;-6.310146284457722E-001;
1.123000000000000E+009;1.696468904799193E-002;-6.430716540805224E-001;
1.134000000000000E+009;-3.187131539011828E-002;-6.520734656476575E-001;
1.145000000000000E+009;-8.363798378415635E-002;-6.549823698189770E-001;
1.156000000000000E+009;-1.321229608819189E-001;-6.518277773678708E-001;
1.167000000000000E+009;-1.802546190035064E-001;-6.476967052807116E-001;
1.178000000000000E+009;-2.296977705732155E-001;-6.410530492491091E-001;
1.189000000000000E+009;-2.808356804413655E-001;-6.294825207903798E-001;
1.200000000000000E+009;-3.290057565018459E-001;-6.109160613636878E-001;
1.211000000000000E+009;-3.758426360196544E-001;-5.923945881077584E-001;
1.222000000000000E+009;-4.236672069354959E-001;-5.701613338164606E-001;
1.233000000000000E+009;-4.704232759776482E-001;-5.414723142692510E-001;
1.244000000000000E+009;-5.150882438726445E-001;-5.088329773914396E-001;
1.255000000000000E+009;-5.565597317426367E-001;-4.693899146285113E-001;
1.266000000000000E+009;-5.921857016335588E-001;-4.276205851802361E-001;
1.277000000000000E+009;-6.243058667951095E-001;-3.831978791099255E-001;
1.288000000000000E+009;-6.530358589642582E-001;-3.374561651000392E-001;
1.299000000000000E+009;-6.803643488553284E-001;-2.895679443433713E-001;
1.310000000000000E+009;-7.039573662829246E-001;-2.370683154236480E-001;
1.321000000000000E+009;-7.216192600583430E-001;-1.822742018674396E-001;
1.332000000000000E+009;-7.326942791254741E-001;-1.274455561903797E-001;
1.343000000000000E+009;-7.410068585914666E-001;-7.516368604421211E-002;
1.354000000000000E+009;-7.478305103956705E-001;-2.139704790810788E-002;
1.365000000000000E+009;-7.502990026260653E-001;3.407563588033095E-002;
1.376000000000000E+009;-7.492426348978930E-001;8.976125729522123E-002;
1.387000000000000E+009;-7.437760305694040E-001;1.462306203505701E-001;
1.398000000000000E+009;-7.348851836158754E-001;2.022568718632442E-001;
1.409000000000000E+009;-7.208145648705443E-001;2.592529619827946E-001;
1.420000000000000E+009;-7.011352420184287E-001;3.159870410711615E-001;
1.431000000000000E+009;-6.744404340718376E-001;3.712304932522975E-001;
1.442000000000000E+009;-6.425129563479233E-001;4.227064256738829E-001;
1.453000000000000E+009;-6.081531571301376E-001;4.691073676507181E-001;
1.464000000000000E+009;-5.733233425923789E-001;5.153833440681118E-001;
1.475000000000000E+009;-5.328165596250688E-001;5.610282617225612E-001;
1.486000000000000E+009;-4.881804106037238E-001;6.058299818523767E-001;
1.497000000000000E+009;-4.364479359939812E-001;6.435664896521821E-001;
1.508000000000000E+009;-3.831079554018496E-001;6.761180132035206E-001;
1.519000000000000E+009;-3.285363884053583E-001;7.022835193748428E-001;
1.530000000000000E+009;-2.741488491564382E-001;7.264590084338657E-001;
1.541000000000000E+009;-2.168194173866999E-001;7.468264185524814E-001;
1.552000000000000E+009;-1.569129681961684E-001;7.640965515904477E-001;
1.563000000000000E+009;-9.441476748032464E-002;7.745849102963729E-001;
1.574000000000000E+009;-3.281256432647495E-002;7.807361345866670E-001;
1.585000000000000E+009;3.046317682576663E-002;7.832112333047392E-001;
1.596000000000000E+009;9.672051937447465E-002;7.795980076317506E-001;
1.607000000000000E+009;1.619756784734512E-001;7.680530361640230E-001;
1.618000000000000E+009;2.250409453191392E-001;7.502839754146233E-001;
1.629000000000000E+009;2.849258833286092E-001;7.286841463290037E-001;
1.640000000000000E+009;3.444208835364602E-001;7.027660401883358E-001;
1.651000000000000E+009;4.020212980488180E-001;6.713094020540869E-001;
1.662000000000000E+009;4.563006659126931E-001;6.339186231764025E-001;
1.673000000000000E+009;5.066448234528697E-001;5.924313258631889E-001;
1.684000000000000E+009;5.519061970962661E-001;5.475090674551832E-001;
1.695000000000000E+009;5.924905377555734E-001;4.999171903696226E-001;
1.706000000000000E+009;6.306046925270966E-001;4.511098972879692E-001;
1.717000000000000E+009;6.642832985955666E-001;3.989319137428506E-001;
1.728000000000000E+009;6.942436860361840E-001;3.445691307425323E-001;
1.739000000000000E+009;7.204917015724174E-001;2.881102083456639E-001;
1.750000000000000E+009;7.433283195100058E-001;2.274996978636211E-001;
1.761000000000000E+009;7.600383680139626E-001;1.640926763137436E-001;
1.772000000000000E+009;7.702916942203357E-001;9.933070331998042E-002;
1.783000000000000E+009;7.735560462490045E-001;3.472395352628673E-002;
1.794000000000000E+009;7.720020614860332E-001;-2.764964473233107E-002;
1.805000000000000E+009;7.662809734910555E-001;-8.922422768513393E-002;
1.816000000000000E+009;7.563084370405239E-001;-1.490307260084399E-001;
1.827000000000000E+009;7.434255462258622E-001;-2.083664715004643E-001;
1.838000000000000E+009;7.257003185337186E-001;-2.678119722899451E-001;
1.849000000000000E+009;7.020215246314097E-001;-3.264395222141849E-001;
1.860000000000000E+009;6.725444921847624E-001;-3.822017797080265E-001;
1.871000000000000E+009;6.382135803101939E-001;-4.338152459687643E-001;
1.882000000000000E+009;5.998368583248366E-001;-4.813802615485057E-001;
1.893000000000000E+009;5.601092654957892E-001;-5.244271872184341E-001;
1.904000000000000E+009;5.176710275758232E-001;-5.644842283666108E-001;
1.915000000000000E+009;4.735974561581731E-001;-6.024302785685664E-001;
1.926000000000000E+009;4.260827911599527E-001;-6.387989340386605E-001;
1.937000000000000E+009;3.739345067428707E-001;-6.706073991647504E-001;
1.948000000000000E+009;3.209711575888989E-001;-6.974254409578141E-001;
1.959000000000000E+009;2.654564868118538E-001;-7.199018862341132E-001;
1.970000000000000E+009;2.100634974138108E-001;-7.375974679707341E-001;
1.981000000000000E+009;1.537863940541434E-001;-7.508590614221187E-001;
1.992000000000000E+009;9.756611595101090E-002;-7.596277170793067E-001;
2.003000000000000E+009;4.216220990786896E-002;-7.646258491355148E-001;
2.014000000000000E+009;-1.324310486327903E-002;-7.663728592871395E-001;
2.025000000000000E+009;-6.944103327833337E-002;-7.647817435730743E-001;
2.036000000000000E+009;-1.270948987945461E-001;-7.570640050036864E-001;
2.047000000000000E+009;-1.814897691278521E-001;-7.440585261660460E-001;
2.058000000000000E+009;-2.356192506682858E-001;-7.276282529174368E-001;
2.069000000000000E+009;-2.855439480743429E-001;-7.059021596113672E-001;
2.080000000000000E+009;-3.327147917809443E-001;-6.850238957897361E-001;
2.091000000000000E+009;-3.810447617483729E-001;-6.594997854188409E-001;
2.102000000000000E+009;-4.296700349416316E-001;-6.290814172662076E-001;
2.113000000000000E+009;-4.704941311674912E-001;-5.964297335816445E-001;
2.124000000000000E+009;-5.107773327883299E-001;-5.629741981602980E-001;
2.135000000000000E+009;-5.491726716352994E-001;-5.256904389651093E-001;
2.146000000000000E+009;-5.837060526297869E-001;-4.858945721628217E-001;
2.157000000000000E+009;-6.152598838046801E-001;-4.447213234365977E-001;
2.168000000000000E+009;-6.443490668170667E-001;-4.013693334604172E-001;
2.179000000000000E+009;-6.697848091963682E-001;-3.556297312378859E-001;
2.190000000000000E+009;-6.910480040500209E-001;-3.075646721207230E-001;
2.201000000000000E+009;-7.080930940777774E-001;-2.601316551836947E-001;
2.212000000000000E+009;-7.231341044474227E-001;-2.112419027309368E-001;
2.223000000000000E+009;-7.335227761701058E-001;-1.613524977363696E-001;
2.234000000000000E+009;-7.401479308649338E-001;-1.120066604108722E-001;
2.245000000000000E+009;-7.440083116675601E-001;-6.295864621254506E-002;
2.256000000000000E+009;-7.457862099694894E-001;-1.438985989271663E-002;
2.267000000000000E+009;-7.436330041403750E-001;3.511031569778308E-002;
2.278000000000000E+009;-7.378582833816048E-001;8.409623673519298E-002;
2.289000000000000E+009;-7.278280979874183E-001;1.318161382125471E-001;
2.300000000000000E+009;-7.148687670527968E-001;1.777785109864755E-001;
2.311000000000000E+009;-7.010301756824433E-001;2.218167116901830E-001;
2.322000000000000E+009;-6.837702496639984E-001;2.662902953646562E-001;
2.333000000000000E+009;-6.633190578016056E-001;3.090118016259903E-001;
2.344000000000000E+009;-6.400519807502906E-001;3.499418489913296E-001;
2.355000000000000E+009;-6.136163170547071E-001;3.892576216049609E-001;
2.366000000000000E+009;-5.857524708548286E-001;4.258653160951300E-001;
2.377000000000000E+009;-5.543798113376661E-001;4.605772141260330E-001;
2.388000000000000E+009;-5.225117524814502E-001;4.917765566109240E-001;
2.399000000000000E+009;-4.888418463810265E-001;5.224225483845234E-001;
2.410000000000000E+009;-4.524456221617161E-001;5.501068854830057E-001;
2.421000000000000E+009;-4.146439938753842E-001;5.748421368642593E-001;
2.432000000000000E+009;-3.756381264698291E-001;5.959118345617815E-001;
2.443000000000000E+009;-3.377329872921462E-001;6.142330069279101E-001;
2.454000000000000E+009;-2.985020921160048E-001;6.315265733817443E-001;
2.465000000000000E+009;-2.586104385030852E-001;6.462214424160944E-001;
2.476000000000000E+009;-2.174484096862057E-001;6.586020800600109E-001;
2.487000000000000E+009;-1.759566641673542E-001;6.684014516410356E-001;
2.498000000000000E+009;-1.329622550175641E-001;6.754143878405364E-001;
2.509000000000000E+009;-8.959514863870170E-002;6.788073384816922E-001;
2.520000000000000E+009;-4.885143274359543E-002;6.805497453976803E-001;
2.531000000000000E+009;-5.778708962592753E-003;6.794317349157243E-001;
2.542000000000000E+009;3.374420837254098E-002;6.761238487095503E-001;
2.553000000000000E+009;7.465778723057577E-002;6.710327688443503E-001;
2.564000000000000E+009;1.134442502935699E-001;6.652523391534486E-001;
2.575000000000000E+009;1.554760133465050E-001;6.581500844841138E-001;
2.586000000000000E+009;1.976441349127304E-001;6.454459375731612E-001;
2.597000000000000E+009;2.363957923791685E-001;6.302541281967410E-001;
2.608000000000000E+009;2.748225076550925E-001;6.136279804812781E-001;
2.619000000000000E+009;3.118458459597800E-001;5.950999799892368E-001;
2.630000000000000E+009;3.485584064865607E-001;5.744106312651651E-001;
2.641000000000000E+009;3.835555733012958E-001;5.516918632553859E-001;
2.652000000000000E+009;4.176510435295776E-001;5.263453878538249E-001;
2.663000000000000E+009;4.501097243817147E-001;4.995151907311971E-001;
2.674000000000000E+009;4.822814781491314E-001;4.709460361124973E-001;
2.685000000000000E+009;5.143767747455140E-001;4.385012031465513E-001;
2.696000000000000E+009;5.431200733804942E-001;4.032528586249537E-001;
2.707000000000000E+009;5.695219378440986E-001;3.658221593386162E-001;
2.718000000000000E+009;5.934620253876830E-001;3.279136879939666E-001;
2.729000000000000E+009;6.166151018076875E-001;2.879715874722809E-001;
2.740000000000000E+009;6.371856116213051E-001;2.457093164028661E-001;
2.751000000000000E+009;6.545942119491878E-001;2.011959121308038E-001;
2.762000000000000E+009;6.686871230424857E-001;1.546347546299977E-001;
2.773000000000000E+009;6.786174611322321E-001;1.074595071368686E-001;
2.784000000000000E+009;6.866466130145710E-001;5.872184432550388E-002;
2.795000000000000E+009;6.897916465567643E-001;8.985307742938681E-003;
2.806000000000000E+009;6.897161749675773E-001;-3.961845526528515E-002;
2.817000000000000E+009;6.876960625017515E-001;-9.003237554317577E-002;
2.828000000000000E+009;6.811582605468316E-001;-1.407261020081038E-001;
2.839000000000000E+009;6.705975334145060E-001;-1.920649477315938E-001;
2.850000000000000E+009;6.554418669877037E-001;-2.419311798544815E-001;
2.861000000000000E+009;6.367716133036254E-001;-2.909846186352600E-001;
2.872000000000000E+009;6.145948783915803E-001;-3.386247297155091E-001;
2.883000000000000E+009;5.889639514525900E-001;-3.852427200620309E-001;
2.894000000000000E+009;5.591644587145661E-001;-4.302862326978723E-001;
2.905000000000000E+009;5.258310862719328E-001;-4.725625773000793E-001;
2.916000000000000E+009;4.887137931726516E-001;-5.128860994624490E-001;
2.927000000000000E+009;4.494791248472319E-001;-5.489900764274099E-001;
2.938000000000000E+009;4.072986289642963E-001;-5.835316510845094E-001;
2.949000000000000E+009;3.621620791403779E-001;-6.132165126705211E-001;
2.960000000000000E+009;3.157498228382693E-001;-6.403200541054587E-001;
2.971000000000000E+009;2.649539960149204E-001;-6.638101344441154E-001;
2.982000000000000E+009;2.147730387697293E-001;-6.840627791995754E-001;
2.993000000000000E+009;1.608541702715511E-001;-7.006899541216983E-001;
3.004000000000000E+009;1.080732290919251E-001;-7.123147498611230E-001;
3.015000000000000E+009;5.362018371765292E-002;-7.201820024664806E-001;
3.026000000000000E+009;-1.488275429366675E-003;-7.228574572375468E-001;
3.037000000000000E+009;-5.538290834009494E-002;-7.223996330191030E-001;
3.048000000000000E+009;-1.107384055011415E-001;-7.178031869476470E-001;
3.059000000000000E+009;-1.646067971091715E-001;-7.088839150022390E-001;
3.070000000000000E+009;-2.180235424108472E-001;-6.959377209348988E-001;
3.081000000000000E+009;-2.707848318308617E-001;-6.796882086511287E-001;
3.092000000000000E+009;-3.230284698112596E-001;-6.583182832154217E-001;
3.103000000000000E+009;-3.725337734444058E-001;-6.331315338235615E-001;
3.114000000000000E+009;-4.202791721439442E-001;-6.044916467913687E-001;
3.125000000000000E+009;-4.650398771304233E-001;-5.722689734606743E-001;
3.136000000000000E+009;-5.076833049541828E-001;-5.385558548613415E-001;
3.147000000000000E+009;-5.480923151032803E-001;-4.990737002923498E-001;
3.158000000000000E+009;-5.836446470072381E-001;-4.582312321152862E-001;
3.169000000000000E+009;-6.176285762658427E-001;-4.144476453454446E-001;
