# Version 1.00
#
freq[Hz];re:Trc1_S22;im:Trc1_S22;
1.000000000000000E+008;9.948893236632725E-001;-8.623370051287246E-002;
1.110000000000000E+008;9.940092536946367E-001;-9.632072694870937E-002;
1.220000000000000E+008;9.925514034422854E-001;-1.066394032590959E-001;
1.330000000000000E+008;9.908417440825272E-001;-1.176054782618963E-001;
1.440000000000000E+008;9.887266867692784E-001;-1.287808745792198E-001;
1.550000000000000E+008;9.860744173940885E-001;-1.396030785143282E-001;
1.660000000000000E+008;9.831525144935223E-001;-1.502121154555449E-001;
1.770000000000000E+008;9.795191627030391E-001;-1.585396894409663E-001;
1.880000000000000E+008;9.768831775764074E-001;-1.651566339094472E-001;
1.990000000000000E+008;9.743738770935194E-001;-1.711982670160197E-001;
2.100000000000000E+008;9.727158846072233E-001;-1.782824175538022E-001;
2.210000000000000E+008;9.719930274473316E-001;-1.864210865897929E-001;
2.320000000000000E+008;9.707648952706165E-001;-1.979337546957610E-001;
2.430000000000000E+008;9.681704438813136E-001;-2.096068397798243E-001;
2.540000000000000E+008;9.654113832161695E-001;-2.206520914875078E-001;
2.650000000000000E+008;9.626771505789140E-001;-2.301420444904651E-001;
2.760000000000000E+008;9.600465476030106E-001;-2.380969886318685E-001;
2.870000000000000E+008;9.578671327467452E-001;-2.445023284065724E-001;
2.980000000000000E+008;9.554176814851644E-001;-2.520025075842829E-001;
3.090000000000000E+008;9.526881425687805E-001;-2.593669151563954E-001;
3.200000000000000E+008;9.489611621066512E-001;-2.681133604128026E-001;
3.310000000000000E+008;9.447837086880006E-001;-2.779416431965874E-001;
3.420000000000000E+008;9.401648422858788E-001;-2.874965576865493E-001;
3.530000000000000E+008;9.367985030433268E-001;-2.968176294436765E-001;
3.640000000000000E+008;9.350658303133798E-001;-3.061241220113025E-001;
3.750000000000000E+008;9.328121431994821E-001;-3.153653973776771E-001;
3.860000000000000E+008;9.311328705998407E-001;-3.224453207154766E-001;
3.970000000000000E+008;9.293931157183812E-001;-3.295027179292842E-001;
4.080000000000000E+008;9.264430616561572E-001;-3.368047613026461E-001;
4.190000000000000E+008;9.233438135085742E-001;-3.450975268750550E-001;
4.300000000000000E+008;9.192834264094981E-001;-3.557353139478038E-001;
4.410000000000000E+008;9.145011715025658E-001;-3.676174955372304E-001;
4.520000000000000E+008;9.093825933362192E-001;-3.798456055293337E-001;
4.630000000000000E+008;9.044525683403795E-001;-3.909611678201299E-001;
4.740000000000000E+008;9.006854992172738E-001;-4.005700717175891E-001;
4.850000000000000E+008;8.983025493197000E-001;-4.097090895964125E-001;
4.960000000000000E+008;8.957814167942824E-001;-4.188661719078784E-001;
5.070000000000000E+008;8.925323825615161E-001;-4.282064673107152E-001;
5.180000000000000E+008;8.876476892558863E-001;-4.386331109114838E-001;
5.290000000000000E+008;8.811477743069555E-001;-4.503895479660707E-001;
5.400000000000000E+008;8.733643856973324E-001;-4.628743349253248E-001;
5.510000000000000E+008;8.648808710666355E-001;-4.758222234554216E-001;
5.620000000000000E+008;8.567730166280261E-001;-4.884895010789573E-001;
5.730000000000000E+008;8.501911793873502E-001;-5.008206371269515E-001;
5.840000000000000E+008;8.445640694235536E-001;-5.119350051310657E-001;
5.950000000000000E+008;8.391880628670138E-001;-5.218836973688631E-001;
6.060000000000000E+008;8.329681380861322E-001;-5.320668254488230E-001;
6.170000000000000E+008;8.247295956648479E-001;-5.426921246318910E-001;
6.280000000000000E+008;8.147485061265140E-001;-5.540720326133234E-001;
6.390000000000000E+008;8.031577321838334E-001;-5.663937000501248E-001;
6.500000000000000E+008;7.910702810588846E-001;-5.791964918424221E-001;
6.610000000000000E+008;7.803780314644874E-001;-5.910022798524259E-001;
6.720000000000000E+008;7.703680958371260E-001;-6.021289944088289E-001;
6.830000000000000E+008;7.610526185871918E-001;-6.126554874363115E-001;
6.940000000000000E+008;7.526648231218982E-001;-6.224149251167495E-001;
7.050000000000000E+008;7.441808579745436E-001;-6.325360598151238E-001;
7.160000000000000E+008;7.342131449326186E-001;-6.436786419295014E-001;
7.270000000000000E+008;7.222444136141849E-001;-6.547084144195786E-001;
7.380000000000000E+008;7.080419422340537E-001;-6.662123551896403E-001;
7.490000000000000E+008;6.915678787931925E-001;-6.786708389631345E-001;
7.600000000000000E+008;6.747990678123054E-001;-6.909540603777643E-001;
7.710000000000000E+008;6.596015343946489E-001;-7.023439752565885E-001;
7.820000000000000E+008;6.459368464642200E-001;-7.131928686821710E-001;
7.930000000000000E+008;6.345108232520624E-001;-7.224237782913230E-001;
8.040000000000000E+008;6.226960959729635E-001;-7.323357843570991E-001;
8.150000000000000E+008;6.074663521485573E-001;-7.408610802908303E-001;
8.260000000000000E+008;5.911304141250424E-001;-7.505701657506485E-001;
8.370000000000000E+008;5.693343085178703E-001;-7.609784937770271E-001;
8.480000000000000E+008;5.472194043330949E-001;-7.717908085212724E-001;
8.590000000000000E+008;5.252506037970482E-001;-7.827084659929289E-001;
8.700000000000000E+008;5.041993362112576E-001;-7.930017630697437E-001;
8.810000000000000E+008;4.823579401569605E-001;-8.018644272755788E-001;
8.920000000000000E+008;4.619231399860475E-001;-8.088095881363141E-001;
9.030000000000000E+008;4.411812883782517E-001;-8.156223257076127E-001;
9.140000000000000E+008;4.193649733754000E-001;-8.215957978000371E-001;
9.250000000000000E+008;3.959614945718384E-001;-8.263308978701022E-001;
9.360000000000000E+008;3.680453764886669E-001;-8.303429669224138E-001;
9.470000000000000E+008;3.368868446012346E-001;-8.335591503622442E-001;
9.580000000000000E+008;3.061856528257556E-001;-8.378237703081511E-001;
9.690000000000000E+008;2.732858751746745E-001;-8.417164669653102E-001;
9.800000000000000E+008;2.433938988623832E-001;-8.433475033048536E-001;
9.910000000000000E+008;2.172035425495101E-001;-8.435718896621334E-001;
1.002000000000000E+009;1.881410434984149E-001;-8.432394114460836E-001;
1.013000000000000E+009;1.596956888740998E-001;-8.369457742572337E-001;
1.024000000000000E+009;1.262191094669347E-001;-8.324204958379254E-001;
1.035000000000000E+009;8.612829899685229E-002;-8.246183129206863E-001;
1.046000000000000E+009;4.394544357233408E-002;-8.102386497969673E-001;
1.057000000000000E+009;6.668278416479630E-003;-7.929073574775513E-001;
1.068000000000000E+009;-2.737429364384498E-002;-7.768505013411656E-001;
1.079000000000000E+009;-6.363564109483728E-002;-7.594910455946591E-001;
1.090000000000000E+009;-9.021925377503234E-002;-7.347993502527955E-001;
1.101000000000000E+009;-1.121011064733129E-001;-7.193059115155938E-001;
1.112000000000000E+009;-1.437348894715483E-001;-7.036519772493464E-001;
1.123000000000000E+009;-1.764293263191466E-001;-6.728244680888466E-001;
1.134000000000000E+009;-2.103091039857461E-001;-6.383271189417641E-001;
1.145000000000000E+009;-2.360307983161030E-001;-6.000271300885964E-001;
1.156000000000000E+009;-2.706983564854425E-001;-5.646094802581517E-001;
1.167000000000000E+009;-2.943648480593020E-001;-5.247658584374579E-001;
1.178000000000000E+009;-3.211167749603305E-001;-4.900986391924664E-001;
1.189000000000000E+009;-3.351821449309399E-001;-4.493174756559521E-001;
1.200000000000000E+009;-3.534474495950450E-001;-4.102842337076345E-001;
1.211000000000000E+009;-3.640785393099177E-001;-3.588542328288689E-001;
1.222000000000000E+009;-3.671321811194864E-001;-3.048286375117369E-001;
1.233000000000000E+009;-3.622766978662161E-001;-2.565788470565141E-001;
1.244000000000000E+009;-3.593398478790229E-001;-2.087255560804355E-001;
1.255000000000000E+009;-3.562407727378368E-001;-1.640073881065391E-001;
1.266000000000000E+009;-3.523781284984763E-001;-1.185199214094004E-001;
1.277000000000000E+009;-3.400924701819688E-001;-7.109906332155981E-002;
1.288000000000000E+009;-3.156523983182699E-001;-4.296025694648534E-002;
1.299000000000000E+009;-3.007201989520804E-001;-1.331498929243016E-002;
1.310000000000000E+009;-2.819328027060497E-001;1.104367966301015E-002;
1.321000000000000E+009;-2.663934708933216E-001;4.269440083231346E-002;
1.332000000000000E+009;-2.486663247584710E-001;7.103705420242588E-002;
1.343000000000000E+009;-2.322669775770007E-001;1.055773288788700E-001;
1.354000000000000E+009;-2.105066674028713E-001;1.364345181248378E-001;
1.365000000000000E+009;-2.054639217748054E-001;1.517887510068396E-001;
1.376000000000000E+009;-1.917710568063993E-001;1.972276515574041E-001;
1.387000000000000E+009;-1.651524106846448E-001;2.204105298686509E-001;
1.398000000000000E+009;-1.363585907609092E-001;2.444838046662537E-001;
1.409000000000000E+009;-1.114191162614846E-001;2.657602668046534E-001;
1.420000000000000E+009;-7.737222747535760E-002;2.943250795884360E-001;
1.431000000000000E+009;-3.711867598111160E-002;3.130261730250258E-001;
1.442000000000000E+009;-3.316421931990245E-003;3.315851337220915E-001;
1.453000000000000E+009;3.008192866032636E-002;3.416607318825541E-001;
1.464000000000000E+009;5.349194881405376E-002;3.504601406225941E-001;
1.475000000000000E+009;8.180916242428346E-002;3.583943198302508E-001;
1.486000000000000E+009;1.079060230056372E-001;3.650372007067901E-001;
1.497000000000000E+009;1.356651467121819E-001;3.628009297509512E-001;
1.508000000000000E+009;1.647240629185961E-001;3.611981781048479E-001;
1.519000000000000E+009;1.967525483590416E-001;3.631147834009086E-001;
1.530000000000000E+009;2.281680648964845E-001;3.568411807803735E-001;
1.541000000000000E+009;2.506120722015983E-001;3.542011766619790E-001;
1.552000000000000E+009;2.670502692067120E-001;3.548609889051057E-001;
1.563000000000000E+009;2.856426269621896E-001;3.590746499236679E-001;
1.574000000000000E+009;3.002427792033876E-001;3.617509313377759E-001;
1.585000000000000E+009;3.237871406249108E-001;3.588799587442929E-001;
1.596000000000000E+009;3.406437543250959E-001;3.452328857961471E-001;
1.607000000000000E+009;3.571304997007404E-001;3.383183294100396E-001;
1.618000000000000E+009;3.773893198207292E-001;3.266602046215119E-001;
1.629000000000000E+009;3.962140483633227E-001;3.268786666599124E-001;
1.640000000000000E+009;4.187305713326529E-001;3.231592760565746E-001;
1.651000000000000E+009;4.362111674021274E-001;3.207481986623658E-001;
1.662000000000000E+009;4.521640151537151E-001;3.206827065070936E-001;
1.673000000000000E+009;4.645423020631778E-001;3.175330043420774E-001;
1.684000000000000E+009;4.779564429757144E-001;3.133217681584131E-001;
1.695000000000000E+009;4.901439288003165E-001;3.039913581880598E-001;
1.706000000000000E+009;5.097853380389301E-001;2.938346723940936E-001;
1.717000000000000E+009;5.248960127406404E-001;2.774914156590458E-001;
1.728000000000000E+009;5.422380581497011E-001;2.671106187233359E-001;
1.739000000000000E+009;5.613436758141708E-001;2.576947863523923E-001;
1.750000000000000E+009;5.779338339899095E-001;2.461156157149740E-001;
1.761000000000000E+009;5.872644580988162E-001;2.399216625403256E-001;
1.772000000000000E+009;5.936777159565230E-001;2.337211882326657E-001;
1.783000000000000E+009;6.024709178340122E-001;2.223959492972964E-001;
1.794000000000000E+009;6.040935737152442E-001;2.078680751104179E-001;
1.805000000000000E+009;6.090220567695972E-001;1.969917890774523E-001;
1.816000000000000E+009;6.168551541634844E-001;1.811253763079098E-001;
1.827000000000000E+009;6.253987290891241E-001;1.729150285508734E-001;
1.838000000000000E+009;6.376044427723245E-001;1.636648956241965E-001;
1.849000000000000E+009;6.495754039281458E-001;1.575527866838098E-001;
1.860000000000000E+009;6.620089110830386E-001;1.517779946397180E-001;
1.871000000000000E+009;6.694301866482176E-001;1.464041505085300E-001;
1.882000000000000E+009;6.732537718948859E-001;1.355178706325802E-001;
1.893000000000000E+009;6.744148779826105E-001;1.259683146112517E-001;
1.904000000000000E+009;6.776392758759811E-001;1.110993895190227E-001;
1.915000000000000E+009;6.821544727810437E-001;9.499806973731352E-002;
1.926000000000000E+009;6.897069983585336E-001;7.735334846574668E-002;
1.937000000000000E+009;6.898285794839059E-001;6.086662354303062E-002;
1.948000000000000E+009;6.953370078039395E-001;5.791628493379359E-002;
1.959000000000000E+009;7.018640201118854E-001;5.556313588815629E-002;
1.970000000000000E+009;7.066800218063368E-001;5.206929003532115E-002;
1.981000000000000E+009;7.095822561458353E-001;4.650934247636478E-002;
1.992000000000000E+009;7.070047204914463E-001;3.899104528275111E-002;
2.003000000000000E+009;7.078446670660299E-001;2.873527997136025E-002;
2.014000000000000E+009;7.074579106105025E-001;1.433822526282394E-002;
2.025000000000000E+009;7.077022260974908E-001;2.736678881108312E-003;
2.036000000000000E+009;7.149633658948763E-001;-6.783508542999972E-003;
2.047000000000000E+009;7.212995504660831E-001;-1.612785520261454E-002;
2.058000000000000E+009;7.274862892947805E-001;-2.274677246175679E-002;
2.069000000000000E+009;7.305798639467513E-001;-2.579292062054248E-002;
2.080000000000000E+009;7.310630874726627E-001;-2.729888040421127E-002;
2.091000000000000E+009;7.295570971341441E-001;-3.131446237121833E-002;
2.102000000000000E+009;7.286585907621130E-001;-3.859841726364492E-002;
2.113000000000000E+009;7.258982876492349E-001;-5.178439765412754E-002;
2.124000000000000E+009;7.260903242669009E-001;-6.402949768086903E-002;
2.135000000000000E+009;7.290177261410006E-001;-7.786679841878741E-002;
2.146000000000000E+009;7.313832599054772E-001;-8.839832833443821E-002;
2.157000000000000E+009;7.346103491637184E-001;-9.383674131790595E-002;
2.168000000000000E+009;7.382967382048427E-001;-9.715819521504350E-002;
2.179000000000000E+009;7.375382522484228E-001;-9.889462144291704E-002;
2.190000000000000E+009;7.347252218161572E-001;-1.006757305324223E-001;
2.201000000000000E+009;7.303077435430611E-001;-1.045111176478633E-001;
2.212000000000000E+009;7.261747340506978E-001;-1.126224816393945E-001;
2.223000000000000E+009;7.239383451140196E-001;-1.246745189720153E-001;
2.234000000000000E+009;7.224548215712419E-001;-1.383911204955949E-001;
2.245000000000000E+009;7.248443015640438E-001;-1.489425516815891E-001;
2.256000000000000E+009;7.262248148102597E-001;-1.596810449666773E-001;
2.267000000000000E+009;7.274087767843488E-001;-1.600328208304741E-001;
2.278000000000000E+009;7.270172093711874E-001;-1.611352538085076E-001;
2.289000000000000E+009;7.245589378925011E-001;-1.593261297012953E-001;
2.300000000000000E+009;7.201433558962775E-001;-1.607073786114451E-001;
2.311000000000000E+009;7.174354576967003E-001;-1.669809177867287E-001;
2.322000000000000E+009;7.119392893701219E-001;-1.771073588250198E-001;
2.333000000000000E+009;7.093578311898628E-001;-1.897686325300882E-001;
2.344000000000000E+009;7.092900433830035E-001;-2.012012340829248E-001;
2.355000000000000E+009;7.098304425022270E-001;-2.088098705418842E-001;
2.366000000000000E+009;7.136904547739877E-001;-2.129707990028875E-001;
2.377000000000000E+009;7.141675406315237E-001;-2.121889326612974E-001;
2.388000000000000E+009;7.169175988078650E-001;-2.110437610425027E-001;
2.399000000000000E+009;7.142257808517728E-001;-2.143122545607231E-001;
2.410000000000000E+009;7.071510894742265E-001;-2.205998065105033E-001;
2.421000000000000E+009;7.003192260116237E-001;-2.302045047978961E-001;
2.432000000000000E+009;6.938664083533079E-001;-2.416619180638369E-001;
2.443000000000000E+009;6.929433924372425E-001;-2.536681415270817E-001;
2.454000000000000E+009;6.943814013111683E-001;-2.644399868012161E-001;
2.465000000000000E+009;6.953418112027890E-001;-2.710805618253233E-001;
2.476000000000000E+009;6.981835115449118E-001;-2.698410929663599E-001;
2.487000000000000E+009;7.012928340992117E-001;-2.698569374697373E-001;
2.498000000000000E+009;6.982056191001835E-001;-2.701730359564953E-001;
2.509000000000000E+009;6.934761554409912E-001;-2.757373886594060E-001;
2.520000000000000E+009;6.812193465166032E-001;-2.834290380033296E-001;
2.531000000000000E+009;6.736987198101256E-001;-2.919334761856808E-001;
2.542000000000000E+009;6.675243380354536E-001;-3.021058825973271E-001;
2.553000000000000E+009;6.670284376272020E-001;-3.108442136137645E-001;
2.564000000000000E+009;6.696212890193367E-001;-3.180355795358888E-001;
2.575000000000000E+009;6.733787060484732E-001;-3.223155146601980E-001;
2.586000000000000E+009;6.741821926114741E-001;-3.214472744804559E-001;
2.597000000000000E+009;6.720082912744458E-001;-3.181464819964160E-001;
2.608000000000000E+009;6.664633171086197E-001;-3.166519417205302E-001;
2.619000000000000E+009;6.578997693694029E-001;-3.179744570752604E-001;
2.630000000000000E+009;6.507063213307468E-001;-3.259810906170548E-001;
2.641000000000000E+009;6.407547076399959E-001;-3.347021420516029E-001;
2.652000000000000E+009;6.390252930663960E-001;-3.418628541079278E-001;
2.663000000000000E+009;6.399455899277117E-001;-3.492108401325589E-001;
2.674000000000000E+009;6.435015647144171E-001;-3.510713831170874E-001;
2.685000000000000E+009;6.491373550491197E-001;-3.503834570107131E-001;
2.696000000000000E+009;6.505026459545831E-001;-3.488881063100652E-001;
2.707000000000000E+009;6.488307253909589E-001;-3.480512649014070E-001;
2.718000000000000E+009;6.408466996208039E-001;-3.514457280090878E-001;
2.729000000000000E+009;6.304008008019304E-001;-3.564496989779346E-001;
2.740000000000000E+009;6.216983603043289E-001;-3.666375974089605E-001;
2.751000000000000E+009;6.134722025802467E-001;-3.781186941871155E-001;
2.762000000000000E+009;6.109229728682489E-001;-3.872384011374701E-001;
2.773000000000000E+009;6.123328763752107E-001;-3.934305223114973E-001;
2.784000000000000E+009;6.142281835738698E-001;-3.959632816694381E-001;
2.795000000000000E+009;6.157575627479200E-001;-3.948891615365642E-001;
2.806000000000000E+009;6.128990829701618E-001;-3.939405908767467E-001;
2.817000000000000E+009;6.047800864583866E-001;-3.944928851795506E-001;
2.828000000000000E+009;5.927773143656560E-001;-3.988138251912316E-001;
2.839000000000000E+009;5.803240029940284E-001;-4.058751410912443E-001;
2.850000000000000E+009;5.712178044997286E-001;-4.169308072442741E-001;
2.861000000000000E+009;5.645908851022351E-001;-4.294979163079233E-001;
2.872000000000000E+009;5.607785803924297E-001;-4.375219346764442E-001;
2.883000000000000E+009;5.609139868129206E-001;-4.397156080800562E-001;
2.894000000000000E+009;5.634086626967302E-001;-4.364875995978240E-001;
2.905000000000000E+009;5.638724481125076E-001;-4.331352283693620E-001;
2.916000000000000E+009;5.576090797843276E-001;-4.307811220438175E-001;
2.927000000000000E+009;5.483889427217563E-001;-4.299660858540993E-001;
2.938000000000000E+009;5.360666966359037E-001;-4.378266376003050E-001;
2.949000000000000E+009;5.224129882856241E-001;-4.456544654051839E-001;
2.960000000000000E+009;5.132841062142345E-001;-4.572787626132528E-001;
2.971000000000000E+009;5.086833901928085E-001;-4.644131764970730E-001;
2.982000000000000E+009;5.103964551963094E-001;-4.684058335457437E-001;
2.993000000000000E+009;5.144941413784283E-001;-4.703745044397752E-001;
3.004000000000000E+009;5.138524515460615E-001;-4.679935899911601E-001;
3.015000000000000E+009;5.111018583816261E-001;-4.615646508541836E-001;
3.026000000000000E+009;5.024601771991296E-001;-4.593010027359544E-001;
3.037000000000000E+009;4.897501707260647E-001;-4.605872933249531E-001;
3.048000000000000E+009;4.739310601798719E-001;-4.686527844272429E-001;
3.059000000000000E+009;4.603381938979200E-001;-4.776804415137128E-001;
3.070000000000000E+009;4.511526200850317E-001;-4.857117319399545E-001;
3.081000000000000E+009;4.515028905694096E-001;-4.901754001065421E-001;
3.092000000000000E+009;4.548271532514034E-001;-4.938428764834920E-001;
3.103000000000000E+009;4.540598157356288E-001;-4.910653330086380E-001;
3.114000000000000E+009;4.521186255863782E-001;-4.854916530113252E-001;
3.125000000000000E+009;4.439931293347492E-001;-4.801571709082584E-001;
3.136000000000000E+009;4.307272266343797E-001;-4.781760203355166E-001;
3.147000000000000E+009;4.136016495804880E-001;-4.798584904295270E-001;
3.158000000000000E+009;3.965847269248430E-001;-4.840506468942648E-001;
3.169000000000000E+009;3.852005456506555E-001;-4.917102231841543E-001;
3.180000000000000E+009;3.783681806185951E-001;-4.976505750602830E-001;
