# Version 1.00
#
freq[Hz];re:Trc1_S22;im:Trc1_S22;
1.000000000000000E+008;7.128246837323577E-001;-6.627724175487260E-001;
1.110000000000000E+008;6.548058478165478E-001;-7.156648833925430E-001;
1.220000000000000E+008;5.923666781194169E-001;-7.639558845507259E-001;
1.330000000000000E+008;5.254907888644166E-001;-8.117892244785726E-001;
1.440000000000000E+008;4.535442234307329E-001;-8.461718518501104E-001;
1.550000000000000E+008;3.810628537969028E-001;-8.779080015482036E-001;
1.660000000000000E+008;3.043091228215342E-001;-9.056222613361930E-001;
1.770000000000000E+008;2.198724017060866E-001;-9.203161452370400E-001;
1.880000000000000E+008;1.378348630042320E-001;-9.213379485874260E-001;
1.990000000000000E+008;6.789071581573758E-002;-9.088072245391710E-001;
2.100000000000000E+008;1.540152780858260E-002;-9.031546147150402E-001;
2.210000000000000E+008;-4.833758841176276E-002;-9.086984692497664E-001;
2.320000000000000E+008;-1.175177187090070E-001;-9.085185309742018E-001;
2.430000000000000E+008;-1.910527279993398E-001;-9.036447022735568E-001;
2.540000000000000E+008;-2.724820589724746E-001;-8.921648777152000E-001;
2.650000000000000E+008;-3.510793269152744E-001;-8.675324088039803E-001;
2.760000000000000E+008;-4.292122372978946E-001;-8.338272305336143E-001;
2.870000000000000E+008;-4.994400316275130E-001;-7.902616203861984E-001;
2.980000000000000E+008;-5.651787521095141E-001;-7.437958154153241E-001;
3.090000000000000E+008;-6.264067117075882E-001;-6.932730234472478E-001;
3.200000000000000E+008;-6.884753756162122E-001;-6.390188489964117E-001;
3.310000000000000E+008;-7.468372853614088E-001;-5.728922129008571E-001;
3.420000000000000E+008;-7.951527961911943E-001;-5.022966806529482E-001;
3.530000000000000E+008;-8.393025666996619E-001;-4.267386044625954E-001;
3.640000000000000E+008;-8.746735098538829E-001;-3.454756634798137E-001;
3.750000000000000E+008;-9.008828814375403E-001;-2.616690787348232E-001;
3.860000000000000E+008;-9.200189143098632E-001;-1.790347875754902E-001;
3.970000000000000E+008;-9.361311622695178E-001;-9.387130053989461E-002;
4.080000000000000E+008;-9.445922597511780E-001;-2.370446961127102E-003;
4.190000000000000E+008;-9.410008334286132E-001;9.086173327006432E-002;
4.300000000000000E+008;-9.273738088981722E-001;1.832502301643074E-001;
4.410000000000000E+008;-9.033424419442119E-001;2.744277883234512E-001;
4.520000000000000E+008;-8.703163372913041E-001;3.626945274821595E-001;
4.630000000000000E+008;-8.281247767452362E-001;4.480982817885003E-001;
4.740000000000000E+008;-7.752671230453702E-001;5.291960763241664E-001;
4.850000000000000E+008;-7.136418375440740E-001;6.031064099521584E-001;
4.960000000000000E+008;-6.436289719867627E-001;6.683381943736738E-001;
5.070000000000000E+008;-5.692395962718140E-001;7.243718171596818E-001;
5.180000000000000E+008;-4.902156671969877E-001;7.737937348601559E-001;
5.290000000000000E+008;-4.057823673917473E-001;8.135585410115696E-001;
5.400000000000000E+008;-3.182190601212523E-001;8.440799495304460E-001;
5.510000000000000E+008;-2.293905550963481E-001;8.634087118426221E-001;
5.620000000000000E+008;-1.410115018648186E-001;8.719765484326516E-001;
5.730000000000000E+008;-5.685569998040341E-002;8.710191100677778E-001;
5.840000000000000E+008;2.211010172793010E-002;8.658781082445186E-001;
5.950000000000000E+008;1.041762854228050E-001;8.585187126750513E-001;
6.060000000000000E+008;1.876985649517374E-001;8.395995344538443E-001;
6.170000000000000E+008;2.669810365148204E-001;8.130106957481992E-001;
6.280000000000000E+008;3.472376164879339E-001;7.798500914187548E-001;
6.390000000000000E+008;4.254409699127362E-001;7.315906197494969E-001;
6.500000000000000E+008;4.915506899574307E-001;6.730204683682601E-001;
6.610000000000000E+008;5.473856975804199E-001;6.147270580846449E-001;
6.720000000000000E+008;5.998799753596897E-001;5.502442389225034E-001;
6.830000000000000E+008;6.414676163799241E-001;4.779120717214918E-001;
6.940000000000000E+008;6.691801750978099E-001;4.063275204961487E-001;
7.050000000000000E+008;6.933395408124874E-001;3.432605423295175E-001;
7.160000000000000E+008;7.188428770585729E-001;2.719921731388916E-001;
7.270000000000000E+008;7.317289776734253E-001;1.940984603795879E-001;
7.380000000000000E+008;7.300734381371510E-001;1.155247426205816E-001;
7.490000000000000E+008;7.191586942334295E-001;4.646085484169556E-002;
7.600000000000000E+008;7.004187287184501E-001;-2.218527436224081E-002;
7.710000000000000E+008;6.798760809760621E-001;-8.280570670984917E-002;
7.820000000000000E+008;6.489802220596761E-001;-1.470465700539758E-001;
7.930000000000000E+008;6.070215099816501E-001;-2.020881433794176E-001;
8.040000000000000E+008;5.586324354877726E-001;-2.411176882272484E-001;
8.150000000000000E+008;5.199178435124272E-001;-2.709591316554955E-001;
8.260000000000000E+008;4.785900152789189E-001;-3.014713700124690E-001;
8.370000000000000E+008;4.347006021288791E-001;-3.264787228735005E-001;
8.480000000000000E+008;3.844197420110980E-001;-3.461540611478372E-001;
8.590000000000000E+008;3.364519587973667E-001;-3.515696787214207E-001;
8.700000000000000E+008;2.942412237884339E-001;-3.440813839708000E-001;
8.810000000000000E+008;2.650479983678231E-001;-3.332879055129617E-001;
8.920000000000000E+008;2.455754483172906E-001;-3.283262578869582E-001;
9.030000000000000E+008;2.219234566268562E-001;-3.289607063351033E-001;
9.140000000000000E+008;1.958932979792444E-001;-3.192745417114615E-001;
9.250000000000000E+008;1.727555404363065E-001;-3.096651260844364E-001;
9.360000000000000E+008;1.520650483057076E-001;-2.889764023537649E-001;
9.470000000000000E+008;1.428386825313376E-001;-2.642727923250920E-001;
9.580000000000000E+008;1.525915055661185E-001;-2.393556787495899E-001;
9.690000000000000E+008;1.692005965877325E-001;-2.344546247121745E-001;
9.800000000000000E+008;1.837643596963055E-001;-2.344358115453938E-001;
9.910000000000000E+008;2.025487659000324E-001;-2.453229893666588E-001;
1.002000000000000E+009;2.076078409825282E-001;-2.704906054371951E-001;
1.013000000000000E+009;2.040438772183310E-001;-2.857521827381124E-001;
1.024000000000000E+009;2.027532484892297E-001;-2.991852136403640E-001;
1.035000000000000E+009;2.041709922777043E-001;-3.061366152675588E-001;
1.046000000000000E+009;2.232867135256399E-001;-3.252141298184049E-001;
1.057000000000000E+009;2.285378601205381E-001;-3.663705273299305E-001;
1.068000000000000E+009;2.181770460038068E-001;-4.086645386525177E-001;
1.079000000000000E+009;1.950578862147112E-001;-4.485814955988500E-001;
1.090000000000000E+009;1.629337969675412E-001;-4.770393064233929E-001;
1.101000000000000E+009;1.347864269163151E-001;-4.968942076317957E-001;
1.112000000000000E+009;1.082667729153196E-001;-5.196615906953993E-001;
1.123000000000000E+009;7.712466562693159E-002;-5.458975186471289E-001;
1.134000000000000E+009;3.578902347547400E-002;-5.678680200688538E-001;
1.145000000000000E+009;-6.312455330794093E-003;-5.834660497282044E-001;
1.156000000000000E+009;-4.825057679687785E-002;-5.956710584350802E-001;
1.167000000000000E+009;-9.595515714374175E-002;-6.086327255348238E-001;
1.178000000000000E+009;-1.474052788826177E-001;-6.117406515851297E-001;
1.189000000000000E+009;-1.979117317204068E-001;-6.116448902883057E-001;
1.200000000000000E+009;-2.485410024530033E-001;-6.025614554682641E-001;
1.211000000000000E+009;-2.949497624237217E-001;-5.950844032409216E-001;
1.222000000000000E+009;-3.466599570207031E-001;-5.840813946802037E-001;
1.233000000000000E+009;-3.991817283202890E-001;-5.663642037075727E-001;
1.244000000000000E+009;-4.527755975602142E-001;-5.402284026566488E-001;
1.255000000000000E+009;-5.034210146384456E-001;-5.035459058781010E-001;
1.266000000000000E+009;-5.425395335859991E-001;-4.605509414875464E-001;
1.277000000000000E+009;-5.745883611473123E-001;-4.182688301638253E-001;
1.288000000000000E+009;-6.039250198461194E-001;-3.791379018227053E-001;
1.299000000000000E+009;-6.353038279854603E-001;-3.394048816780660E-001;
1.310000000000000E+009;-6.671503925059646E-001;-2.916913245274116E-001;
1.321000000000000E+009;-6.913637378752277E-001;-2.403245773150679E-001;
1.332000000000000E+009;-7.117912308095461E-001;-1.888863668972709E-001;
1.343000000000000E+009;-7.292938051780611E-001;-1.350028843942126E-001;
1.354000000000000E+009;-7.425444415690909E-001;-7.980337645619755E-002;
1.365000000000000E+009;-7.506487338745863E-001;-2.090678363987172E-002;
1.376000000000000E+009;-7.529591351109533E-001;3.484181998282430E-002;
1.387000000000000E+009;-7.528778265600603E-001;9.212942247181352E-002;
1.398000000000000E+009;-7.492962266918528E-001;1.509048647919570E-001;
1.409000000000000E+009;-7.395862631277089E-001;2.104801358698949E-001;
1.420000000000000E+009;-7.243924107334558E-001;2.721800056933528E-001;
1.431000000000000E+009;-6.994934613377006E-001;3.323750174937524E-001;
1.442000000000000E+009;-6.669421039667798E-001;3.863959529878183E-001;
1.453000000000000E+009;-6.337503329234405E-001;4.330046379011875E-001;
1.464000000000000E+009;-6.035641674963699E-001;4.795622878260514E-001;
1.475000000000000E+009;-5.679832349954991E-001;5.303173407441790E-001;
1.486000000000000E+009;-5.243175888955024E-001;5.801959975233088E-001;
1.497000000000000E+009;-4.730665201876287E-001;6.218600003988865E-001;
1.508000000000000E+009;-4.203607144833487E-001;6.580271518977952E-001;
1.519000000000000E+009;-3.654258274771300E-001;6.881666164109423E-001;
1.530000000000000E+009;-3.102895934586496E-001;7.150657601094914E-001;
1.541000000000000E+009;-2.531735814525740E-001;7.368092795897765E-001;
1.552000000000000E+009;-1.961276563716024E-001;7.572616917473963E-001;
1.563000000000000E+009;-1.326916596344296E-001;7.731855316525638E-001;
1.574000000000000E+009;-6.938883133048832E-002;7.820570813510839E-001;
1.585000000000000E+009;-4.228019502648084E-003;7.869230460748815E-001;
1.596000000000000E+009;6.318696184240127E-002;7.852537683358593E-001;
1.607000000000000E+009;1.300008074980152E-001;7.756773975407288E-001;
1.618000000000000E+009;1.944235402818065E-001;7.592498017493760E-001;
1.629000000000000E+009;2.549050119320577E-001;7.392849115133778E-001;
1.640000000000000E+009;3.151820386965912E-001;7.139503645845751E-001;
1.651000000000000E+009;3.713820953954315E-001;6.858503423897786E-001;
1.662000000000000E+009;4.293014313509433E-001;6.528418658767878E-001;
1.673000000000000E+009;4.825049200810583E-001;6.112818717370745E-001;
1.684000000000000E+009;5.282961341647634E-001;5.677218924296674E-001;
1.695000000000000E+009;5.712118301838678E-001;5.215727347848139E-001;
1.706000000000000E+009;6.109163777967994E-001;4.741103300615464E-001;
1.717000000000000E+009;6.465787742007300E-001;4.228138416491016E-001;
1.728000000000000E+009;6.784216747558023E-001;3.688490219883672E-001;
1.739000000000000E+009;7.054201500560714E-001;3.119659972883950E-001;
1.750000000000000E+009;7.284960297409957E-001;2.522110727826409E-001;
1.761000000000000E+009;7.448248206326087E-001;1.911184396530968E-001;
1.772000000000000E+009;7.561068115498456E-001;1.301543549214099E-001;
1.783000000000000E+009;7.639899865916223E-001;6.855133413711934E-002;
1.794000000000000E+009;7.657269591412700E-001;6.366051315072518E-003;
1.805000000000000E+009;7.617123378560001E-001;-5.406299938503766E-002;
1.816000000000000E+009;7.549846027469374E-001;-1.125246475660632E-001;
1.827000000000000E+009;7.445955701246912E-001;-1.692112703916518E-001;
1.838000000000000E+009;7.322982500473124E-001;-2.262596149726943E-001;
1.849000000000000E+009;7.148078657962941E-001;-2.848587142973805E-001;
1.860000000000000E+009;6.908291793455967E-001;-3.410610422007389E-001;
1.871000000000000E+009;6.629192072764374E-001;-3.951175179887670E-001;
1.882000000000000E+009;6.290841084144209E-001;-4.463180125326925E-001;
1.893000000000000E+009;5.931715645892923E-001;-4.915481898047720E-001;
1.904000000000000E+009;5.552795880303471E-001;-5.355037255917710E-001;
1.915000000000000E+009;5.138681667284044E-001;-5.771169255675405E-001;
1.926000000000000E+009;4.705829071614801E-001;-6.171468167292870E-001;
1.937000000000000E+009;4.215627516817343E-001;-6.541719177455210E-001;
1.948000000000000E+009;3.693897369990543E-001;-6.862584536054982E-001;
1.959000000000000E+009;3.152085838356049E-001;-7.121237892554221E-001;
1.970000000000000E+009;2.622753749520183E-001;-7.337191658763425E-001;
1.981000000000000E+009;2.081388014893821E-001;-7.534915770547743E-001;
1.992000000000000E+009;1.517244749590467E-001;-7.684999039957003E-001;
2.003000000000000E+009;9.534047764971944E-002;-7.790096927143080E-001;
2.014000000000000E+009;3.876943410753849E-002;-7.855892937754129E-001;
2.025000000000000E+009;-1.865228880710158E-002;-7.887580005970702E-001;
2.036000000000000E+009;-7.763621998671839E-002;-7.859387597788886E-001;
2.047000000000000E+009;-1.339304638464496E-001;-7.784798578432309E-001;
2.058000000000000E+009;-1.906427757929741E-001;-7.674724165329916E-001;
2.069000000000000E+009;-2.443547397955197E-001;-7.506537888676030E-001;
2.080000000000000E+009;-2.945908373213734E-001;-7.335237450137974E-001;
2.091000000000000E+009;-3.463793353881492E-001;-7.126401385133899E-001;
2.102000000000000E+009;-3.997470439923921E-001;-6.873942070236839E-001;
2.113000000000000E+009;-4.466559569372398E-001;-6.580480621368344E-001;
2.124000000000000E+009;-4.924496407897967E-001;-6.267400020073757E-001;
2.135000000000000E+009;-5.365274170650226E-001;-5.912620047616897E-001;
2.146000000000000E+009;-5.763624320303695E-001;-5.528548293913141E-001;
2.157000000000000E+009;-6.139049290299006E-001;-5.130975173106099E-001;
2.168000000000000E+009;-6.482165539889035E-001;-4.692227487603088E-001;
2.179000000000000E+009;-6.780277108723670E-001;-4.250411854533093E-001;
2.190000000000000E+009;-7.061030539986501E-001;-3.779114626189313E-001;
2.201000000000000E+009;-7.298773234916496E-001;-3.291925387769843E-001;
2.212000000000000E+009;-7.499068048607942E-001;-2.796830656847026E-001;
2.223000000000000E+009;-7.674258001552444E-001;-2.297497563315746E-001;
2.234000000000000E+009;-7.827291150369431E-001;-1.779766023211158E-001;
2.245000000000000E+009;-7.937933225304447E-001;-1.240308284912089E-001;
2.256000000000000E+009;-8.001525312581628E-001;-7.032150929936126E-002;
2.267000000000000E+009;-8.025019911680715E-001;-1.690521070412733E-002;
2.278000000000000E+009;-8.025214326625448E-001;3.592896677956874E-002;
2.289000000000000E+009;-7.986790331269281E-001;8.987240905085961E-002;
2.300000000000000E+009;-7.901720760167345E-001;1.434032506546265E-001;
2.311000000000000E+009;-7.792790076031586E-001;1.950640989963658E-001;
2.322000000000000E+009;-7.646025536081328E-001;2.469598175594889E-001;
2.333000000000000E+009;-7.457379337265486E-001;2.975353696419688E-001;
2.344000000000000E+009;-7.235789108415530E-001;3.460802866750938E-001;
2.355000000000000E+009;-6.979474830652928E-001;3.933442185166954E-001;
2.366000000000000E+009;-6.700242782331661E-001;4.377764704985716E-001;
2.377000000000000E+009;-6.382303433210343E-001;4.811772973886772E-001;
2.388000000000000E+009;-6.043926609252911E-001;5.212331145882577E-001;
2.399000000000000E+009;-5.682393592161081E-001;5.598083991547264E-001;
2.410000000000000E+009;-5.290268383281285E-001;5.964893745850471E-001;
2.421000000000000E+009;-4.866733464083550E-001;6.295973588827308E-001;
2.432000000000000E+009;-4.425396986182212E-001;6.588717746908784E-001;
2.443000000000000E+009;-3.984959950177595E-001;6.857117615932901E-001;
2.454000000000000E+009;-3.511701287098750E-001;7.109835708677051E-001;
2.465000000000000E+009;-3.020036056783774E-001;7.328130261952368E-001;
2.476000000000000E+009;-2.494792535921821E-001;7.505474529013746E-001;
2.487000000000000E+009;-1.973521109713223E-001;7.637814527245618E-001;
2.498000000000000E+009;-1.429569621900277E-001;7.742752974656609E-001;
2.509000000000000E+009;-8.705284097914540E-002;7.792568779426222E-001;
2.520000000000000E+009;-3.340063250847737E-002;7.808781301267741E-001;
2.531000000000000E+009;2.239140075920374E-002;7.782587038851281E-001;
2.542000000000000E+009;7.605399256049779E-002;7.724551295984601E-001;
2.553000000000000E+009;1.308159816189548E-001;7.608326020456733E-001;
2.564000000000000E+009;1.825339490416264E-001;7.455898418291485E-001;
2.575000000000000E+009;2.331179737289235E-001;7.270218919768520E-001;
2.586000000000000E+009;2.819149153876120E-001;7.043800663365558E-001;
2.597000000000000E+009;3.277917061058351E-001;6.792733906129501E-001;
2.608000000000000E+009;3.717752109206859E-001;6.509679110974701E-001;
2.619000000000000E+009;4.134176512763148E-001;6.212349812085974E-001;
2.630000000000000E+009;4.544787371965938E-001;5.877645344892045E-001;
2.641000000000000E+009;4.920417983290876E-001;5.502683658924888E-001;
2.652000000000000E+009;5.255633755201578E-001;5.101744177272565E-001;
2.663000000000000E+009;5.555899900611736E-001;4.687750369637860E-001;
2.674000000000000E+009;5.824327613800296E-001;4.258550056296379E-001;
2.685000000000000E+009;6.068191550665955E-001;3.817274130617034E-001;
2.696000000000000E+009;6.293059487047652E-001;3.366393165448228E-001;
2.707000000000000E+009;6.483940167145391E-001;2.870547258704260E-001;
2.718000000000000E+009;6.610297803082770E-001;2.380659129539755E-001;
2.729000000000000E+009;6.714807236416905E-001;1.895414955618948E-001;
2.740000000000000E+009;6.776219343418505E-001;1.409972424354304E-001;
2.751000000000000E+009;6.813029884189897E-001;9.347750084840936E-002;
2.762000000000000E+009;6.812870707863047E-001;4.452400617087014E-002;
2.773000000000000E+009;6.763538005587324E-001;-3.287059033578205E-003;
2.784000000000000E+009;6.693561589037124E-001;-4.830656443230341E-002;
2.795000000000000E+009;6.602460578090824E-001;-9.295294647727836E-002;
2.806000000000000E+009;6.489128551535857E-001;-1.368393296902276E-001;
2.817000000000000E+009;6.345071341886189E-001;-1.801266125436949E-001;
2.828000000000000E+009;6.173716541006447E-001;-2.216411363121803E-001;
2.839000000000000E+009;5.984760451838607E-001;-2.614330839764230E-001;
2.850000000000000E+009;5.773484316884687E-001;-2.994723609288114E-001;
2.861000000000000E+009;5.549721783564006E-001;-3.366610391268725E-001;
2.872000000000000E+009;5.306097638736045E-001;-3.724115268353181E-001;
2.883000000000000E+009;5.054133354932477E-001;-4.075000125867846E-001;
2.894000000000000E+009;4.766933611803685E-001;-4.424881993940097E-001;
2.905000000000000E+009;4.453548375561673E-001;-4.747187986548847E-001;
2.916000000000000E+009;4.128308887576007E-001;-5.054429170288673E-001;
2.927000000000000E+009;3.786572993194571E-001;-5.344159390633043E-001;
2.938000000000000E+009;3.416859177441214E-001;-5.622286499849045E-001;
2.949000000000000E+009;3.023800363282773E-001;-5.864818913900677E-001;
2.960000000000000E+009;2.617494910897195E-001;-6.090727226458933E-001;
2.971000000000000E+009;2.163324553633675E-001;-6.285554484197851E-001;
2.982000000000000E+009;1.722791828429080E-001;-6.450282062107035E-001;
2.993000000000000E+009;1.250573500702093E-001;-6.586645887312922E-001;
3.004000000000000E+009;7.857316453847787E-002;-6.688056679302400E-001;
3.015000000000000E+009;3.069194819090596E-002;-6.754844044654185E-001;
3.026000000000000E+009;-1.845129256763799E-002;-6.784280286523221E-001;
3.037000000000000E+009;-6.715282743058645E-002;-6.779794844465001E-001;
3.048000000000000E+009;-1.165885833609857E-001;-6.739165521320839E-001;
3.059000000000000E+009;-1.649666863419184E-001;-6.664946911269103E-001;
3.070000000000000E+009;-2.131617944260928E-001;-6.552991407157440E-001;
3.081000000000000E+009;-2.605670306680986E-001;-6.417693541348531E-001;
3.092000000000000E+009;-3.079204027143319E-001;-6.245158740080478E-001;
3.103000000000000E+009;-3.538765994863416E-001;-6.033081901686651E-001;
3.114000000000000E+009;-3.984998748320556E-001;-5.791088438604675E-001;
3.125000000000000E+009;-4.408908992041923E-001;-5.518860951679219E-001;
3.136000000000000E+009;-4.820609980071026E-001;-5.228400782971904E-001;
3.147000000000000E+009;-5.222633270967456E-001;-4.886401822256438E-001;
3.158000000000000E+009;-5.582143642200730E-001;-4.515208894394350E-001;
3.169000000000000E+009;-5.928081784155008E-001;-4.113955269871427E-001;
