#Parameters = {d=100; L=50}
#"Frequency / GHz"	"S1,1 (d=100) [Re]"	"S1,1 (d=100) [Im]"	"Ref.Imp. [Re]"	"Ref.Imp. [Im]"
#-----------------------------------------------------------------------------------------
0.0000000000000	1.0000000000000	-0.0000000000000	73.000000000000	0.0000000000000
0.0040000001899898	0.99995690584183	-0.0089801577851176	73.000000000000	0.0000000000000
0.0080000003799796	0.99982792139053	-0.017959125339985	73.000000000000	0.0000000000000
0.012000000104308	0.99961298704147	-0.026935705915093	73.000000000000	0.0000000000000
0.016000000759959	0.99931228160858	-0.035908717662096	73.000000000000	0.0000000000000
0.019999999552965	0.99892574548721	-0.044876974076033	73.000000000000	0.0000000000000
0.024000000208616	0.99845361709595	-0.053839303553104	73.000000000000	0.0000000000000
0.028000000864267	0.99789625406265	-0.062794536352158	73.000000000000	0.0000000000000
0.032000001519918	0.99725353717804	-0.071741506457329	73.000000000000	0.0000000000000
0.035999998450279	0.99652612209320	-0.080679111182690	73.000000000000	0.0000000000000
0.039999999105930	0.99571394920349	-0.089606180787086	73.000000000000	0.0000000000000
0.043999999761581	0.99481749534607	-0.098521620035172	73.000000000000	0.0000000000000
0.048000000417233	0.99383699893951	-0.10742431133986	73.000000000000	0.0000000000000
0.052000001072884	0.99277299642563	-0.11631319671869	73.000000000000	0.0000000000000
0.056000001728535	0.99162578582764	-0.12518721818924	73.000000000000	0.0000000000000
0.059999998658895	0.99039572477341	-0.13404534757137	73.000000000000	0.0000000000000
0.064000003039837	0.98908334970474	-0.14288651943207	73.000000000000	0.0000000000000
0.068000003695488	0.98768919706345	-0.15170982480049	73.000000000000	0.0000000000000
0.071999996900558	0.98621368408203	-0.16051420569420	73.000000000000	0.0000000000000
0.075999997556210	0.98465740680695	-0.16929881274700	73.000000000000	0.0000000000000
0.079999998211861	0.98302066326141	-0.17806263267994	73.000000000000	0.0000000000000
0.083999998867512	0.98130428791046	-0.18680486083031	73.000000000000	0.0000000000000
0.087999999523163	0.97950863838196	-0.19552461802959	73.000000000000	0.0000000000000
0.092000000178814	0.97763442993164	-0.20422104001045	73.000000000000	0.0000000000000
0.096000000834465	0.97568213939667	-0.21289333701134	73.000000000000	0.0000000000000
0.10000000149012	0.97365254163742	-0.22154079377651	73.000000000000	0.0000000000000
0.10400000214577	0.97154593467712	-0.23016254603863	73.000000000000	0.0000000000000
0.10800000280142	0.96936327219009	-0.23875799775124	73.000000000000	0.0000000000000
0.11200000345707	0.96710515022278	-0.24732644855976	73.000000000000	0.0000000000000
0.11599999666214	0.96477192640305	-0.25586718320847	73.000000000000	0.0000000000000
0.11999999731779	0.96236443519592	-0.26437959074974	73.000000000000	0.0000000000000
0.12399999797344	0.95988333225250	-0.27286311984062	73.000000000000	0.0000000000000
0.12800000607967	0.95732915401459	-0.28131720423698	73.000000000000	0.0000000000000
0.13199999928474	0.95470249652863	-0.28974127769470	73.000000000000	0.0000000000000
0.13600000739098	0.95200407505035	-0.29813483357430	73.000000000000	0.0000000000000
0.14000000059605	0.94923436641693	-0.30649736523628	73.000000000000	0.0000000000000
0.14399999380112	0.94639408588409	-0.31482845544815	73.000000000000	0.0000000000000
0.14800000190735	0.94348371028900	-0.32312768697739	73.000000000000	0.0000000000000
0.15199999511242	0.94050401449203	-0.33139464259148	73.000000000000	0.0000000000000
0.15600000321865	0.93745529651642	-0.33962884545326	73.000000000000	0.0000000000000
0.15999999642372	0.93433833122253	-0.34783005714417	73.000000000000	0.0000000000000
0.16400000452995	0.93115353584290	-0.35599794983864	73.000000000000	0.0000000000000
0.16799999773502	0.92790144681931	-0.36413204669952	73.000000000000	0.0000000000000
0.17200000584126	0.92458254098892	-0.37223213911057	73.000000000000	0.0000000000000
0.17599999904633	0.92119741439819	-0.38029801845551	73.000000000000	0.0000000000000
0.18000000715256	0.91774636507034	-0.38832932710648	73.000000000000	0.0000000000000
0.18400000035763	0.91422998905182	-0.39632582664490	73.000000000000	0.0000000000000
0.18799999356270	0.91064852476120	-0.40428718924522	73.000000000000	0.0000000000000
0.19200000166893	0.90700250864029	-0.41221332550049	73.000000000000	0.0000000000000
0.19599999487400	0.90329229831696	-0.42010393738747	73.000000000000	0.0000000000000
0.20000000298023	0.89951819181442	-0.42795878648758	73.000000000000	0.0000000000000
0.20399999618530	0.89568054676056	-0.43577772378922	73.000000000000	0.0000000000000
0.20800000429153	0.89177960157394	-0.44356042146683	73.000000000000	0.0000000000000
0.21199999749660	0.88781571388245	-0.45130673050880	73.000000000000	0.0000000000000
0.21600000560284	0.88378918170929	-0.45901653170586	73.000000000000	0.0000000000000
0.21999999880791	0.87970018386841	-0.46668949723244	73.000000000000	0.0000000000000
0.22400000691414	0.87554883956909	-0.47432541847229	73.000000000000	0.0000000000000
0.22800000011921	0.87133538722992	-0.48192408680916	73.000000000000	0.0000000000000
0.23199999332428	0.86706006526947	-0.48948535323143	73.000000000000	0.0000000000000
0.23600000143051	0.86272305250168	-0.49700883030891	73.000000000000	0.0000000000000
0.23999999463558	0.85832428932190	-0.50449436903000	73.000000000000	0.0000000000000
0.24400000274181	0.85386401414871	-0.51194173097610	73.000000000000	0.0000000000000
0.24799999594688	0.84934216737747	-0.51935052871704	73.000000000000	0.0000000000000
0.25200000405312	0.84475886821747	-0.52672064304352	73.000000000000	0.0000000000000
0.25600001215935	0.84011441469193	-0.53405153751373	73.000000000000	0.0000000000000
0.25999999046326	0.83540856838226	-0.54134309291840	73.000000000000	0.0000000000000
0.26399999856949	0.83064132928848	-0.54859489202499	73.000000000000	0.0000000000000
0.26800000667572	0.82581281661987	-0.55580651760101	73.000000000000	0.0000000000000
0.27200001478195	0.82092303037643	-0.56297761201859	73.000000000000	0.0000000000000
0.27599999308586	0.81597173213959	-0.57010775804520	73.000000000000	0.0000000000000
0.28000000119209	0.81095921993256	-0.57719653844833	73.000000000000	0.0000000000000
0.28400000929832	0.80588531494141	-0.58424353599548	73.000000000000	0.0000000000000
0.28799998760223	0.80074989795685	-0.59124815464020	73.000000000000	0.0000000000000
0.29199999570847	0.79555296897888	-0.59820997714996	73.000000000000	0.0000000000000
0.29600000381470	0.79029452800751	-0.60512846708298	73.000000000000	0.0000000000000
0.30000001192093	0.78497451543808	-0.61200302839279	73.000000000000	0.0000000000000
0.30399999022484	0.77959281206131	-0.61883294582367	73.000000000000	0.0000000000000
0.30799999833107	0.77414947748184	-0.62561780214310	73.000000000000	0.0000000000000
0.31200000643730	0.76864439249039	-0.63235688209534	73.000000000000	0.0000000000000
0.31600001454353	0.76307761669159	-0.63904947042465	73.000000000000	0.0000000000000
0.31999999284744	0.75744909048080	-0.64569491147995	73.000000000000	0.0000000000000
0.32400000095367	0.75175887346268	-0.65229231119156	73.000000000000	0.0000000000000
0.32800000905991	0.74600678682327	-0.65884113311768	73.000000000000	0.0000000000000
0.33199998736382	0.74019294977188	-0.66534048318863	73.000000000000	0.0000000000000
0.33599999547005	0.73431748151779	-0.67178958654404	73.000000000000	0.0000000000000
0.34000000357628	0.72838020324707	-0.67818754911423	73.000000000000	0.0000000000000
0.34400001168251	0.72238165140152	-0.68453353643417	73.000000000000	0.0000000000000
0.34799998998642	0.71632140874863	-0.69082671403885	73.000000000000	0.0000000000000
0.35199999809265	0.71019971370697	-0.69706612825394	73.000000000000	0.0000000000000
0.35600000619888	0.70401698350906	-0.70325094461441	73.000000000000	0.0000000000000
0.36000001430511	0.69777315855026	-0.70938003063202	73.000000000000	0.0000000000000
0.36399999260902	0.69146859645844	-0.71545249223709	73.000000000000	0.0000000000000
0.36800000071526	0.68510335683823	-0.72146731615067	73.000000000000	0.0000000000000
0.37200000882149	0.67867773771286	-0.72742366790771	73.000000000000	0.0000000000000
0.37599998712540	0.67219221591949	-0.73332041501999	73.000000000000	0.0000000000000
0.37999999523163	0.66564679145813	-0.73915648460388	73.000000000000	0.0000000000000
0.38400000333786	0.65904206037521	-0.74493098258972	73.000000000000	0.0000000000000
0.38800001144409	0.65237849950790	-0.75064271688461	73.000000000000	0.0000000000000
0.39199998974800	0.64565640687943	-0.75629067420959	73.000000000000	0.0000000000000
0.39599999785423	0.63887596130371	-0.76187384128571	73.000000000000	0.0000000000000
0.40000000596046	0.63203817605972	-0.76739114522934	73.000000000000	0.0000000000000
0.40400001406670	0.62514334917068	-0.77284157276154	73.000000000000	0.0000000000000
0.40799999237061	0.61819219589233	-0.77822393178940	73.000000000000	0.0000000000000
0.41200000047684	0.61118501424789	-0.78353720903397	73.000000000000	0.0000000000000
0.41600000858307	0.60412275791168	-0.78878039121628	73.000000000000	0.0000000000000
0.41999998688698	0.59700608253479	-0.79395252466202	73.000000000000	0.0000000000000
0.42399999499321	0.58983564376831	-0.79905241727829	73.000000000000	0.0000000000000
0.42800000309944	0.58261209726334	-0.80407905578613	73.000000000000	0.0000000000000
0.43200001120567	0.57533651590347	-0.80903148651123	73.000000000000	0.0000000000000
0.43599998950958	0.56800949573517	-0.81390863656998	73.000000000000	0.0000000000000
0.43999999761581	0.56063205003738	-0.81870967149734	73.000000000000	0.0000000000000
0.44400000572205	0.55320525169373	-0.82343345880508	73.000000000000	0.0000000000000
0.44800001382828	0.54572969675064	-0.82807922363281	73.000000000000	0.0000000000000
0.45199999213219	0.53820651769638	-0.83264583349228	73.000000000000	0.0000000000000
0.45600000023842	0.53063666820526	-0.83713263273239	73.000000000000	0.0000000000000
0.46000000834465	0.52302139997482	-0.84153860807419	73.000000000000	0.0000000000000
0.46399998664856	0.51536136865616	-0.84586298465729	73.000000000000	0.0000000000000
0.46799999475479	0.50765818357468	-0.85010492801666	73.000000000000	0.0000000000000
0.47200000286102	0.49991258978844	-0.85426360368729	73.000000000000	0.0000000000000
0.47600001096725	0.49212557077408	-0.85833841562271	73.000000000000	0.0000000000000
0.47999998927116	0.48429891467094	-0.86232846975327	73.000000000000	0.0000000000000
0.48399999737740	0.47643345594406	-0.86623317003250	73.000000000000	0.0000000000000
0.48800000548363	0.46853029727936	-0.87005186080933	73.000000000000	0.0000000000000
0.49200001358986	0.46059092879295	-0.87378394603729	73.000000000000	0.0000000000000
0.49599999189377	0.45261627435684	-0.87742877006531	73.000000000000	0.0000000000000
0.50000000000000	0.44460797309875	-0.88098597526550	73.000000000000	0.0000000000000
0.50400000810623	0.43656679987907	-0.88445490598679	73.000000000000	0.0000000000000
0.50800001621246	0.42849430441856	-0.88783532381058	73.000000000000	0.0000000000000
0.51200002431870	0.42039191722870	-0.89112639427185	73.000000000000	0.0000000000000
0.51599997282028	0.41226056218147	-0.89432823657990	73.000000000000	0.0000000000000
0.51999998092651	0.40410196781158	-0.89744013547897	73.000000000000	0.0000000000000
0.52399998903275	0.39591699838638	-0.90046197175980	73.000000000000	0.0000000000000
0.52799999713898	0.38770702481270	-0.90339338779449	73.000000000000	0.0000000000000
0.53200000524521	0.37947332859039	-0.90623420476913	73.000000000000	0.0000000000000
0.53600001335144	0.37121731042862	-0.90898436307907	73.000000000000	0.0000000000000
0.54000002145767	0.36294031143188	-0.91164350509644	73.000000000000	0.0000000000000
0.54400002956390	0.35464319586754	-0.91421151161194	73.000000000000	0.0000000000000
0.54799997806549	0.34632733464241	-0.91668856143951	73.000000000000	0.0000000000000
0.55199998617172	0.33799418807030	-0.91907429695129	73.000000000000	0.0000000000000
0.55599999427795	0.32964497804642	-0.92136883735657	73.000000000000	0.0000000000000
0.56000000238419	0.32128044962883	-0.92357230186462	73.000000000000	0.0000000000000
0.56400001049042	0.31290197372437	-0.92568463087082	73.000000000000	0.0000000000000
0.56800001859665	0.30451089143753	-0.92770576477051	73.000000000000	0.0000000000000
0.57200002670288	0.29610809683800	-0.92963606119156	73.000000000000	0.0000000000000
0.57599997520447	0.28769475221634	-0.93147557973862	73.000000000000	0.0000000000000
0.57999998331070	0.27927193045616	-0.93322432041168	73.000000000000	0.0000000000000
0.58399999141693	0.27084079384804	-0.93488258123398	73.000000000000	0.0000000000000
0.58799999952316	0.26240196824074	-0.93645066022873	73.000000000000	0.0000000000000
0.59200000762939	0.25395700335503	-0.93792831897736	73.000000000000	0.0000000000000
0.59600001573563	0.24550651013851	-0.93931645154953	73.000000000000	0.0000000000000
0.60000002384186	0.23705117404461	-0.94061464071274	73.000000000000	0.0000000000000
0.60399997234344	0.22859202325344	-0.94182354211807	73.000000000000	0.0000000000000
0.60799998044968	0.22013035416603	-0.94294315576553	73.000000000000	0.0000000000000
0.61199998855591	0.21166656911373	-0.94397383928299	73.000000000000	0.0000000000000
0.61599999666214	0.20320147275925	-0.94491589069366	73.000000000000	0.0000000000000
0.62000000476837	0.19473588466644	-0.94576948881149	73.000000000000	0.0000000000000
0.62400001287460	0.18627037107944	-0.94653499126434	73.000000000000	0.0000000000000
0.62800002098083	0.17780594527721	-0.94721239805222	73.000000000000	0.0000000000000
0.63200002908707	0.16934321820736	-0.94780218601227	73.000000000000	0.0000000000000
0.63599997758865	0.16088220477104	-0.94830453395844	73.000000000000	0.0000000000000
0.63999998569489	0.15242439508438	-0.94871944189072	73.000000000000	0.0000000000000
0.64399999380112	0.14396987855434	-0.94904738664627	73.000000000000	0.0000000000000
0.64800000190735	0.13551917672157	-0.94928848743439	73.000000000000	0.0000000000000
0.65200001001358	0.12707327306271	-0.94944262504578	73.000000000000	0.0000000000000
0.65600001811981	0.11863178014755	-0.94951027631760	73.000000000000	0.0000000000000
0.66000002622604	0.11019568145275	-0.94949138164520	73.000000000000	0.0000000000000
0.66399997472763	0.10176546871662	-0.94938611984253	73.000000000000	0.0000000000000
0.66799998283386	0.093342140316963	-0.94919437170029	73.000000000000	0.0000000000000
0.67199999094009	0.084925279021263	-0.94891631603241	73.000000000000	0.0000000000000
0.67599999904633	0.076514974236488	-0.94855189323425	73.000000000000	0.0000000000000
0.68000000715256	0.068112201988697	-0.94810116291046	73.000000000000	0.0000000000000
0.68400001525879	0.059717912226915	-0.94756376743317	73.000000000000	0.0000000000000
0.68800002336502	0.051331315189600	-0.94693982601166	73.000000000000	0.0000000000000
0.69199997186661	0.042953379452229	-0.94622921943665	73.000000000000	0.0000000000000
0.69599997997284	0.034585122019053	-0.94543159008026	73.000000000000	0.0000000000000
0.69999998807907	0.026225293055177	-0.94454669952393	73.000000000000	0.0000000000000
0.70399999618530	0.017875377088785	-0.94357436895370	73.000000000000	0.0000000000000
0.70800000429153	0.0095355100929737	-0.94251435995102	73.000000000000	0.0000000000000
0.71200001239777	0.0012063013855368	-0.94136607646942	73.000000000000	0.0000000000000
0.71600002050400	-0.0071116220206022	-0.94012945890427	73.000000000000	0.0000000000000
0.72000002861023	-0.015418510884047	-0.93880367279053	73.000000000000	0.0000000000000
0.72399997711182	-0.023713245987892	-0.93738842010498	73.000000000000	0.0000000000000
0.72799998521805	-0.031996473670006	-0.93588328361511	73.000000000000	0.0000000000000
0.73199999332428	-0.040266137570143	-0.93428760766983	73.000000000000	0.0000000000000
0.73600000143051	-0.048522822558880	-0.93260073661804	73.000000000000	0.0000000000000
0.74000000953674	-0.056765750050545	-0.93082207441330	73.000000000000	0.0000000000000
0.74400001764297	-0.064994104206562	-0.92895096540451	73.000000000000	0.0000000000000
0.74800002574921	-0.073207050561905	-0.92698663473129	73.000000000000	0.0000000000000
0.75199997425079	-0.081404574215412	-0.92492848634720	73.000000000000	0.0000000000000
0.75599998235703	-0.089585326611996	-0.92277556657791	73.000000000000	0.0000000000000
0.75999999046326	-0.097748793661594	-0.92052716016769	73.000000000000	0.0000000000000
0.76399999856949	-0.10589396208525	-0.91818243265152	73.000000000000	0.0000000000000
0.76800000667572	-0.11401937156916	-0.91574048995972	73.000000000000	0.0000000000000
0.77200001478195	-0.12212522327900	-0.91320031881332	73.000000000000	0.0000000000000
0.77600002288818	-0.13020998239517	-0.91056132316589	73.000000000000	0.0000000000000
0.77999997138977	-0.13827289640903	-0.90782237052917	73.000000000000	0.0000000000000
0.78399997949600	-0.14631141722202	-0.90498256683350	73.000000000000	0.0000000000000
0.78799998760223	-0.15432561933994	-0.90204113721848	73.000000000000	0.0000000000000
0.79199999570847	-0.16231411695480	-0.89899682998657	73.000000000000	0.0000000000000
0.79600000381470	-0.17027559876442	-0.89584892988205	73.000000000000	0.0000000000000
0.80000001192093	-0.17820774018764	-0.89259636402130	73.000000000000	0.0000000000000
0.80400002002716	-0.18610991537571	-0.88923823833466	73.000000000000	0.0000000000000
0.80800002813339	-0.19398021697998	-0.88577359914780	73.000000000000	0.0000000000000
0.81199997663498	-0.20181658864021	-0.88220161199570	73.000000000000	0.0000000000000
0.81599998474121	-0.20961786806583	-0.87852132320404	73.000000000000	0.0000000000000
0.81999999284744	-0.21738147735596	-0.87473195791245	73.000000000000	0.0000000000000
0.82400000095367	-0.22510655224323	-0.87083244323730	73.000000000000	0.0000000000000
0.82800000905991	-0.23278960585594	-0.86682218313217	73.000000000000	0.0000000000000
0.83200001716614	-0.24043007194996	-0.86270034313202	73.000000000000	0.0000000000000
0.83600002527237	-0.24802479147911	-0.85846602916718	73.000000000000	0.0000000000000
0.83999997377396	-0.25557187199593	-0.85411882400513	73.000000000000	0.0000000000000
0.84399998188019	-0.26306888461113	-0.84965801239014	73.000000000000	0.0000000000000
0.84799998998642	-0.27051293849945	-0.84508287906647	73.000000000000	0.0000000000000
0.85199999809265	-0.27790245413780	-0.84039306640625	73.000000000000	0.0000000000000
0.85600000619888	-0.28523397445679	-0.83558809757233	73.000000000000	0.0000000000000
0.86000001430511	-0.29250544309616	-0.83066755533218	73.000000000000	0.0000000000000
0.86400002241135	-0.29971423745155	-0.82563102245331	73.000000000000	0.0000000000000
0.86799997091293	-0.30685687065125	-0.82047861814499	73.000000000000	0.0000000000000
0.87199997901917	-0.31393110752106	-0.81520974636078	73.000000000000	0.0000000000000
0.87599998712540	-0.32093349099159	-0.80982494354248	73.000000000000	0.0000000000000
0.87999999523163	-0.32786121964455	-0.80432385206223	73.000000000000	0.0000000000000
0.88400000333786	-0.33471164107323	-0.79870665073395	73.000000000000	0.0000000000000
0.88800001144409	-0.34148120880127	-0.79297369718552	73.000000000000	0.0000000000000
0.89200001955032	-0.34816709160805	-0.78712522983551	73.000000000000	0.0000000000000
0.89600002765656	-0.35476538538933	-0.78116202354431	73.000000000000	0.0000000000000
0.89999997615814	-0.36127364635468	-0.77508431673050	73.000000000000	0.0000000000000
0.90399998426437	-0.36768838763237	-0.76889294385910	73.000000000000	0.0000000000000
0.90799999237061	-0.37400609254837	-0.76258885860443	73.000000000000	0.0000000000000
0.91200000047684	-0.38022354245186	-0.75617289543152	73.000000000000	0.0000000000000
0.91600000858307	-0.38633754849434	-0.74964594841003	73.000000000000	0.0000000000000
0.92000001668930	-0.39234435558319	-0.74300962686539	73.000000000000	0.0000000000000
0.92400002479553	-0.39824086427689	-0.73626506328583	73.000000000000	0.0000000000000
0.92799997329712	-0.40402355790138	-0.72941362857819	73.000000000000	0.0000000000000
0.93199998140335	-0.40968915820122	-0.72245699167252	73.000000000000	0.0000000000000
