#Parameters = {d=20; L=50}
#"Frequency / GHz"	"S1,1 (d=20) [Re]"	"S1,1 (d=20) [Im]"	"Ref.Imp. [Re]"	"Ref.Imp. [Im]"
#---------------------------------------------------------------------------------------
0.0000000000000	1.0000000000000	-0.0000000000000	73.000000000000	0.0000000000000
0.0040000001899898	0.99995291233063	-0.0091959061101079	73.000000000000	0.0000000000000
0.0080000003799796	0.99981182813644	-0.018390098586679	73.000000000000	0.0000000000000
0.012000000104308	0.99957674741745	-0.027580870315433	73.000000000000	0.0000000000000
0.016000000759959	0.99924778938293	-0.036766517907381	73.000000000000	0.0000000000000
0.019999999552965	0.99882537126541	-0.045945357531309	73.000000000000	0.0000000000000
0.024000000208616	0.99830967187881	-0.055115725845098	73.000000000000	0.0000000000000
0.028000000864267	0.99770122766495	-0.064275987446308	73.000000000000	0.0000000000000
0.032000001519918	0.99700057506561	-0.073424525558949	73.000000000000	0.0000000000000
0.035999998450279	0.99620795249939	-0.082559756934643	73.000000000000	0.0000000000000
0.039999999105930	0.99532419443130	-0.091680131852627	73.000000000000	0.0000000000000
0.043999999761581	0.99434983730316	-0.10078416764736	73.000000000000	0.0000000000000
0.048000000417233	0.99328571557999	-0.10987039655447	73.000000000000	0.0000000000000
0.052000001072884	0.99213254451752	-0.11893741786480	73.000000000000	0.0000000000000
0.056000001728535	0.99089109897614	-0.12798386812210	73.000000000000	0.0000000000000
0.059999998658895	0.98956227302551	-0.13700847327709	73.000000000000	0.0000000000000
0.064000003039837	0.98814713954926	-0.14600995182991	73.000000000000	0.0000000000000
0.068000003695488	0.98664623498917	-0.15498714148998	73.000000000000	0.0000000000000
0.071999996900558	0.98506098985672	-0.16393893957138	73.000000000000	0.0000000000000
0.075999997556210	0.98339200019836	-0.17286425828934	73.000000000000	0.0000000000000
0.079999998211861	0.98164075613022	-0.18176212906837	73.000000000000	0.0000000000000
0.083999998867512	0.97980803251266	-0.19063161313534	73.000000000000	0.0000000000000
0.087999999523163	0.97789484262466	-0.19947189092636	73.000000000000	0.0000000000000
0.092000000178814	0.97590243816376	-0.20828214287758	73.000000000000	0.0000000000000
0.096000000834465	0.97383189201355	-0.21706163883209	73.000000000000	0.0000000000000
0.10000000149012	0.97168421745300	-0.22580978274345	73.000000000000	0.0000000000000
0.10400000214577	0.96946054697037	-0.23452597856522	73.000000000000	0.0000000000000
0.10800000280142	0.96716189384460	-0.24320967495441	73.000000000000	0.0000000000000
0.11200000345707	0.96478945016861	-0.25186040997505	73.000000000000	0.0000000000000
0.11599999666214	0.96234411001205	-0.26047787070274	73.000000000000	0.0000000000000
0.11999999731779	0.95982700586319	-0.26906168460846	73.000000000000	0.0000000000000
0.12399999797344	0.95723897218704	-0.27761161327362	73.000000000000	0.0000000000000
0.12800000607967	0.95458120107651	-0.28612741827965	73.000000000000	0.0000000000000
0.13199999928474	0.95185452699661	-0.29460901021957	73.000000000000	0.0000000000000
0.13600000739098	0.94905978441238	-0.30305615067482	73.000000000000	0.0000000000000
0.14000000059605	0.94619786739349	-0.31146898865700	73.000000000000	0.0000000000000
0.14399999380112	0.94326955080032	-0.31984734535217	73.000000000000	0.0000000000000
0.14800000190735	0.94027560949326	-0.32819131016731	73.000000000000	0.0000000000000
0.15199999511242	0.93721675872803	-0.33650097250938	73.000000000000	0.0000000000000
0.15600000321865	0.93409365415573	-0.34477642178535	73.000000000000	0.0000000000000
0.15999999642372	0.93090683221817	-0.35301777720451	73.000000000000	0.0000000000000
0.16400000452995	0.92765688896179	-0.36122518777847	73.000000000000	0.0000000000000
0.16799999773502	0.92434430122375	-0.36939886212349	73.000000000000	0.0000000000000
0.17200000584126	0.92096954584122	-0.37753894925117	73.000000000000	0.0000000000000
0.17599999904633	0.91753274202347	-0.38564556837082	73.000000000000	0.0000000000000
0.18000000715256	0.91403442621231	-0.39371904730797	73.000000000000	0.0000000000000
0.18400000035763	0.91047477722168	-0.40175959467888	73.000000000000	0.0000000000000
0.18799999356270	0.90685397386551	-0.40976724028587	73.000000000000	0.0000000000000
0.19200000166893	0.90317213535309	-0.41774228215218	73.000000000000	0.0000000000000
0.19599999487400	0.89942926168442	-0.42568489909172	73.000000000000	0.0000000000000
0.20000000298023	0.89562553167343	-0.43359521031380	73.000000000000	0.0000000000000
0.20399999618530	0.89176070690155	-0.44147333502769	73.000000000000	0.0000000000000
0.20800000429153	0.88783466815948	-0.44931939244270	73.000000000000	0.0000000000000
0.21199999749660	0.88384741544724	-0.45713335275650	73.000000000000	0.0000000000000
0.21600000560284	0.87979859113693	-0.46491539478302	73.000000000000	0.0000000000000
0.21999999880791	0.87568819522858	-0.47266542911530	73.000000000000	0.0000000000000
0.22400000691414	0.87151551246643	-0.48038333654404	73.000000000000	0.0000000000000
0.22800000011921	0.86728072166443	-0.48806908726692	73.000000000000	0.0000000000000
0.23199999332428	0.86298304796219	-0.49572250247002	73.000000000000	0.0000000000000
0.23600000143051	0.85862237215042	-0.50334346294403	73.000000000000	0.0000000000000
0.23999999463558	0.85419797897339	-0.51093149185181	73.000000000000	0.0000000000000
0.24400000274181	0.84970980882645	-0.51848655939102	73.000000000000	0.0000000000000
0.24799999594688	0.84515702724457	-0.52600800991058	73.000000000000	0.0000000000000
0.25200000405312	0.84053939580917	-0.53349548578262	73.000000000000	0.0000000000000
0.25600001215935	0.83585631847382	-0.54094862937927	73.000000000000	0.0000000000000
0.25999999046326	0.83110743761063	-0.54836672544479	73.000000000000	0.0000000000000
0.26399999856949	0.82629221677780	-0.55574911832809	73.000000000000	0.0000000000000
0.26800000667572	0.82141000032425	-0.56309521198273	73.000000000000	0.0000000000000
0.27200001478195	0.81646054983139	-0.57040423154831	73.000000000000	0.0000000000000
0.27599999308586	0.81144338846207	-0.57767528295517	73.000000000000	0.0000000000000
0.28000000119209	0.80635803937912	-0.58490747213364	73.000000000000	0.0000000000000
0.28400000929832	0.80120390653610	-0.59210002422333	73.000000000000	0.0000000000000
0.28799998760223	0.79598093032837	-0.59925174713135	73.000000000000	0.0000000000000
0.29199999570847	0.79068869352341	-0.60636168718338	73.000000000000	0.0000000000000
0.29600000381470	0.78532665967941	-0.61342859268188	73.000000000000	0.0000000000000
0.30000001192093	0.77989482879639	-0.62045156955719	73.000000000000	0.0000000000000
0.30399999022484	0.77439296245575	-0.62742912769318	73.000000000000	0.0000000000000
0.30799999833107	0.76882070302963	-0.63436001539230	73.000000000000	0.0000000000000
0.31200000643730	0.76317816972733	-0.64124315977097	73.000000000000	0.0000000000000
0.31600001454353	0.75746518373489	-0.64807695150375	73.000000000000	0.0000000000000
0.31999999284744	0.75168180465698	-0.65486019849777	73.000000000000	0.0000000000000
0.32400000095367	0.74582809209824	-0.66159117221832	73.000000000000	0.0000000000000
0.32800000905991	0.73990410566330	-0.66826885938644	73.000000000000	0.0000000000000
0.33199998736382	0.73391032218933	-0.67489153146744	73.000000000000	0.0000000000000
0.33599999547005	0.72784656286240	-0.68145775794983	73.000000000000	0.0000000000000
0.34000000357628	0.72171372175217	-0.68796604871750	73.000000000000	0.0000000000000
0.34400001168251	0.71551179885864	-0.69441485404968	73.000000000000	0.0000000000000
0.34799998998642	0.70924139022827	-0.70080274343491	73.000000000000	0.0000000000000
0.35199999809265	0.70290321111679	-0.70712822675705	73.000000000000	0.0000000000000
0.35600000619888	0.69649773836136	-0.71338969469070	73.000000000000	0.0000000000000
0.36000001430511	0.69002550840378	-0.71958571672440	73.000000000000	0.0000000000000
0.36399999260902	0.68348777294159	-0.72571486234665	73.000000000000	0.0000000000000
0.36800000071526	0.67688512802124	-0.73177552223206	73.000000000000	0.0000000000000
0.37200000882149	0.67021828889847	-0.73776644468307	73.000000000000	0.0000000000000
0.37599998712540	0.66348862648010	-0.74368613958359	73.000000000000	0.0000000000000
0.37999999523163	0.65669691562653	-0.74953329563141	73.000000000000	0.0000000000000
0.38400000333786	0.64984440803528	-0.75530654191971	73.000000000000	0.0000000000000
0.38800001144409	0.64293241500854	-0.76100456714630	73.000000000000	0.0000000000000
0.39199998974800	0.63596183061600	-0.76662623882294	73.000000000000	0.0000000000000
0.39599999785423	0.62893420457840	-0.77217036485672	73.000000000000	0.0000000000000
0.40000000596046	0.62185078859329	-0.77763569355011	73.000000000000	0.0000000000000
0.40400001406670	0.61471295356750	-0.78302145004272	73.000000000000	0.0000000000000
0.40799999237061	0.60752207040787	-0.78832614421844	73.000000000000	0.0000000000000
0.41200000047684	0.60028004646301	-0.79354929924011	73.000000000000	0.0000000000000
0.41600000858307	0.59298777580261	-0.79868978261948	73.000000000000	0.0000000000000
0.41999998688698	0.58564704656601	-0.80374687910080	73.000000000000	0.0000000000000
0.42399999499321	0.57825940847397	-0.80871981382370	73.000000000000	0.0000000000000
0.42800000309944	0.57082664966583	-0.81360787153244	73.000000000000	0.0000000000000
0.43200001120567	0.56335008144379	-0.81841045618057	73.000000000000	0.0000000000000
0.43599998950958	0.55583143234253	-0.82312715053558	73.000000000000	0.0000000000000
0.43999999761581	0.54827213287354	-0.82775735855103	73.000000000000	0.0000000000000
0.44400000572205	0.54067409038544	-0.83230078220367	73.000000000000	0.0000000000000
0.44800001382828	0.53303867578506	-0.83675712347031	73.000000000000	0.0000000000000
0.45199999213219	0.52536737918854	-0.84112602472305	73.000000000000	0.0000000000000
0.45600000023842	0.51766210794449	-0.84540736675262	73.000000000000	0.0000000000000
0.46000000834465	0.50992459058762	-0.84960114955902	73.000000000000	0.0000000000000
0.46399998664856	0.50215554237366	-0.85370713472366	73.000000000000	0.0000000000000
0.46799999475479	0.49435725808144	-0.85772544145584	73.000000000000	0.0000000000000
0.47200000286102	0.48653084039688	-0.86165618896484	73.000000000000	0.0000000000000
0.47600001096725	0.47867780923843	-0.86549943685532	73.000000000000	0.0000000000000
0.47999998927116	0.47079968452454	-0.86925548315048	73.000000000000	0.0000000000000
0.48399999737740	0.46289753913879	-0.87292444705963	73.000000000000	0.0000000000000
0.48800000548363	0.45497274398804	-0.87650662660599	73.000000000000	0.0000000000000
0.49200001358986	0.44702699780464	-0.88000243902206	73.000000000000	0.0000000000000
0.49599999189377	0.43906110525131	-0.88341218233109	73.000000000000	0.0000000000000
0.50000000000000	0.43107622861862	-0.88673627376556	73.000000000000	0.0000000000000
0.50400000810623	0.42307335138321	-0.88997513055801	73.000000000000	0.0000000000000
0.50800001621246	0.41505387425423	-0.89312928915024	73.000000000000	0.0000000000000
0.51200002431870	0.40701842308044	-0.89619916677475	73.000000000000	0.0000000000000
0.51599997282028	0.39896818995476	-0.89918529987335	73.000000000000	0.0000000000000
0.51999998092651	0.39090400934219	-0.90208798646927	73.000000000000	0.0000000000000
0.52399998903275	0.38282629847527	-0.90490812063217	73.000000000000	0.0000000000000
0.52799999713898	0.37473610043526	-0.90764582157135	73.000000000000	0.0000000000000
0.53200000524521	0.36663395166397	-0.91030180454254	73.000000000000	0.0000000000000
0.53600001335144	0.35852089524269	-0.91287636756897	73.000000000000	0.0000000000000
0.54000002145767	0.35039702057838	-0.91537034511566	73.000000000000	0.0000000000000
0.54400002956390	0.34226271510124	-0.91778379678726	73.000000000000	0.0000000000000
0.54799997806549	0.33411881327629	-0.92011731863022	73.000000000000	0.0000000000000
0.55199998617172	0.32596540451050	-0.92237138748169	73.000000000000	0.0000000000000
0.55599999427795	0.31780317425728	-0.92454624176025	73.000000000000	0.0000000000000
0.56000000238419	0.30963209271431	-0.92664223909378	73.000000000000	0.0000000000000
0.56400001049042	0.30145272612572	-0.92865961790085	73.000000000000	0.0000000000000
0.56800001859665	0.29326477646828	-0.93059873580933	73.000000000000	0.0000000000000
0.57200002670288	0.28506901860237	-0.93245959281921	73.000000000000	0.0000000000000
0.57599997520447	0.27686530351639	-0.93424254655838	73.000000000000	0.0000000000000
0.57999998331070	0.26865351200104	-0.93594759702682	73.000000000000	0.0000000000000
0.58399999141693	0.26043432950974	-0.93757468461990	73.000000000000	0.0000000000000
0.58799999952316	0.25220760703087	-0.93912386894226	73.000000000000	0.0000000000000
0.59200000762939	0.24397316575050	-0.94059497117996	73.000000000000	0.0000000000000
0.59600001573563	0.23573148250580	-0.94198793172836	73.000000000000	0.0000000000000
0.60000002384186	0.22748211026192	-0.94330245256424	73.000000000000	0.0000000000000
0.60399997234344	0.21922579407692	-0.94453829526901	73.000000000000	0.0000000000000
0.60799998044968	0.21096231043339	-0.94569516181946	73.000000000000	0.0000000000000
0.61199998855591	0.20269164443016	-0.94677245616913	73.000000000000	0.0000000000000
0.61599999666214	0.19441391527653	-0.94776976108551	73.000000000000	0.0000000000000
0.62000000476837	0.18612979352474	-0.94868671894073	73.000000000000	0.0000000000000
0.62400001287460	0.17783887684345	-0.94952267408371	73.000000000000	0.0000000000000
0.62800002098083	0.16954176127911	-0.95027691125870	73.000000000000	0.0000000000000
0.63200002908707	0.16123886406422	-0.95094853639603	73.000000000000	0.0000000000000
0.63599997758865	0.15292967855930	-0.95153707265854	73.000000000000	0.0000000000000
0.63999998569489	0.14461544156075	-0.95204162597656	73.000000000000	0.0000000000000
0.64399999380112	0.13629610836506	-0.95246142148972	73.000000000000	0.0000000000000
0.64800000190735	0.12797339260578	-0.95279538631439	73.000000000000	0.0000000000000
0.65200001001358	0.11964640021324	-0.95304262638092	73.000000000000	0.0000000000000
0.65600001811981	0.11131601780653	-0.95320242643356	73.000000000000	0.0000000000000
0.66000002622604	0.10298316925764	-0.95327359437943	73.000000000000	0.0000000000000
0.66399997472763	0.094648875296116	-0.95325505733490	73.000000000000	0.0000000000000
0.66799998283386	0.086314566433430	-0.95314586162567	73.000000000000	0.0000000000000
0.67199999094009	0.077979914844036	-0.95294499397278	73.000000000000	0.0000000000000
0.67599999904633	0.069646924734116	-0.95265150070190	73.000000000000	0.0000000000000
0.68000000715256	0.061316240578890	-0.95226413011551	73.000000000000	0.0000000000000
0.68400001525879	0.052989486604929	-0.95178204774857	73.000000000000	0.0000000000000
0.68800002336502	0.044667363166809	-0.95120406150818	73.000000000000	0.0000000000000
0.69199997186661	0.036352023482323	-0.95052933692932	73.000000000000	0.0000000000000
0.69599997997284	0.028045166283846	-0.94975674152374	73.000000000000	0.0000000000000
0.69999998807907	0.019747635349631	-0.94888544082642	73.000000000000	0.0000000000000
0.70399999618530	0.011461207643151	-0.94791454076767	73.000000000000	0.0000000000000
0.70800000429153	0.0031881488393992	-0.94684314727783	73.000000000000	0.0000000000000
0.71200001239777	-0.0050701498985291	-0.94567060470581	73.000000000000	0.0000000000000
0.71600002050400	-0.013311365619302	-0.94439595937729	73.000000000000	0.0000000000000
0.72000002861023	-0.021534049883485	-0.94301855564117	73.000000000000	0.0000000000000
0.72399997711182	-0.029735827818513	-0.94153797626495	73.000000000000	0.0000000000000
0.72799998521805	-0.037913408130407	-0.93995368480682	73.000000000000	0.0000000000000
0.73199999332428	-0.046066619455814	-0.93826508522034	73.000000000000	0.0000000000000
0.73600000143051	-0.054192133247852	-0.93647187948227	73.000000000000	0.0000000000000
0.74000000953674	-0.062287062406540	-0.93457394838333	73.000000000000	0.0000000000000
0.74400001764297	-0.070349402725697	-0.93257099390030	73.000000000000	0.0000000000000
0.74800002574921	-0.078376710414886	-0.93046313524246	73.000000000000	0.0000000000000
0.75199997425079	-0.086366951465607	-0.92825019359589	73.000000000000	0.0000000000000
0.75599998235703	-0.094317235052586	-0.92593234777451	73.000000000000	0.0000000000000
0.75999999046326	-0.10222468525171	-0.92351007461548	73.000000000000	0.0000000000000
0.76399999856949	-0.11008641868830	-0.92098373174667	73.000000000000	0.0000000000000
0.76800000667572	-0.11790088564157	-0.91835379600525	73.000000000000	0.0000000000000
0.77200001478195	-0.12566524744034	-0.91562062501907	73.000000000000	0.0000000000000
0.77600002288818	-0.13337585330009	-0.91278553009033	73.000000000000	0.0000000000000
0.77999997138977	-0.14103119075298	-0.90984892845154	73.000000000000	0.0000000000000
0.78399997949600	-0.14862808585167	-0.90681201219559	73.000000000000	0.0000000000000
0.78799998760223	-0.15616427361965	-0.90367597341537	73.000000000000	0.0000000000000
0.79199999570847	-0.16363710165024	-0.90044188499451	73.000000000000	0.0000000000000
0.79600000381470	-0.17104351520538	-0.89711141586304	73.000000000000	0.0000000000000
0.80000001192093	-0.17838221788406	-0.89368557929993	73.000000000000	0.0000000000000
0.80400002002716	-0.18564987182617	-0.89016640186310	73.000000000000	0.0000000000000
0.80800002813339	-0.19284448027611	-0.88655537366867	73.000000000000	0.0000000000000
0.81199997663498	-0.19996321201324	-0.88285464048386	73.000000000000	0.0000000000000
0.81599998474121	-0.20700462162495	-0.87906575202942	73.000000000000	0.0000000000000
0.81999999284744	-0.21396604180336	-0.87519103288651	73.000000000000	0.0000000000000
0.82400000095367	-0.22084574401379	-0.87123239040375	73.000000000000	0.0000000000000
0.82800000905991	-0.22764123976231	-0.86719250679016	73.000000000000	0.0000000000000
0.83200001716614	-0.23435133695602	-0.86307322978973	73.000000000000	0.0000000000000
0.83600002527237	-0.24097369611263	-0.85887730121613	73.000000000000	0.0000000000000
0.83999997377396	-0.24750693142414	-0.85460710525513	73.000000000000	0.0000000000000
0.84399998188019	-0.25394973158836	-0.85026514530182	73.000000000000	0.0000000000000
0.84799998998642	-0.26029995083809	-0.84585422277451	73.000000000000	0.0000000000000
0.85199999809265	-0.26655691862106	-0.84137696027756	73.000000000000	0.0000000000000
0.85600000619888	-0.27271911501884	-0.83683604001999	73.000000000000	0.0000000000000
0.86000001430511	-0.27878558635712	-0.83223438262939	73.000000000000	0.0000000000000
0.86400002241135	-0.28475543856621	-0.82757472991943	73.000000000000	0.0000000000000
0.86799997091293	-0.29062750935555	-0.82286012172699	73.000000000000	0.0000000000000
0.87199997901917	-0.29640179872513	-0.81809306144714	73.000000000000	0.0000000000000
0.87599998712540	-0.30207738280296	-0.81327670812607	73.000000000000	0.0000000000000
0.87999999523163	-0.30765363574028	-0.80841398239136	73.000000000000	0.0000000000000
0.88400000333786	-0.31313094496727	-0.80350762605667	73.000000000000	0.0000000000000
0.88800001144409	-0.31850811839104	-0.79856073856354	73.000000000000	0.0000000000000
0.89200001955032	-0.32378605008125	-0.79357612133026	73.000000000000	0.0000000000000
0.89600002765656	-0.32896450161934	-0.78855645656586	73.000000000000	0.0000000000000
0.89999997615814	-0.33404338359833	-0.78350496292114	73.000000000000	0.0000000000000
0.90399998426437	-0.33902367949486	-0.77842402458191	73.000000000000	0.0000000000000
0.90799999237061	-0.34390580654144	-0.77331638336182	73.000000000000	0.0000000000000
0.91200000047684	-0.34868979454041	-0.76818490028381	73.000000000000	0.0000000000000
0.91600000858307	-0.35337683558464	-0.76303207874298	73.000000000000	0.0000000000000
0.92000001668930	-0.35796719789505	-0.75786077976227	73.000000000000	0.0000000000000
0.92400002479553	-0.36246252059937	-0.75267302989960	73.000000000000	0.0000000000000
0.92799997329712	-0.36686345934868	-0.74747157096863	73.000000000000	0.0000000000000
0.93199998140335	-0.37117099761963	-0.74225872755051	73.000000000000	0.0000000000000
