#Parameters = {d=200; L=50}
#"Frequency / GHz"	"S1,1 (d=200) [Re]"	"S1,1 (d=200) [Im]"	"Ref.Imp. [Re]"	"Ref.Imp. [Im]"
#-----------------------------------------------------------------------------------------
0.0000000000000	0.99660187959671	-0.0000000000000	73.000000000000	0.0000000000000
0.0040000001899898	0.99656677246094	-0.0087380995973945	73.000000000000	0.0000000000000
0.0080000003799796	0.99646180868149	-0.017476053908467	73.000000000000	0.0000000000000
0.012000000104308	0.99628669023514	-0.026213718578219	73.000000000000	0.0000000000000
0.016000000759959	0.99604141712189	-0.034950930625200	73.000000000000	0.0000000000000
0.019999999552965	0.99572575092316	-0.043687552213669	73.000000000000	0.0000000000000
0.024000000208616	0.99533975124359	-0.052423391491175	73.000000000000	0.0000000000000
0.028000000864267	0.99488317966461	-0.061158280819654	73.000000000000	0.0000000000000
0.032000001519918	0.99435573816299	-0.069892004132271	73.000000000000	0.0000000000000
0.035999998450279	0.99375724792480	-0.078624352812767	73.000000000000	0.0000000000000
0.039999999105930	0.99308735132217	-0.087355084717274	73.000000000000	0.0000000000000
0.043999999761581	0.99234586954117	-0.096083946526051	73.000000000000	0.0000000000000
0.048000000417233	0.99153244495392	-0.10481065511703	73.000000000000	0.0000000000000
0.052000001072884	0.99064660072327	-0.11353489011526	73.000000000000	0.0000000000000
0.056000001728535	0.98968821763992	-0.12225631624460	73.000000000000	0.0000000000000
0.059999998658895	0.98865669965744	-0.13097454607487	73.000000000000	0.0000000000000
0.064000003039837	0.98755174875259	-0.13968922197819	73.000000000000	0.0000000000000
0.068000003695488	0.98637294769287	-0.14839985966682	73.000000000000	0.0000000000000
0.071999996900558	0.98511976003647	-0.15710599720478	73.000000000000	0.0000000000000
0.075999997556210	0.98379188776016	-0.16580717265606	73.000000000000	0.0000000000000
0.079999998211861	0.98238873481750	-0.17450277507305	73.000000000000	0.0000000000000
0.083999998867512	0.98091000318527	-0.18319226801395	73.000000000000	0.0000000000000
0.087999999523163	0.97935515642166	-0.19187501072884	73.000000000000	0.0000000000000
0.092000000178814	0.97772359848022	-0.20055036246777	73.000000000000	0.0000000000000
0.096000000834465	0.97601526975632	-0.20921762287617	73.000000000000	0.0000000000000
0.10000000149012	0.97422921657562	-0.21787601709366	73.000000000000	0.0000000000000
0.10400000214577	0.97236526012421	-0.22652484476566	73.000000000000	0.0000000000000
0.10800000280142	0.97042304277420	-0.23516318202019	73.000000000000	0.0000000000000
0.11200000345707	0.96840202808380	-0.24379026889801	73.000000000000	0.0000000000000
0.11599999666214	0.96630179882050	-0.25240519642830	73.000000000000	0.0000000000000
0.11999999731779	0.96412205696106	-0.26100695133209	73.000000000000	0.0000000000000
0.12399999797344	0.96186220645905	-0.26959466934204	73.000000000000	0.0000000000000
0.12800000607967	0.95952248573303	-0.27816730737686	73.000000000000	0.0000000000000
0.13199999928474	0.95710194110870	-0.28672388195992	73.000000000000	0.0000000000000
0.13600000739098	0.95460057258606	-0.29526320099831	73.000000000000	0.0000000000000
0.14000000059605	0.95201814174652	-0.30378431081772	73.000000000000	0.0000000000000
0.14399999380112	0.94935435056686	-0.31228595972061	73.000000000000	0.0000000000000
0.14800000190735	0.94660907983780	-0.32076713442802	73.000000000000	0.0000000000000
0.15199999511242	0.94378226995468	-0.32922652363777	73.000000000000	0.0000000000000
0.15600000321865	0.94087344408035	-0.33766293525696	73.000000000000	0.0000000000000
0.15999999642372	0.93788307905197	-0.34607526659966	73.000000000000	0.0000000000000
0.16400000452995	0.93481081724167	-0.35446217656136	73.000000000000	0.0000000000000
0.16799999773502	0.93165659904480	-0.36282241344452	73.000000000000	0.0000000000000
0.17200000584126	0.92842060327530	-0.37115475535393	73.000000000000	0.0000000000000
0.17599999904633	0.92510300874710	-0.37945783138275	73.000000000000	0.0000000000000
0.18000000715256	0.92170387506485	-0.38773050904274	73.000000000000	0.0000000000000
0.18400000035763	0.91822350025177	-0.39597135782242	73.000000000000	0.0000000000000
0.18799999356270	0.91466194391251	-0.40417906641960	73.000000000000	0.0000000000000
0.19200000166893	0.91101980209351	-0.41235250234604	73.000000000000	0.0000000000000
0.19599999487400	0.90729701519012	-0.42049023509026	73.000000000000	0.0000000000000
0.20000000298023	0.90349417924881	-0.42859095335007	73.000000000000	0.0000000000000
0.20399999618530	0.89961189031601	-0.43665361404419	73.000000000000	0.0000000000000
0.20800000429153	0.89565038681030	-0.44467669725418	73.000000000000	0.0000000000000
0.21199999749660	0.89161020517349	-0.45265907049179	73.000000000000	0.0000000000000
0.21600000560284	0.88749206066132	-0.46059951186180	73.000000000000	0.0000000000000
0.21999999880791	0.88329643011093	-0.46849671006203	73.000000000000	0.0000000000000
0.22400000691414	0.87902384996414	-0.47634953260422	73.000000000000	0.0000000000000
0.22800000011921	0.87467545270920	-0.48415693640709	73.000000000000	0.0000000000000
0.23199999332428	0.87025153636932	-0.49191758036613	73.000000000000	0.0000000000000
0.23600000143051	0.86575299501419	-0.49963054060936	73.000000000000	0.0000000000000
0.23999999463558	0.86118072271347	-0.50729465484619	73.000000000000	0.0000000000000
0.24400000274181	0.85653537511826	-0.51490885019302	73.000000000000	0.0000000000000
0.24799999594688	0.85181802511215	-0.52247208356857	73.000000000000	0.0000000000000
0.25200000405312	0.84702944755554	-0.52998358011246	73.000000000000	0.0000000000000
0.25600001215935	0.84217065572739	-0.53744226694107	73.000000000000	0.0000000000000
0.25999999046326	0.83724254369736	-0.54484724998474	73.000000000000	0.0000000000000
0.26399999856949	0.83224594593048	-0.55219775438309	73.000000000000	0.0000000000000
0.26800000667572	0.82718199491501	-0.55949288606644	73.000000000000	0.0000000000000
0.27200001478195	0.82205170392990	-0.56673210859299	73.000000000000	0.0000000000000
0.27599999308586	0.81685602664948	-0.57391434907913	73.000000000000	0.0000000000000
0.28000000119209	0.81159615516663	-0.58103913068771	73.000000000000	0.0000000000000
0.28400000929832	0.80627274513245	-0.58810585737228	73.000000000000	0.0000000000000
0.28799998760223	0.80088716745377	-0.59511387348175	73.000000000000	0.0000000000000
0.29199999570847	0.79544037580490	-0.60206270217896	73.000000000000	0.0000000000000
0.29600000381470	0.78993326425552	-0.60895186662674	73.000000000000	0.0000000000000
0.30000001192093	0.78436708450317	-0.61578083038330	73.000000000000	0.0000000000000
0.30399999022484	0.77874279022217	-0.62254923582077	73.000000000000	0.0000000000000
0.30799999833107	0.77306127548218	-0.62925672531128	73.000000000000	0.0000000000000
0.31200000643730	0.76732361316681	-0.63590306043625	73.000000000000	0.0000000000000
0.31600001454353	0.76153075695038	-0.64248782396317	73.000000000000	0.0000000000000
0.31999999284744	0.75568377971649	-0.64901071786880	73.000000000000	0.0000000000000
0.32400000095367	0.74978345632553	-0.65547180175781	73.000000000000	0.0000000000000
0.32800000905991	0.74383080005646	-0.66187071800232	73.000000000000	0.0000000000000
0.33199998736382	0.73782670497894	-0.66820740699768	73.000000000000	0.0000000000000
0.33599999547005	0.73177200555801	-0.67448168992996	73.000000000000	0.0000000000000
0.34000000357628	0.72566759586334	-0.68069368600845	73.000000000000	0.0000000000000
0.34400001168251	0.71951413154602	-0.68684303760529	73.000000000000	0.0000000000000
0.34799998998642	0.71331274509430	-0.69292992353439	73.000000000000	0.0000000000000
0.35199999809265	0.70706361532211	-0.69895440340042	73.000000000000	0.0000000000000
0.35600000619888	0.70076799392700	-0.70491635799408	73.000000000000	0.0000000000000
0.36000001430511	0.69442600011826	-0.71081584692001	73.000000000000	0.0000000000000
0.36399999260902	0.68803882598877	-0.71665304899216	73.000000000000	0.0000000000000
0.36800000071526	0.68160665035248	-0.72242784500122	73.000000000000	0.0000000000000
0.37200000882149	0.67513012886047	-0.72814047336578	73.000000000000	0.0000000000000
0.37599998712540	0.66860973834991	-0.73379081487656	73.000000000000	0.0000000000000
0.37999999523163	0.66204619407654	-0.73937910795212	73.000000000000	0.0000000000000
0.38400000333786	0.65543949604034	-0.74490535259247	73.000000000000	0.0000000000000
0.38800001144409	0.64879029989243	-0.75036960840225	73.000000000000	0.0000000000000
0.39199998974800	0.64209902286530	-0.75577199459076	73.000000000000	0.0000000000000
0.39599999785423	0.63536566495895	-0.76111239194870	73.000000000000	0.0000000000000
0.40000000596046	0.62859070301056	-0.76639109849930	73.000000000000	0.0000000000000
0.40400001406670	0.62177449464798	-0.77160781621933	73.000000000000	0.0000000000000
0.40799999237061	0.61491692066193	-0.77676278352737	73.000000000000	0.0000000000000
0.41200000047684	0.60801821947098	-0.78185600042343	73.000000000000	0.0000000000000
0.41600000858307	0.60107880830765	-0.78688716888428	73.000000000000	0.0000000000000
0.41999998688698	0.59409838914871	-0.79185634851456	73.000000000000	0.0000000000000
0.42399999499321	0.58707726001740	-0.79676330089569	73.000000000000	0.0000000000000
0.42800000309944	0.58001542091370	-0.80160814523697	73.000000000000	0.0000000000000
0.43200001120567	0.57291293144226	-0.80639046430588	73.000000000000	0.0000000000000
0.43599998950958	0.56576979160309	-0.81111019849777	73.000000000000	0.0000000000000
0.43999999761581	0.55858600139618	-0.81576681137085	73.000000000000	0.0000000000000
0.44400000572205	0.55136144161224	-0.82036024332047	73.000000000000	0.0000000000000
0.44800001382828	0.54409611225128	-0.82489013671875	73.000000000000	0.0000000000000
0.45199999213219	0.53678989410400	-0.82935595512390	73.000000000000	0.0000000000000
0.45600000023842	0.52944278717041	-0.83375746011734	73.000000000000	0.0000000000000
0.46000000834465	0.52205491065979	-0.83809399604797	73.000000000000	0.0000000000000
0.46399998664856	0.51462584733963	-0.84236502647400	73.000000000000	0.0000000000000
0.46799999475479	0.50715595483780	-0.84657001495361	73.000000000000	0.0000000000000
0.47200000286102	0.49964481592178	-0.85070842504501	73.000000000000	0.0000000000000
0.47600001096725	0.49209254980087	-0.85477954149246	73.000000000000	0.0000000000000
0.47999998927116	0.48449900746346	-0.85878258943558	73.000000000000	0.0000000000000
0.48399999737740	0.47686457633972	-0.86271673440933	73.000000000000	0.0000000000000
0.48800000548363	0.46918883919716	-0.86658126115799	73.000000000000	0.0000000000000
0.49200001358986	0.46147188544273	-0.87037527561188	73.000000000000	0.0000000000000
0.49599999189377	0.45371419191360	-0.87409788370132	73.000000000000	0.0000000000000
0.50000000000000	0.44591554999352	-0.87774819135666	73.000000000000	0.0000000000000
0.50400000810623	0.43807595968246	-0.88132512569427	73.000000000000	0.0000000000000
0.50800001621246	0.43019583821297	-0.88482755422592	73.000000000000	0.0000000000000
0.51200002431870	0.42227545380592	-0.88825464248657	73.000000000000	0.0000000000000
0.51599997282028	0.41431501507759	-0.89160495996475	73.000000000000	0.0000000000000
0.51999998092651	0.40631502866745	-0.89487767219543	73.000000000000	0.0000000000000
0.52399998903275	0.39827522635460	-0.89807152748108	73.000000000000	0.0000000000000
0.52799999713898	0.39019668102264	-0.90118527412415	73.000000000000	0.0000000000000
0.53200000524521	0.38207963109016	-0.90421772003174	73.000000000000	0.0000000000000
0.53600001335144	0.37392467260361	-0.90716761350632	73.000000000000	0.0000000000000
0.54000002145767	0.36573240160942	-0.91003370285034	73.000000000000	0.0000000000000
0.54400002956390	0.35750350356102	-0.91281461715698	73.000000000000	0.0000000000000
0.54799997806549	0.34923845529556	-0.91550916433334	73.000000000000	0.0000000000000
0.55199998617172	0.34093844890594	-0.91811609268188	73.000000000000	0.0000000000000
0.55599999427795	0.33260428905487	-0.92063385248184	73.000000000000	0.0000000000000
0.56000000238419	0.32423648238182	-0.92306143045425	73.000000000000	0.0000000000000
0.56400001049042	0.31583622097969	-0.92539745569229	73.000000000000	0.0000000000000
0.56800001859665	0.30740472674370	-0.92764055728912	73.000000000000	0.0000000000000
0.57200002670288	0.29894322156906	-0.92978954315186	73.000000000000	0.0000000000000
0.57599997520447	0.29045256972313	-0.93184310197830	73.000000000000	0.0000000000000
0.57999998331070	0.28193441033363	-0.93380016088486	73.000000000000	0.0000000000000
0.58399999141693	0.27338957786560	-0.93565911054611	73.000000000000	0.0000000000000
0.58799999952316	0.26481994986534	-0.93741911649704	73.000000000000	0.0000000000000
0.59200000762939	0.25622665882111	-0.93907916545868	73.000000000000	0.0000000000000
0.59600001573563	0.24761123955250	-0.94063758850098	73.000000000000	0.0000000000000
0.60000002384186	0.23897559940815	-0.94209390878677	73.000000000000	0.0000000000000
0.60399997234344	0.23032119870186	-0.94344669580460	73.000000000000	0.0000000000000
0.60799998044968	0.22164975106716	-0.94469511508942	73.000000000000	0.0000000000000
0.61199998855591	0.21296301484108	-0.94583821296692	73.000000000000	0.0000000000000
0.61599999666214	0.20426298677921	-0.94687521457672	73.000000000000	0.0000000000000
0.62000000476837	0.19555105268955	-0.94780522584915	73.000000000000	0.0000000000000
0.62400001287460	0.18682971596718	-0.94862753152847	73.000000000000	0.0000000000000
0.62800002098083	0.17810061573982	-0.94934147596359	73.000000000000	0.0000000000000
0.63200002908707	0.16936592757702	-0.94994622468948	73.000000000000	0.0000000000000
0.63599997758865	0.16062749922276	-0.95044147968292	73.000000000000	0.0000000000000
0.63999998569489	0.15188731253147	-0.95082670450211	73.000000000000	0.0000000000000
0.64399999380112	0.14314776659012	-0.95110148191452	73.000000000000	0.0000000000000
0.64800000190735	0.13441041111946	-0.95126551389694	73.000000000000	0.0000000000000
0.65200001001358	0.12567812204361	-0.95131856203079	73.000000000000	0.0000000000000
0.65600001811981	0.11695290356874	-0.95126020908356	73.000000000000	0.0000000000000
0.66000002622604	0.10823632776737	-0.95109093189240	73.000000000000	0.0000000000000
0.66399997472763	0.099531777203083	-0.95081013441086	73.000000000000	0.0000000000000
0.66799998283386	0.090839900076389	-0.95041823387146	73.000000000000	0.0000000000000
0.67199999094009	0.082164540886879	-0.94991528987885	73.000000000000	0.0000000000000
0.67599999904633	0.073506802320480	-0.94930154085159	73.000000000000	0.0000000000000
0.68000000715256	0.064868718385696	-0.94857740402222	73.000000000000	0.0000000000000
0.68400001525879	0.056252744048834	-0.94774317741394	73.000000000000	0.0000000000000
0.68800002336502	0.047660872340202	-0.94679933786392	73.000000000000	0.0000000000000
0.69199997186661	0.039096005260944	-0.94574654102325	73.000000000000	0.0000000000000
0.69599997997284	0.030559210106730	-0.94458538293839	73.000000000000	0.0000000000000
0.69999998807907	0.022052887827158	-0.94331645965576	73.000000000000	0.0000000000000
0.70399999618530	0.013579430058599	-0.94194072484970	73.000000000000	0.0000000000000
0.70800000429153	0.0051403013058007	-0.94045889377594	73.000000000000	0.0000000000000
0.71200001239777	-0.0032630546484143	-0.93887203931808	73.000000000000	0.0000000000000
0.71600002050400	-0.011627874337137	-0.93718105554581	73.000000000000	0.0000000000000
0.72000002861023	-0.019951876252890	-0.93538695573807	73.000000000000	0.0000000000000
0.72399997711182	-0.028235038742423	-0.93349099159241	73.000000000000	0.0000000000000
0.72799998521805	-0.036474239081144	-0.93149405717850	73.000000000000	0.0000000000000
0.73199999332428	-0.044668186455965	-0.92939770221710	73.000000000000	0.0000000000000
0.73600000143051	-0.052815608680248	-0.92720299959183	73.000000000000	0.0000000000000
0.74000000953674	-0.060914829373360	-0.92491120100021	73.000000000000	0.0000000000000
0.74400001764297	-0.068964198231697	-0.92252385616302	73.000000000000	0.0000000000000
0.74800002574921	-0.076962560415268	-0.92004203796387	73.000000000000	0.0000000000000
0.75199997425079	-0.084908336400986	-0.91746747493744	73.000000000000	0.0000000000000
0.75599998235703	-0.092801310122013	-0.91480135917664	73.000000000000	0.0000000000000
0.75999999046326	-0.10063911229372	-0.91204524040222	73.000000000000	0.0000000000000
0.76399999856949	-0.10842160135508	-0.90920060873032	73.000000000000	0.0000000000000
0.76800000667572	-0.11614689230919	-0.90626877546310	73.000000000000	0.0000000000000
0.77200001478195	-0.12381491810083	-0.90325134992599	73.000000000000	0.0000000000000
0.77600002288818	-0.13142389059067	-0.90015000104904	73.000000000000	0.0000000000000
0.77999997138977	-0.13897421956062	-0.89696568250656	73.000000000000	0.0000000000000
0.78399997949600	-0.14646461606026	-0.89370030164719	73.000000000000	0.0000000000000
0.78799998760223	-0.15389464795589	-0.89035511016846	73.000000000000	0.0000000000000
0.79199999570847	-0.16126355528831	-0.88693147897720	73.000000000000	0.0000000000000
0.79600000381470	-0.16857098042965	-0.88343101739883	73.000000000000	0.0000000000000
0.80000001192093	-0.17581659555435	-0.87985491752625	73.000000000000	0.0000000000000
0.80400002002716	-0.18299967050552	-0.87620460987091	73.000000000000	0.0000000000000
0.80800002813339	-0.19012035429478	-0.87248140573502	73.000000000000	0.0000000000000
0.81199997663498	-0.19717879593372	-0.86868631839752	73.000000000000	0.0000000000000
0.81599998474121	-0.20417389273643	-0.86482089757919	73.000000000000	0.0000000000000
0.81999999284744	-0.21110665798187	-0.86088603734970	73.000000000000	0.0000000000000
0.82400000095367	-0.21797603368759	-0.85688298940659	73.000000000000	0.0000000000000
0.82800000905991	-0.22478258609772	-0.85281276702881	73.000000000000	0.0000000000000
0.83200001716614	-0.23152610659599	-0.84867620468140	73.000000000000	0.0000000000000
0.83600002527237	-0.23820680379868	-0.84447449445724	73.000000000000	0.0000000000000
0.83999997377396	-0.24482479691505	-0.84020817279816	73.000000000000	0.0000000000000
0.84399998188019	-0.25138026475906	-0.83587825298309	73.000000000000	0.0000000000000
0.84799998998642	-0.25787296891212	-0.83148533105850	73.000000000000	0.0000000000000
0.85199999809265	-0.26430344581604	-0.82703018188477	73.000000000000	0.0000000000000
0.85600000619888	-0.27067178487778	-0.82251328229904	73.000000000000	0.0000000000000
0.86000001430511	-0.27697810530663	-0.81793510913849	73.000000000000	0.0000000000000
0.86400002241135	-0.28322282433510	-0.81329602003098	73.000000000000	0.0000000000000
0.86799997091293	-0.28940561413765	-0.80859667062759	73.000000000000	0.0000000000000
0.87199997901917	-0.29552689194679	-0.80383700132370	73.000000000000	0.0000000000000
0.87599998712540	-0.30158692598343	-0.79901725053787	73.000000000000	0.0000000000000
0.87999999523163	-0.30758577585220	-0.79413771629333	73.000000000000	0.0000000000000
0.88400000333786	-0.31352317333221	-0.78919845819473	73.000000000000	0.0000000000000
0.88800001144409	-0.31939983367920	-0.78419923782349	73.000000000000	0.0000000000000
0.89200001955032	-0.32521516084671	-0.77914023399353	73.000000000000	0.0000000000000
0.89600002765656	-0.33096918463707	-0.77402120828629	73.000000000000	0.0000000000000
0.89999997615814	-0.33666199445724	-0.76884186267853	73.000000000000	0.0000000000000
0.90399998426437	-0.34229364991188	-0.76360195875168	73.000000000000	0.0000000000000
0.90799999237061	-0.34786289930344	-0.75830155611038	73.000000000000	0.0000000000000
0.91200000047684	-0.35337039828300	-0.75293987989426	73.000000000000	0.0000000000000
0.91600000858307	-0.35881593823433	-0.74751651287079	73.000000000000	0.0000000000000
0.92000001668930	-0.36419817805290	-0.74203133583069	73.000000000000	0.0000000000000
0.92400002479553	-0.36951750516891	-0.73648351430893	73.000000000000	0.0000000000000
0.92799997329712	-0.37477284669876	-0.73087275028229	73.000000000000	0.0000000000000
0.93199998140335	-0.37996330857277	-0.72519856691360	73.000000000000	0.0000000000000
