#Parameters = {d=30; L=50}
#"Frequency / GHz"	"S1,1 (d=30) [Re]"	"S1,1 (d=30) [Im]"	"Ref.Imp. [Re]"	"Ref.Imp. [Im]"
#---------------------------------------------------------------------------------------
0.0000000000000	0.99581718444824	-0.0000000000000	73.000000000000	0.0000000000000
0.0040000001899898	0.99578374624252	-0.0087136942893267	73.000000000000	0.0000000000000
0.0080000003799796	0.99568331241608	-0.017427528277040	73.000000000000	0.0000000000000
0.012000000104308	0.99551582336426	-0.026141628623009	73.000000000000	0.0000000000000
0.016000000759959	0.99528121948242	-0.034856125712395	73.000000000000	0.0000000000000
0.019999999552965	0.99497926235199	-0.043571129441261	73.000000000000	0.0000000000000
0.024000000208616	0.99460971355438	-0.052286721765995	73.000000000000	0.0000000000000
0.028000000864267	0.99417209625244	-0.061002984642982	73.000000000000	0.0000000000000
0.032000001519918	0.99366623163223	-0.069719940423965	73.000000000000	0.0000000000000
0.035999998450279	0.99309164285660	-0.078437611460686	73.000000000000	0.0000000000000
0.039999999105930	0.99244785308838	-0.087155975401402	73.000000000000	0.0000000000000
0.043999999761581	0.99173444509506	-0.095874950289726	73.000000000000	0.0000000000000
0.048000000417233	0.99095070362091	-0.10459443181753	73.000000000000	0.0000000000000
0.052000001072884	0.99009603261948	-0.11331427842379	73.000000000000	0.0000000000000
0.056000001728535	0.98917013406754	-0.12203426659107	73.000000000000	0.0000000000000
0.059999998658895	0.98817205429077	-0.13075415790081	73.000000000000	0.0000000000000
0.064000003039837	0.98710107803345	-0.13947360217571	73.000000000000	0.0000000000000
0.068000003695488	0.98595672845840	-0.14819228649139	73.000000000000	0.0000000000000
0.071999996900558	0.98473799228668	-0.15690973401070	73.000000000000	0.0000000000000
0.075999997556210	0.98344445228577	-0.16562545299530	73.000000000000	0.0000000000000
0.079999998211861	0.98207533359528	-0.17433892190456	73.000000000000	0.0000000000000
0.083999998867512	0.98062956333160	-0.18304951488972	73.000000000000	0.0000000000000
0.087999999523163	0.97910672426224	-0.19175651669502	73.000000000000	0.0000000000000
0.092000000178814	0.97750580310822	-0.20045925676823	73.000000000000	0.0000000000000
0.096000000834465	0.97582626342773	-0.20915687084198	73.000000000000	0.0000000000000
0.10000000149012	0.97406721115112	-0.21784847974777	73.000000000000	0.0000000000000
0.10400000214577	0.97222816944122	-0.22653314471245	73.000000000000	0.0000000000000
0.10800000280142	0.97030818462372	-0.23520991206169	73.000000000000	0.0000000000000
0.11200000345707	0.96830689907074	-0.24387772381306	73.000000000000	0.0000000000000
0.11599999666214	0.96622341871262	-0.25253537297249	73.000000000000	0.0000000000000
0.11999999731779	0.96405726671219	-0.26118183135986	73.000000000000	0.0000000000000
0.12399999797344	0.96180808544159	-0.26981574296951	73.000000000000	0.0000000000000
0.12800000607967	0.95947510004044	-0.27843582630157	73.000000000000	0.0000000000000
0.13199999928474	0.95705783367157	-0.28704082965851	73.000000000000	0.0000000000000
0.13600000739098	0.95455604791641	-0.29562932252884	73.000000000000	0.0000000000000
0.14000000059605	0.95196938514709	-0.30419999361038	73.000000000000	0.0000000000000
0.14399999380112	0.94929766654968	-0.31275123357773	73.000000000000	0.0000000000000
0.14800000190735	0.94654047489166	-0.32128161191940	73.000000000000	0.0000000000000
0.15199999511242	0.94369763135910	-0.32978960871696	73.000000000000	0.0000000000000
0.15600000321865	0.94076919555664	-0.33827370405197	73.000000000000	0.0000000000000
0.15999999642372	0.93775498867035	-0.34673228859901	73.000000000000	0.0000000000000
0.16400000452995	0.93465536832809	-0.35516387224197	73.000000000000	0.0000000000000
0.16799999773502	0.93147021532059	-0.36356672644615	73.000000000000	0.0000000000000
0.17200000584126	0.92819976806641	-0.37193933129311	73.000000000000	0.0000000000000
0.17599999904633	0.92484408617020	-0.38028004765511	73.000000000000	0.0000000000000
0.18000000715256	0.92140388488770	-0.38858732581139	73.000000000000	0.0000000000000
0.18400000035763	0.91787934303284	-0.39685952663422	73.000000000000	0.0000000000000
0.18799999356270	0.91427105665207	-0.40509507060051	73.000000000000	0.0000000000000
0.19200000166893	0.91057944297791	-0.41329237818718	73.000000000000	0.0000000000000
0.19599999487400	0.90680515766144	-0.42144992947578	73.000000000000	0.0000000000000
0.20000000298023	0.90294915437698	-0.42956629395485	73.000000000000	0.0000000000000
0.20399999618530	0.89901173114777	-0.43763983249664	73.000000000000	0.0000000000000
0.20800000429153	0.89499413967133	-0.44566926360130	73.000000000000	0.0000000000000
0.21199999749660	0.89089715480804	-0.45365297794342	73.000000000000	0.0000000000000
0.21600000560284	0.88672149181366	-0.46158981323242	73.000000000000	0.0000000000000
0.21999999880791	0.88246840238571	-0.46947833895683	73.000000000000	0.0000000000000
0.22400000691414	0.87813884019852	-0.47731733322144	73.000000000000	0.0000000000000
0.22800000011921	0.87373399734497	-0.48510563373566	73.000000000000	0.0000000000000
0.23199999332428	0.86925488710403	-0.49284204840660	73.000000000000	0.0000000000000
0.23600000143051	0.86470288038254	-0.50052547454834	73.000000000000	0.0000000000000
0.23999999463558	0.86007893085480	-0.50815492868423	73.000000000000	0.0000000000000
0.24400000274181	0.85538458824158	-0.51572942733765	73.000000000000	0.0000000000000
0.24799999594688	0.85062092542648	-0.52324819564819	73.000000000000	0.0000000000000
0.25200000405312	0.84578949213028	-0.53071033954620	73.000000000000	0.0000000000000
0.25600001215935	0.84089124202728	-0.53811502456665	73.000000000000	0.0000000000000
0.25999999046326	0.83592784404755	-0.54546171426773	73.000000000000	0.0000000000000
0.26399999856949	0.83090060949326	-0.55274981260300	73.000000000000	0.0000000000000
0.26800000667572	0.82581055164337	-0.55997866392136	73.000000000000	0.0000000000000
0.27200001478195	0.82065945863724	-0.56714797019958	73.000000000000	0.0000000000000
0.27599999308586	0.81544846296310	-0.57425725460052	73.000000000000	0.0000000000000
0.28000000119209	0.81017875671387	-0.58130621910095	73.000000000000	0.0000000000000
0.28400000929832	0.80485183000565	-0.58829462528229	73.000000000000	0.0000000000000
0.28799998760223	0.79946881532669	-0.59522229433060	73.000000000000	0.0000000000000
0.29199999570847	0.79403126239777	-0.60208910703659	73.000000000000	0.0000000000000
0.29600000381470	0.78853988647461	-0.60889506340027	73.000000000000	0.0000000000000
0.30000001192093	0.78299623727798	-0.61564016342163	73.000000000000	0.0000000000000
0.30399999022484	0.77740162611008	-0.62232452630997	73.000000000000	0.0000000000000
0.30799999833107	0.77175641059875	-0.62894809246063	73.000000000000	0.0000000000000
0.31200000643730	0.76606249809265	-0.63551127910614	73.000000000000	0.0000000000000
0.31600001454353	0.76032048463821	-0.64201408624649	73.000000000000	0.0000000000000
0.31999999284744	0.75453114509583	-0.64845699071884	73.000000000000	0.0000000000000
0.32400000095367	0.74869555234909	-0.65484005212784	73.000000000000	0.0000000000000
0.32800000905991	0.74281454086304	-0.66116380691528	73.000000000000	0.0000000000000
0.33199998736382	0.73688900470734	-0.66742855310440	73.000000000000	0.0000000000000
0.33599999547005	0.73091930150986	-0.67363458871841	73.000000000000	0.0000000000000
0.34000000357628	0.72490620613098	-0.67978250980377	73.000000000000	0.0000000000000
0.34400001168251	0.71885037422180	-0.68587255477905	73.000000000000	0.0000000000000
0.34799998998642	0.71275210380554	-0.69190514087677	73.000000000000	0.0000000000000
0.35199999809265	0.70661199092865	-0.69788080453873	73.000000000000	0.0000000000000
0.35600000619888	0.70043027400970	-0.70379996299744	73.000000000000	0.0000000000000
0.36000001430511	0.69420742988586	-0.70966291427612	73.000000000000	0.0000000000000
0.36399999260902	0.68794339895248	-0.71547013521194	73.000000000000	0.0000000000000
0.36800000071526	0.68163836002350	-0.72122198343277	73.000000000000	0.0000000000000
0.37200000882149	0.67529261112213	-0.72691881656647	73.000000000000	0.0000000000000
0.37599998712540	0.66890597343445	-0.73256099224091	73.000000000000	0.0000000000000
0.37999999523163	0.66247862577438	-0.73814868927002	73.000000000000	0.0000000000000
0.38400000333786	0.65601021051407	-0.74368238449097	73.000000000000	0.0000000000000
0.38800001144409	0.64950072765350	-0.74916201829910	73.000000000000	0.0000000000000
0.39199998974800	0.64295005798340	-0.75458794832230	73.000000000000	0.0000000000000
0.39599999785423	0.63635772466660	-0.75996017456055	73.000000000000	0.0000000000000
0.40000000596046	0.62972372770309	-0.76527875661850	73.000000000000	0.0000000000000
0.40400001406670	0.62304753065109	-0.77054369449615	73.000000000000	0.0000000000000
0.40799999237061	0.61632889509201	-0.77575498819351	73.000000000000	0.0000000000000
0.41200000047684	0.60956704616547	-0.78091228008270	73.000000000000	0.0000000000000
0.41600000858307	0.60276216268539	-0.78601562976837	73.000000000000	0.0000000000000
0.41999998688698	0.59591341018677	-0.79106456041336	73.000000000000	0.0000000000000
0.42399999499321	0.58902043104172	-0.79605877399445	73.000000000000	0.0000000000000
0.42800000309944	0.58208280801773	-0.80099797248840	73.000000000000	0.0000000000000
0.43200001120567	0.57510006427765	-0.80588126182556	73.000000000000	0.0000000000000
0.43599998950958	0.56807172298431	-0.81070858240128	73.000000000000	0.0000000000000
0.43999999761581	0.56099730730057	-0.81547892093658	73.000000000000	0.0000000000000
0.44400000572205	0.55387651920319	-0.82019168138504	73.000000000000	0.0000000000000
0.44800001382828	0.54670858383179	-0.82484602928162	73.000000000000	0.0000000000000
0.45199999213219	0.53949350118637	-0.82944113016129	73.000000000000	0.0000000000000
0.45600000023842	0.53223091363907	-0.83397585153580	73.000000000000	0.0000000000000
0.46000000834465	0.52492034435272	-0.83844929933548	73.000000000000	0.0000000000000
0.46399998664856	0.51756137609482	-0.84286040067673	73.000000000000	0.0000000000000
0.46799999475479	0.51015412807465	-0.84720790386200	73.000000000000	0.0000000000000
0.47200000286102	0.50269824266434	-0.85149055719376	73.000000000000	0.0000000000000
0.47600001096725	0.49519366025925	-0.85570728778839	73.000000000000	0.0000000000000
0.47999998927116	0.48764026165009	-0.85985642671585	73.000000000000	0.0000000000000
0.48399999737740	0.48003801703453	-0.86393678188324	73.000000000000	0.0000000000000
0.48800000548363	0.47238716483116	-0.86794686317444	73.000000000000	0.0000000000000
0.49200001358986	0.46468764543533	-0.87188512086868	73.000000000000	0.0000000000000
0.49599999189377	0.45694002509117	-0.87575018405914	73.000000000000	0.0000000000000
0.50000000000000	0.44914433360100	-0.87954026460648	73.000000000000	0.0000000000000
0.50400000810623	0.44130137562752	-0.88325405120850	73.000000000000	0.0000000000000
0.50800001621246	0.43341124057770	-0.88688951730728	73.000000000000	0.0000000000000
0.51200002431870	0.42547506093979	-0.89044535160065	73.000000000000	0.0000000000000
0.51599997282028	0.41749265789986	-0.89391976594925	73.000000000000	0.0000000000000
0.51999998092651	0.40946549177170	-0.89731132984161	73.000000000000	0.0000000000000
0.52399998903275	0.40139448642731	-0.90061813592911	73.000000000000	0.0000000000000
0.52799999713898	0.39328029751778	-0.90383863449097	73.000000000000	0.0000000000000
0.53200000524521	0.38512405753136	-0.90697121620178	73.000000000000	0.0000000000000
0.53600001335144	0.37692692875862	-0.91001433134079	73.000000000000	0.0000000000000
0.54000002145767	0.36869055032730	-0.91296625137329	73.000000000000	0.0000000000000
0.54400002956390	0.36041581630707	-0.91582566499710	73.000000000000	0.0000000000000
0.54799997806549	0.35210400819778	-0.91859090328217	73.000000000000	0.0000000000000
0.55199998617172	0.34375718235970	-0.92126047611237	73.000000000000	0.0000000000000
0.55599999427795	0.33537662029266	-0.92383319139481	73.000000000000	0.0000000000000
0.56000000238419	0.32696437835693	-0.92630743980408	73.000000000000	0.0000000000000
0.56400001049042	0.31852164864540	-0.92868214845657	73.000000000000	0.0000000000000
0.56800001859665	0.31005084514618	-0.93095594644547	73.000000000000	0.0000000000000
0.57200002670288	0.30155360698700	-0.93312770128250	73.000000000000	0.0000000000000
0.57599997520447	0.29303193092346	-0.93519663810730	73.000000000000	0.0000000000000
0.57999998331070	0.28448805212975	-0.93716132640839	73.000000000000	0.0000000000000
0.58399999141693	0.27592390775681	-0.93902117013931	73.000000000000	0.0000000000000
0.58799999952316	0.26734182238579	-0.94077527523041	73.000000000000	0.0000000000000
0.59200000762939	0.25874370336533	-0.94242292642593	73.000000000000	0.0000000000000
0.59600001573563	0.25013208389282	-0.94396364688873	73.000000000000	0.0000000000000
0.60000002384186	0.24150949716568	-0.94539660215378	73.000000000000	0.0000000000000
0.60399997234344	0.23287770152092	-0.94672173261642	73.000000000000	0.0000000000000
0.60799998044968	0.22423923015594	-0.94793856143951	73.000000000000	0.0000000000000
0.61199998855591	0.21559628844261	-0.94904685020447	73.000000000000	0.0000000000000
0.61599999666214	0.20695157349110	-0.95004665851593	73.000000000000	0.0000000000000
0.62000000476837	0.19830740988255	-0.95093762874603	73.000000000000	0.0000000000000
0.62400001287460	0.18966586887836	-0.95172035694122	73.000000000000	0.0000000000000
0.62800002098083	0.18102957308292	-0.95239472389221	73.000000000000	0.0000000000000
0.63200002908707	0.17240075767040	-0.95296108722687	73.000000000000	0.0000000000000
0.63599997758865	0.16378158330917	-0.95341998338699	73.000000000000	0.0000000000000
0.63999998569489	0.15517427027225	-0.95377194881439	73.000000000000	0.0000000000000
0.64399999380112	0.14658123254776	-0.95401740074158	73.000000000000	0.0000000000000
0.64800000190735	0.13800439238548	-0.95415717363358	73.000000000000	0.0000000000000
0.65200001001358	0.12944661080837	-0.95419198274612	73.000000000000	0.0000000000000
0.65600001811981	0.12090886384249	-0.95412296056747	73.000000000000	0.0000000000000
0.66000002622604	0.11239393055439	-0.95395082235336	73.000000000000	0.0000000000000
0.66399997472763	0.10390321910381	-0.95367670059204	73.000000000000	0.0000000000000
0.66799998283386	0.095439456403255	-0.95330160856247	73.000000000000	0.0000000000000
0.67199999094009	0.087003976106644	-0.95282691717148	73.000000000000	0.0000000000000
0.67599999904633	0.078598089516163	-0.95225387811661	73.000000000000	0.0000000000000
0.68000000715256	0.070224411785603	-0.95158350467682	73.000000000000	0.0000000000000
0.68400001525879	0.061883717775345	-0.95081758499146	73.000000000000	0.0000000000000
0.68800002336502	0.053577214479446	-0.94995725154877	73.000000000000	0.0000000000000
0.69199997186661	0.045306943356991	-0.94900399446487	73.000000000000	0.0000000000000
0.69599997997284	0.037074029445648	-0.94795936346054	73.000000000000	0.0000000000000
0.69999998807907	0.028879087418318	-0.94682478904724	73.000000000000	0.0000000000000
0.70399999618530	0.020724505186081	-0.94560182094574	73.000000000000	0.0000000000000
0.70800000429153	0.012610375881195	-0.94429206848145	73.000000000000	0.0000000000000
0.71200001239777	0.0045376471243799	-0.94289690256119	73.000000000000	0.0000000000000
0.71600002050400	-0.0034927665255964	-0.94141805171967	73.000000000000	0.0000000000000
0.72000002861023	-0.011479990556836	-0.93985682725906	73.000000000000	0.0000000000000
0.72399997711182	-0.019424086436629	-0.93821483850479	73.000000000000	0.0000000000000
0.72799998521805	-0.027323357760906	-0.93649375438690	73.000000000000	0.0000000000000
0.73199999332428	-0.035177938640118	-0.93469482660294	73.000000000000	0.0000000000000
0.73600000143051	-0.042987972497940	-0.93281948566437	73.000000000000	0.0000000000000
0.74000000953674	-0.050752334296703	-0.93086940050125	73.000000000000	0.0000000000000
0.74400001764297	-0.058470781892538	-0.92884552478790	73.000000000000	0.0000000000000
0.74800002574921	-0.066144004464149	-0.92674952745438	73.000000000000	0.0000000000000
0.75199997425079	-0.073770940303802	-0.92458242177963	73.000000000000	0.0000000000000
0.75599998235703	-0.081352755427361	-0.92234539985657	73.000000000000	0.0000000000000
0.75999999046326	-0.088887974619865	-0.92003971338272	73.000000000000	0.0000000000000
0.76399999856949	-0.096377804875374	-0.91766643524170	73.000000000000	0.0000000000000
0.76800000667572	-0.10382214188576	-0.91522639989853	73.000000000000	0.0000000000000
0.77200001478195	-0.11122129112482	-0.91272062063217	73.000000000000	0.0000000000000
0.77600002288818	-0.11857429891825	-0.91015005111694	73.000000000000	0.0000000000000
0.77999997138977	-0.12588322162628	-0.90751504898071	73.000000000000	0.0000000000000
0.78399997949600	-0.13314713537693	-0.90481674671173	73.000000000000	0.0000000000000
0.78799998760223	-0.14036677777767	-0.90205568075180	73.000000000000	0.0000000000000
0.79199999570847	-0.14754204452038	-0.89923220872879	73.000000000000	0.0000000000000
0.79600000381470	-0.15467326343060	-0.89634686708450	73.000000000000	0.0000000000000
0.80000001192093	-0.16176071763039	-0.89340007305145	73.000000000000	0.0000000000000
0.80400002002716	-0.16880470514297	-0.89039206504822	73.000000000000	0.0000000000000
0.80800002813339	-0.17580547928810	-0.88732308149338	73.000000000000	0.0000000000000
0.81199997663498	-0.18276326358318	-0.88419324159622	73.000000000000	0.0000000000000
0.81599998474121	-0.18967834115028	-0.88100260496140	73.000000000000	0.0000000000000
0.81999999284744	-0.19654956459999	-0.87775146961212	73.000000000000	0.0000000000000
0.82400000095367	-0.20337884128094	-0.87443929910660	73.000000000000	0.0000000000000
0.82800000905991	-0.21016544103622	-0.87106639146805	73.000000000000	0.0000000000000
0.83200001716614	-0.21690900623798	-0.86763232946396	73.000000000000	0.0000000000000
0.83600002527237	-0.22360928356647	-0.86413717269897	73.000000000000	0.0000000000000
0.83999997377396	-0.23026664555073	-0.86058044433594	73.000000000000	0.0000000000000
0.84399998188019	-0.23688110709190	-0.85696190595627	73.000000000000	0.0000000000000
0.84799998998642	-0.24345099925995	-0.85328143835068	73.000000000000	0.0000000000000
0.85199999809265	-0.24997746944427	-0.84953832626343	73.000000000000	0.0000000000000
0.85600000619888	-0.25645920634270	-0.84573251008987	73.000000000000	0.0000000000000
0.86000001430511	-0.26289558410645	-0.84186363220215	73.000000000000	0.0000000000000
0.86400002241135	-0.26928615570068	-0.83793133497238	73.000000000000	0.0000000000000
0.86799997091293	-0.27562978863716	-0.83393532037735	73.000000000000	0.0000000000000
0.87199997901917	-0.28192624449730	-0.82987487316132	73.000000000000	0.0000000000000
0.87599998712540	-0.28817456960678	-0.82575011253357	73.000000000000	0.0000000000000
0.87999999523163	-0.29437348246574	-0.82156050205231	73.000000000000	0.0000000000000
0.88400000333786	-0.30052199959755	-0.81730580329895	73.000000000000	0.0000000000000
0.88800001144409	-0.30661857128143	-0.81298613548279	73.000000000000	0.0000000000000
0.89200001955032	-0.31266242265701	-0.80860114097595	73.000000000000	0.0000000000000
0.89600002765656	-0.31865236163139	-0.80415064096451	73.000000000000	0.0000000000000
0.89999997615814	-0.32458642125130	-0.79963463544846	73.000000000000	0.0000000000000
0.90399998426437	-0.33046346902847	-0.79505330324173	73.000000000000	0.0000000000000
0.90799999237061	-0.33628234267235	-0.79040658473969	73.000000000000	0.0000000000000
0.91200000047684	-0.34204068779945	-0.78569513559341	73.000000000000	0.0000000000000
0.91600000858307	-0.34773734211922	-0.78091889619827	73.000000000000	0.0000000000000
0.92000001668930	-0.35337078571320	-0.77607840299606	73.000000000000	0.0000000000000
0.92400002479553	-0.35893911123276	-0.77117407321930	73.000000000000	0.0000000000000
0.92799997329712	-0.36444053053856	-0.76620680093765	73.000000000000	0.0000000000000
0.93199998140335	-0.36987316608429	-0.76117730140686	73.000000000000	0.0000000000000
