#Parameters = {d=40; L=50}
#"Frequency / GHz"	"S1,1 (d=40) [Re]"	"S1,1 (d=40) [Im]"	"Ref.Imp. [Re]"	"Ref.Imp. [Im]"
#---------------------------------------------------------------------------------------
0.0000000000000	0.99696493148804	-0.0000000000000	73.000000000000	0.0000000000000
0.0040000001899898	0.99693083763123	-0.0087094483897090	73.000000000000	0.0000000000000
0.0080000003799796	0.99682861566544	-0.017418963834643	73.000000000000	0.0000000000000
0.012000000104308	0.99665838479996	-0.026128616183996	73.000000000000	0.0000000000000
0.016000000759959	0.99641954898834	-0.034838449209929	73.000000000000	0.0000000000000
0.019999999552965	0.99611234664917	-0.043548513203859	73.000000000000	0.0000000000000
0.024000000208616	0.99573636054993	-0.052258819341660	73.000000000000	0.0000000000000
0.028000000864267	0.99529123306274	-0.060969375073910	73.000000000000	0.0000000000000
0.032000001519918	0.99477672576904	-0.069680146872997	73.000000000000	0.0000000000000
0.035999998450279	0.99419230222702	-0.078391037881374	73.000000000000	0.0000000000000
0.039999999105930	0.99353760480881	-0.087101995944977	73.000000000000	0.0000000000000
0.043999999761581	0.99281221628189	-0.095812857151031	73.000000000000	0.0000000000000
0.048000000417233	0.99201548099518	-0.10452342778444	73.000000000000	0.0000000000000
0.052000001072884	0.99114686250687	-0.11323347687721	73.000000000000	0.0000000000000
0.056000001728535	0.99020576477051	-0.12194271385670	73.000000000000	0.0000000000000
0.059999998658895	0.98919165134430	-0.13065083324909	73.000000000000	0.0000000000000
0.064000003039837	0.98810380697250	-0.13935741782188	73.000000000000	0.0000000000000
0.068000003695488	0.98694169521332	-0.14806200563908	73.000000000000	0.0000000000000
0.071999996900558	0.98570436239243	-0.15676409006119	73.000000000000	0.0000000000000
0.075999997556210	0.98439145088196	-0.16546308994293	73.000000000000	0.0000000000000
0.079999998211861	0.98300212621689	-0.17415840923786	73.000000000000	0.0000000000000
0.083999998867512	0.98153555393219	-0.18284930288792	73.000000000000	0.0000000000000
0.087999999523163	0.97999137639999	-0.19153508543968	73.000000000000	0.0000000000000
0.092000000178814	0.97836863994598	-0.20021483302116	73.000000000000	0.0000000000000
0.096000000834465	0.97666692733765	-0.20888772606850	73.000000000000	0.0000000000000
0.10000000149012	0.97488546371460	-0.21755281090736	73.000000000000	0.0000000000000
0.10400000214577	0.97302371263504	-0.22620908915997	73.000000000000	0.0000000000000
0.10800000280142	0.97108101844788	-0.23485545814037	73.000000000000	0.0000000000000
0.11200000345707	0.96905684471130	-0.24349087476730	73.000000000000	0.0000000000000
0.11599999666214	0.96695089340210	-0.25211408734322	73.000000000000	0.0000000000000
0.11999999731779	0.96476244926453	-0.26072388887405	73.000000000000	0.0000000000000
0.12399999797344	0.96249121427536	-0.26931905746460	73.000000000000	0.0000000000000
0.12800000607967	0.96013689041138	-0.27789822220802	73.000000000000	0.0000000000000
0.13199999928474	0.95769906044006	-0.28646004199982	73.000000000000	0.0000000000000
0.13600000739098	0.95517760515213	-0.29500314593315	73.000000000000	0.0000000000000
0.14000000059605	0.95257204771042	-0.30352610349655	73.000000000000	0.0000000000000
0.14399999380112	0.94988274574280	-0.31202739477158	73.000000000000	0.0000000000000
0.14800000190735	0.94710934162140	-0.32050570845604	73.000000000000	0.0000000000000
0.15199999511242	0.94425183534622	-0.32895940542221	73.000000000000	0.0000000000000
0.15600000321865	0.94131040573120	-0.33738696575165	73.000000000000	0.0000000000000
0.15999999642372	0.93828535079956	-0.34578701853752	73.000000000000	0.0000000000000
0.16400000452995	0.93517655134201	-0.35415789484978	73.000000000000	0.0000000000000
0.16799999773502	0.93198448419571	-0.36249810457230	73.000000000000	0.0000000000000
0.17200000584126	0.92870956659317	-0.37080618739128	73.000000000000	0.0000000000000
0.17599999904633	0.92535209655762	-0.37908062338829	73.000000000000	0.0000000000000
0.18000000715256	0.92191278934479	-0.38731989264488	73.000000000000	0.0000000000000
0.18400000035763	0.91839212179184	-0.39552262425423	73.000000000000	0.0000000000000
0.18799999356270	0.91479068994522	-0.40368723869324	73.000000000000	0.0000000000000
0.19200000166893	0.91110914945602	-0.41181248426437	73.000000000000	0.0000000000000
0.19599999487400	0.90734851360321	-0.41989690065384	73.000000000000	0.0000000000000
0.20000000298023	0.90350919961929	-0.42793914675713	73.000000000000	0.0000000000000
0.20399999618530	0.89959257841110	-0.43593803048134	73.000000000000	0.0000000000000
0.20800000429153	0.89559936523438	-0.44389224052429	73.000000000000	0.0000000000000
0.21199999749660	0.89153057336807	-0.45180070400238	73.000000000000	0.0000000000000
0.21600000560284	0.88738703727722	-0.45966210961342	73.000000000000	0.0000000000000
0.21999999880791	0.88317006826401	-0.46747553348541	73.000000000000	0.0000000000000
0.22400000691414	0.87888073921204	-0.47523993253708	73.000000000000	0.0000000000000
0.22800000011921	0.87452018260956	-0.48295441269875	73.000000000000	0.0000000000000
0.23199999332428	0.87008959054947	-0.49061810970306	73.000000000000	0.0000000000000
0.23600000143051	0.86559015512466	-0.49822998046875	73.000000000000	0.0000000000000
0.23999999463558	0.86102294921875	-0.50578969717026	73.000000000000	0.0000000000000
0.24400000274181	0.85638928413391	-0.51329630613327	73.000000000000	0.0000000000000
0.24799999594688	0.85169064998627	-0.52074927091599	73.000000000000	0.0000000000000
0.25200000405312	0.84692794084549	-0.52814811468124	73.000000000000	0.0000000000000
0.25600001215935	0.84210228919983	-0.53549230098724	73.000000000000	0.0000000000000
0.25999999046326	0.83721548318863	-0.54278165102005	73.000000000000	0.0000000000000
0.26399999856949	0.83226805925369	-0.55001562833786	73.000000000000	0.0000000000000
0.26800000667572	0.82726150751114	-0.55719393491745	73.000000000000	0.0000000000000
0.27200001478195	0.82219713926315	-0.56431668996811	73.000000000000	0.0000000000000
0.27599999308586	0.81707578897476	-0.57138347625732	73.000000000000	0.0000000000000
0.28000000119209	0.81189864873886	-0.57839447259903	73.000000000000	0.0000000000000
0.28400000929832	0.80666685104370	-0.58534950017929	73.000000000000	0.0000000000000
0.28799998760223	0.80138128995895	-0.59224855899811	73.000000000000	0.0000000000000
0.29199999570847	0.79604297876358	-0.59909200668335	73.000000000000	0.0000000000000
0.29600000381470	0.79065287113190	-0.60587978363037	73.000000000000	0.0000000000000
0.30000001192093	0.78521186113358	-0.61261212825775	73.000000000000	0.0000000000000
0.30399999022484	0.77972066402435	-0.61928921937943	73.000000000000	0.0000000000000
0.30799999833107	0.77417987585068	-0.62591141462326	73.000000000000	0.0000000000000
0.31200000643730	0.76859045028687	-0.63247889280319	73.000000000000	0.0000000000000
0.31600001454353	0.76295280456543	-0.63899195194244	73.000000000000	0.0000000000000
0.31999999284744	0.75726759433746	-0.64545100927353	73.000000000000	0.0000000000000
0.32400000095367	0.75153523683548	-0.65185630321503	73.000000000000	0.0000000000000
0.32800000905991	0.74575614929199	-0.65820819139481	73.000000000000	0.0000000000000
0.33199998736382	0.73993080854416	-0.66450703144073	73.000000000000	0.0000000000000
0.33599999547005	0.73405921459198	-0.67075318098068	73.000000000000	0.0000000000000
0.34000000357628	0.72814196348190	-0.67694675922394	73.000000000000	0.0000000000000
0.34400001168251	0.72217893600464	-0.68308824300766	73.000000000000	0.0000000000000
0.34799998998642	0.71617037057877	-0.68917787075043	73.000000000000	0.0000000000000
0.35199999809265	0.71011590957642	-0.69521594047546	73.000000000000	0.0000000000000
0.35600000619888	0.70401602983475	-0.70120239257812	73.000000000000	0.0000000000000
0.36000001430511	0.69787025451660	-0.70713782310486	73.000000000000	0.0000000000000
0.36399999260902	0.69167876243591	-0.71302205324173	73.000000000000	0.0000000000000
0.36800000071526	0.68544101715088	-0.71885526180267	73.000000000000	0.0000000000000
0.37200000882149	0.67915713787079	-0.72463744878769	73.000000000000	0.0000000000000
0.37599998712540	0.67282658815384	-0.73036855459213	73.000000000000	0.0000000000000
0.37999999523163	0.66644889116287	-0.73604851961136	73.000000000000	0.0000000000000
0.38400000333786	0.66002410650253	-0.74167740345001	73.000000000000	0.0000000000000
0.38800001144409	0.65355163812637	-0.74725461006165	73.000000000000	0.0000000000000
0.39199998974800	0.64703100919724	-0.75278002023697	73.000000000000	0.0000000000000
0.39599999785423	0.64046186208725	-0.75825339555740	73.000000000000	0.0000000000000
0.40000000596046	0.63384389877319	-0.76367413997650	73.000000000000	0.0000000000000
0.40400001406670	0.62717658281326	-0.76904171705246	73.000000000000	0.0000000000000
0.40799999237061	0.62045902013779	-0.77435576915741	73.000000000000	0.0000000000000
0.41200000047684	0.61369162797928	-0.77961540222168	73.000000000000	0.0000000000000
0.41600000858307	0.60687357187271	-0.78482002019882	73.000000000000	0.0000000000000
0.41999998688698	0.60000449419022	-0.78996872901917	73.000000000000	0.0000000000000
0.42399999499321	0.59308385848999	-0.79506081342697	73.000000000000	0.0000000000000
0.42800000309944	0.58611142635345	-0.80009502172470	73.000000000000	0.0000000000000
0.43200001120567	0.57908695936203	-0.80507069826126	73.000000000000	0.0000000000000
0.43599998950958	0.57201021909714	-0.80998653173447	73.000000000000	0.0000000000000
0.43999999761581	0.56488084793091	-0.81484121084213	73.000000000000	0.0000000000000
0.44400000572205	0.55769878625870	-0.81963384151459	73.000000000000	0.0000000000000
0.44800001382828	0.55046409368515	-0.82436299324036	73.000000000000	0.0000000000000
0.45199999213219	0.54317635297775	-0.82902729511261	73.000000000000	0.0000000000000
0.45600000023842	0.53583574295044	-0.83362537622452	73.000000000000	0.0000000000000
0.46000000834465	0.52844268083572	-0.83815592527390	73.000000000000	0.0000000000000
0.46399998664856	0.52099704742432	-0.84261733293533	73.000000000000	0.0000000000000
0.46799999475479	0.51349890232086	-0.84700798988342	73.000000000000	0.0000000000000
0.47200000286102	0.50594907999039	-0.85132676362991	73.000000000000	0.0000000000000
0.47600001096725	0.49834766983986	-0.85557150840759	73.000000000000	0.0000000000000
0.47999998927116	0.49069541692734	-0.85974109172821	73.000000000000	0.0000000000000
0.48399999737740	0.48299279808998	-0.86383384466171	73.000000000000	0.0000000000000
0.48800000548363	0.47524046897888	-0.86784803867340	73.000000000000	0.0000000000000
0.49200001358986	0.46743911504745	-0.87178218364716	73.000000000000	0.0000000000000
0.49599999189377	0.45958968997002	-0.87563461065292	73.000000000000	0.0000000000000
0.50000000000000	0.45169368386269	-0.87940382957458	73.000000000000	0.0000000000000
0.50400000810623	0.44375166296959	-0.88308823108673	73.000000000000	0.0000000000000
0.50800001621246	0.43576472997665	-0.88668626546860	73.000000000000	0.0000000000000
0.51200002431870	0.42773410677910	-0.89019638299942	73.000000000000	0.0000000000000
0.51599997282028	0.41966164112091	-0.89361733198166	73.000000000000	0.0000000000000
0.51999998092651	0.41154819726944	-0.89694756269455	73.000000000000	0.0000000000000
0.52399998903275	0.40339556336403	-0.90018570423126	73.000000000000	0.0000000000000
0.52799999713898	0.39520522952080	-0.90333038568497	73.000000000000	0.0000000000000
0.53200000524521	0.38697880506516	-0.90638065338135	73.000000000000	0.0000000000000
0.53600001335144	0.37871831655502	-0.90933513641357	73.000000000000	0.0000000000000
0.54000002145767	0.37042510509491	-0.91219270229340	73.000000000000	0.0000000000000
0.54400002956390	0.36210119724274	-0.91495245695114	73.000000000000	0.0000000000000
0.54799997806549	0.35374867916107	-0.91761332750320	73.000000000000	0.0000000000000
0.55199998617172	0.34536960721016	-0.92017453908920	73.000000000000	0.0000000000000
0.55599999427795	0.33696529269218	-0.92263543605804	73.000000000000	0.0000000000000
0.56000000238419	0.32853856682777	-0.92499518394470	73.000000000000	0.0000000000000
0.56400001049042	0.32009094953537	-0.92725336551666	73.000000000000	0.0000000000000
0.56800001859665	0.31162515282631	-0.92940932512283	73.000000000000	0.0000000000000
0.57200002670288	0.30314254760742	-0.93146288394928	73.000000000000	0.0000000000000
0.57599997520447	0.29464611411095	-0.93341362476349	73.000000000000	0.0000000000000
0.57999998331070	0.28613698482513	-0.93526142835617	73.000000000000	0.0000000000000
0.58399999141693	0.27761799097061	-0.93700623512268	73.000000000000	0.0000000000000
0.58799999952316	0.26909098029137	-0.93864798545837	73.000000000000	0.0000000000000
0.59200000762939	0.26055833697319	-0.94018691778183	73.000000000000	0.0000000000000
0.59600001573563	0.25202190876007	-0.94162309169769	73.000000000000	0.0000000000000
0.60000002384186	0.24348382651806	-0.94295698404312	73.000000000000	0.0000000000000
0.60399997234344	0.23494602739811	-0.94418895244598	73.000000000000	0.0000000000000
0.60799998044968	0.22641034424305	-0.94531947374344	73.000000000000	0.0000000000000
0.61199998855591	0.21787911653519	-0.94634902477264	73.000000000000	0.0000000000000
0.61599999666214	0.20935396850109	-0.94727838039398	73.000000000000	0.0000000000000
0.62000000476837	0.20083677768707	-0.94810825586319	73.000000000000	0.0000000000000
0.62400001287460	0.19232912361622	-0.94883948564529	73.000000000000	0.0000000000000
0.62800002098083	0.18383279442787	-0.94947290420532	73.000000000000	0.0000000000000
0.63200002908707	0.17534963786602	-0.95000952482224	73.000000000000	0.0000000000000
0.63599997758865	0.16688086092472	-0.95045012235641	73.000000000000	0.0000000000000
0.63999998569489	0.15842801332474	-0.95079594850540	73.000000000000	0.0000000000000
0.64399999380112	0.14999231696129	-0.95104807615280	73.000000000000	0.0000000000000
0.64800000190735	0.14157545566559	-0.95120751857758	73.000000000000	0.0000000000000
0.65200001001358	0.13317811489105	-0.95127540826797	73.000000000000	0.0000000000000
0.65600001811981	0.12480148673058	-0.95125317573547	73.000000000000	0.0000000000000
0.66000002622604	0.11644665151834	-0.95114171504974	73.000000000000	0.0000000000000
0.66399997472763	0.10811561346054	-0.95094227790833	73.000000000000	0.0000000000000
0.66799998283386	0.099807135760784	-0.95065629482269	73.000000000000	0.0000000000000
0.67199999094009	0.091523587703705	-0.95028448104858	73.000000000000	0.0000000000000
0.67599999904633	0.083265043795109	-0.94982850551605	73.000000000000	0.0000000000000
0.68000000715256	0.075031995773315	-0.94928938150406	73.000000000000	0.0000000000000
0.68400001525879	0.066824890673161	-0.94866800308228	73.000000000000	0.0000000000000
0.68800002336502	0.058644637465477	-0.94796586036682	73.000000000000	0.0000000000000
0.69199997186661	0.050490710884333	-0.94718372821808	73.000000000000	0.0000000000000
0.69599997997284	0.042364396154881	-0.94632279872894	73.000000000000	0.0000000000000
0.69999998807907	0.034265600144863	-0.94538384675980	73.000000000000	0.0000000000000
0.70399999618530	0.026193745434284	-0.94436806440353	73.000000000000	0.0000000000000
0.70800000429153	0.018149144947529	-0.94327610731125	73.000000000000	0.0000000000000
0.71200001239777	0.010132095776498	-0.94210875034332	73.000000000000	0.0000000000000
0.71600002050400	0.0021428742911667	-0.94086682796478	73.000000000000	0.0000000000000
0.72000002861023	-0.0058186999522150	-0.93955087661743	73.000000000000	0.0000000000000
0.72399997711182	-0.013753265142441	-0.93816167116165	73.000000000000	0.0000000000000
0.72799998521805	-0.021660566329956	-0.93669950962067	73.000000000000	0.0000000000000
0.73199999332428	-0.029541689902544	-0.93516480922699	73.000000000000	0.0000000000000
0.73600000143051	-0.037395041435957	-0.93355792760849	73.000000000000	0.0000000000000
0.74000000953674	-0.045222163200378	-0.93187934160233	73.000000000000	0.0000000000000
0.74400001764297	-0.053022325038910	-0.93012899160385	73.000000000000	0.0000000000000
0.74800002574921	-0.060796607285738	-0.92830699682236	73.000000000000	0.0000000000000
0.75199997425079	-0.068544708192348	-0.92641341686249	73.000000000000	0.0000000000000
0.75599998235703	-0.076266333460808	-0.92444825172424	73.000000000000	0.0000000000000
0.75999999046326	-0.083962477743626	-0.92241114377975	73.000000000000	0.0000000000000
0.76399999856949	-0.091632358729839	-0.92030203342438	73.000000000000	0.0000000000000
0.76800000667572	-0.099276497960091	-0.91812074184418	73.000000000000	0.0000000000000
0.77200001478195	-0.10689449310303	-0.91586661338806	73.000000000000	0.0000000000000
0.77600002288818	-0.11448680609465	-0.91353946924210	73.000000000000	0.0000000000000
0.77999997138977	-0.12205208837986	-0.91113889217377	73.000000000000	0.0000000000000
0.78399997949600	-0.12959161400795	-0.90866416692734	73.000000000000	0.0000000000000
0.78799998760223	-0.13710400462151	-0.90611481666565	73.000000000000	0.0000000000000
0.79199999570847	-0.14458912611008	-0.90349024534225	73.000000000000	0.0000000000000
0.79600000381470	-0.15204723179340	-0.90078973770142	73.000000000000	0.0000000000000
0.80000001192093	-0.15947686135769	-0.89801269769669	73.000000000000	0.0000000000000
0.80400002002716	-0.16687729954720	-0.89515835046768	73.000000000000	0.0000000000000
0.80800002813339	-0.17424875497818	-0.89222615957260	73.000000000000	0.0000000000000
0.81199997663498	-0.18158957362175	-0.88921529054642	73.000000000000	0.0000000000000
0.81599998474121	-0.18889904022217	-0.88612514734268	73.000000000000	0.0000000000000
0.81999999284744	-0.19617626070976	-0.88295501470566	73.000000000000	0.0000000000000
0.82400000095367	-0.20342002809048	-0.87970417737961	73.000000000000	0.0000000000000
0.82800000905991	-0.21062940359116	-0.87637197971344	73.000000000000	0.0000000000000
0.83200001716614	-0.21780225634575	-0.87295818328857	73.000000000000	0.0000000000000
0.83600002527237	-0.22493803501129	-0.86946183443069	73.000000000000	0.0000000000000
0.83999997377396	-0.23203493654728	-0.86588269472122	73.000000000000	0.0000000000000
0.84399998188019	-0.23909153044224	-0.86222016811371	73.000000000000	0.0000000000000
0.84799998998642	-0.24610601365566	-0.85847401618958	73.000000000000	0.0000000000000
0.85199999809265	-0.25307694077492	-0.85464394092560	73.000000000000	0.0000000000000
0.85600000619888	-0.26000201702118	-0.85072988271713	73.000000000000	0.0000000000000
0.86000001430511	-0.26687982678413	-0.84673166275024	73.000000000000	0.0000000000000
0.86400002241135	-0.27370846271515	-0.84264922142029	73.000000000000	0.0000000000000
0.86799997091293	-0.28048604726791	-0.83848255872726	73.000000000000	0.0000000000000
0.87199997901917	-0.28720992803574	-0.83423238992691	73.000000000000	0.0000000000000
0.87599998712540	-0.29387918114662	-0.82989841699600	73.000000000000	0.0000000000000
0.87999999523163	-0.30049064755440	-0.82548165321350	73.000000000000	0.0000000000000
0.88400000333786	-0.30704301595688	-0.82098227739334	73.000000000000	0.0000000000000
0.88800001144409	-0.31353375315666	-0.81640130281448	73.000000000000	0.0000000000000
0.89200001955032	-0.31996110081673	-0.81173926591873	73.000000000000	0.0000000000000
0.89600002765656	-0.32632264494896	-0.80699747800827	73.000000000000	0.0000000000000
0.89999997615814	-0.33261713385582	-0.80217665433884	73.000000000000	0.0000000000000
0.90399998426437	-0.33884182572365	-0.79727822542191	73.000000000000	0.0000000000000
0.90799999237061	-0.34499484300613	-0.79230350255966	73.000000000000	0.0000000000000
0.91200000047684	-0.35107436776161	-0.78725397586823	73.000000000000	0.0000000000000
0.91600000858307	-0.35707867145538	-0.78213119506836	73.000000000000	0.0000000000000
0.92000001668930	-0.36300608515739	-0.77693682909012	73.000000000000	0.0000000000000
0.92400002479553	-0.36885499954224	-0.77167284488678	73.000000000000	0.0000000000000
0.92799997329712	-0.37462356686592	-0.76634097099304	73.000000000000	0.0000000000000
0.93199998140335	-0.38031038641930	-0.76094347238541	73.000000000000	0.0000000000000
