#Parameters = {d=80; L=50}
#"Frequency / GHz"	"S1,1 (d=80) [Re]"	"S1,1 (d=80) [Im]"	"Ref.Imp. [Re]"	"Ref.Imp. [Im]"
#---------------------------------------------------------------------------------------
0.0000000000000	0.99767762422562	-0.0000000000000	73.000000000000	0.0000000000000
0.0040000001899898	0.99764168262482	-0.0087654246017337	73.000000000000	0.0000000000000
0.0080000003799796	0.99753367900848	-0.017530580982566	73.000000000000	0.0000000000000
0.012000000104308	0.99735361337662	-0.026295194402337	73.000000000000	0.0000000000000
0.016000000759959	0.99710154533386	-0.035058997571468	73.000000000000	0.0000000000000
0.019999999552965	0.99677735567093	-0.043821711093187	73.000000000000	0.0000000000000
0.024000000208616	0.99638068675995	-0.052583031356335	73.000000000000	0.0000000000000
0.028000000864267	0.99591171741486	-0.061342675238848	73.000000000000	0.0000000000000
0.032000001519918	0.99536997079849	-0.070100322365761	73.000000000000	0.0000000000000
0.035999998450279	0.99475562572479	-0.078855626285076	73.000000000000	0.0000000000000
0.039999999105930	0.99406820535660	-0.087608255445957	73.000000000000	0.0000000000000
0.043999999761581	0.99330747127533	-0.096357844769955	73.000000000000	0.0000000000000
0.048000000417233	0.99247324466705	-0.10510401427746	73.000000000000	0.0000000000000
0.052000001072884	0.99156534671783	-0.11384633183479	73.000000000000	0.0000000000000
0.056000001728535	0.99058336019516	-0.12258438020945	73.000000000000	0.0000000000000
0.059999998658895	0.98952704668045	-0.13131770491600	73.000000000000	0.0000000000000
0.064000003039837	0.98839616775513	-0.14004580676556	73.000000000000	0.0000000000000
0.068000003695488	0.98719018697739	-0.14876818656921	73.000000000000	0.0000000000000
0.071999996900558	0.98590898513794	-0.15748427808285	73.000000000000	0.0000000000000
0.075999997556210	0.98455220460892	-0.16619357466698	73.000000000000	0.0000000000000
0.079999998211861	0.98311936855316	-0.17489539086819	73.000000000000	0.0000000000000
0.083999998867512	0.98161023855209	-0.18358911573887	73.000000000000	0.0000000000000
0.087999999523163	0.98002451658249	-0.19227410852909	73.000000000000	0.0000000000000
0.092000000178814	0.97836178541183	-0.20094966888428	73.000000000000	0.0000000000000
0.096000000834465	0.97662162780762	-0.20961502194405	73.000000000000	0.0000000000000
0.10000000149012	0.97480398416519	-0.21826946735382	73.000000000000	0.0000000000000
0.10400000214577	0.97290831804276	-0.22691218554974	73.000000000000	0.0000000000000
0.10800000280142	0.97093439102173	-0.23554234206676	73.000000000000	0.0000000000000
0.11200000345707	0.96888214349747	-0.24415910243988	73.000000000000	0.0000000000000
0.11599999666214	0.96675091981888	-0.25276157259941	73.000000000000	0.0000000000000
0.11999999731779	0.96454066038132	-0.26134878396988	73.000000000000	0.0000000000000
0.12399999797344	0.96225106716156	-0.26991987228394	73.000000000000	0.0000000000000
0.12800000607967	0.95988208055496	-0.27847379446030	73.000000000000	0.0000000000000
0.13199999928474	0.95743340253830	-0.28700968623161	73.000000000000	0.0000000000000
0.13600000739098	0.95490473508835	-0.29552632570267	73.000000000000	0.0000000000000
0.14000000059605	0.95229631662369	-0.30402281880379	73.000000000000	0.0000000000000
0.14399999380112	0.94960772991180	-0.31249800324440	73.000000000000	0.0000000000000
0.14800000190735	0.94683903455734	-0.32095083594322	73.000000000000	0.0000000000000
0.15199999511242	0.94399011135101	-0.32938027381897	73.000000000000	0.0000000000000
0.15600000321865	0.94106119871140	-0.33778512477875	73.000000000000	0.0000000000000
0.15999999642372	0.93805211782455	-0.34616422653198	73.000000000000	0.0000000000000
0.16400000452995	0.93496298789978	-0.35451647639275	73.000000000000	0.0000000000000
0.16799999773502	0.93179386854172	-0.36284071207047	73.000000000000	0.0000000000000
0.17200000584126	0.92854511737823	-0.37113580107689	73.000000000000	0.0000000000000
0.17599999904633	0.92521667480469	-0.37940049171448	73.000000000000	0.0000000000000
0.18000000715256	0.92180889844894	-0.38763374090195	73.000000000000	0.0000000000000
0.18400000035763	0.91832196712494	-0.39583420753479	73.000000000000	0.0000000000000
0.18799999356270	0.91475635766983	-0.40400090813637	73.000000000000	0.0000000000000
0.19200000166893	0.91111224889755	-0.41213250160217	73.000000000000	0.0000000000000
0.19599999487400	0.90739011764526	-0.42022800445557	73.000000000000	0.0000000000000
0.20000000298023	0.90359038114548	-0.42828616499901	73.000000000000	0.0000000000000
0.20399999618530	0.89971351623535	-0.43630582094193	73.000000000000	0.0000000000000
0.20800000429153	0.89576005935669	-0.44428598880768	73.000000000000	0.0000000000000
0.21199999749660	0.89173036813736	-0.45222544670105	73.000000000000	0.0000000000000
0.21600000560284	0.88762527704239	-0.46012312173843	73.000000000000	0.0000000000000
0.21999999880791	0.88344526290894	-0.46797800064087	73.000000000000	0.0000000000000
0.22400000691414	0.87919086217880	-0.47578901052475	73.000000000000	0.0000000000000
0.22800000011921	0.87486284971237	-0.48355507850647	73.000000000000	0.0000000000000
0.23199999332428	0.87046200037003	-0.49127531051636	73.000000000000	0.0000000000000
0.23600000143051	0.86598896980286	-0.49894860386848	73.000000000000	0.0000000000000
0.23999999463558	0.86144447326660	-0.50657427310944	73.000000000000	0.0000000000000
0.24400000274181	0.85682934522629	-0.51415121555328	73.000000000000	0.0000000000000
0.24799999594688	0.85214447975159	-0.52167862653732	73.000000000000	0.0000000000000
0.25200000405312	0.84739065170288	-0.52915561199188	73.000000000000	0.0000000000000
0.25600001215935	0.84256857633591	-0.53658139705658	73.000000000000	0.0000000000000
0.25999999046326	0.83767932653427	-0.54395538568497	73.000000000000	0.0000000000000
0.26399999856949	0.83272349834442	-0.55127656459808	73.000000000000	0.0000000000000
0.26800000667572	0.82770222425461	-0.55854445695877	73.000000000000	0.0000000000000
0.27200001478195	0.82261627912521	-0.56575840711594	73.000000000000	0.0000000000000
0.27599999308586	0.81746661663055	-0.57291769981384	73.000000000000	0.0000000000000
0.28000000119209	0.81225413084030	-0.58002173900604	73.000000000000	0.0000000000000
0.28400000929832	0.80697953701019	-0.58707004785538	73.000000000000	0.0000000000000
0.28799998760223	0.80164414644241	-0.59406214952469	73.000000000000	0.0000000000000
0.29199999570847	0.79624843597412	-0.60099756717682	73.000000000000	0.0000000000000
0.29600000381470	0.79079359769821	-0.60787582397461	73.000000000000	0.0000000000000
0.30000001192093	0.78528040647507	-0.61469656229019	73.000000000000	0.0000000000000
0.30399999022484	0.77970957756042	-0.62145942449570	73.000000000000	0.0000000000000
0.30799999833107	0.77408212423325	-0.62816399335861	73.000000000000	0.0000000000000
0.31200000643730	0.76839900016785	-0.63481009006500	73.000000000000	0.0000000000000
0.31600001454353	0.76266092061996	-0.64139753580093	73.000000000000	0.0000000000000
0.31999999284744	0.75686848163605	-0.64792591333389	73.000000000000	0.0000000000000
0.32400000095367	0.75102269649506	-0.65439498424530	73.000000000000	0.0000000000000
0.32800000905991	0.74512434005737	-0.66080486774445	73.000000000000	0.0000000000000
0.33199998736382	0.73917424678802	-0.66715508699417	73.000000000000	0.0000000000000
0.33599999547005	0.73317283391953	-0.67344558238983	73.000000000000	0.0000000000000
0.34000000357628	0.72712075710297	-0.67967629432678	73.000000000000	0.0000000000000
0.34400001168251	0.72101914882660	-0.68584710359573	73.000000000000	0.0000000000000
0.34799998998642	0.71486806869507	-0.69195795059204	73.000000000000	0.0000000000000
0.35199999809265	0.70866858959198	-0.69800871610641	73.000000000000	0.0000000000000
0.35600000619888	0.70242077112198	-0.70399928092957	73.000000000000	0.0000000000000
0.36000001430511	0.69612562656403	-0.70992976427078	73.000000000000	0.0000000000000
0.36399999260902	0.68978357315063	-0.71579992771149	73.000000000000	0.0000000000000
0.36800000071526	0.68339473009109	-0.72160983085632	73.000000000000	0.0000000000000
0.37200000882149	0.67695999145508	-0.72735935449600	73.000000000000	0.0000000000000
0.37599998712540	0.67047935724258	-0.73304849863052	73.000000000000	0.0000000000000
0.37999999523163	0.66395342350006	-0.73867708444595	73.000000000000	0.0000000000000
0.38400000333786	0.65738242864609	-0.74424517154694	73.000000000000	0.0000000000000
0.38800001144409	0.65076678991318	-0.74975264072418	73.000000000000	0.0000000000000
0.39199998974800	0.64410680532455	-0.75519931316376	73.000000000000	0.0000000000000
0.39599999785423	0.63740265369415	-0.76058524847031	73.000000000000	0.0000000000000
0.40000000596046	0.63065469264984	-0.76591014862061	73.000000000000	0.0000000000000
0.40400001406670	0.62386286258698	-0.77117401361465	73.000000000000	0.0000000000000
0.40799999237061	0.61702752113342	-0.77637654542923	73.000000000000	0.0000000000000
0.41200000047684	0.61014890670776	-0.78151756525040	73.000000000000	0.0000000000000
0.41600000858307	0.60322701931000	-0.78659677505493	73.000000000000	0.0000000000000
0.41999998688698	0.59626203775406	-0.79161417484283	73.000000000000	0.0000000000000
0.42399999499321	0.58925408124924	-0.79656922817230	73.000000000000	0.0000000000000
0.42800000309944	0.58220314979553	-0.80146175622940	73.000000000000	0.0000000000000
0.43200001120567	0.57510960102081	-0.80629134178162	73.000000000000	0.0000000000000
0.43599998950958	0.56797325611115	-0.81105762720108	73.000000000000	0.0000000000000
0.43999999761581	0.56079435348511	-0.81576019525528	73.000000000000	0.0000000000000
0.44400000572205	0.55357265472412	-0.82039850950241	73.000000000000	0.0000000000000
0.44800001382828	0.54630851745605	-0.82497227191925	73.000000000000	0.0000000000000
0.45199999213219	0.53900218009949	-0.82948082685471	73.000000000000	0.0000000000000
0.45600000023842	0.53165346384048	-0.83392357826233	73.000000000000	0.0000000000000
0.46000000834465	0.52426236867905	-0.83829998970032	73.000000000000	0.0000000000000
0.46399998664856	0.51682925224304	-0.84260946512222	73.000000000000	0.0000000000000
0.46799999475479	0.50935405492783	-0.84685128927231	73.000000000000	0.0000000000000
0.47200000286102	0.50183701515198	-0.85102474689484	73.000000000000	0.0000000000000
0.47600001096725	0.49427816271782	-0.85512900352478	73.000000000000	0.0000000000000
0.47999998927116	0.48667785525322	-0.85916340351105	73.000000000000	0.0000000000000
0.48399999737740	0.47903624176979	-0.86312723159790	73.000000000000	0.0000000000000
0.48800000548363	0.47135335206985	-0.86701941490173	73.000000000000	0.0000000000000
0.49200001358986	0.46362966299057	-0.87083923816681	73.000000000000	0.0000000000000
0.49599999189377	0.45586565136909	-0.87458574771881	73.000000000000	0.0000000000000
0.50000000000000	0.44806116819382	-0.87825810909271	73.000000000000	0.0000000000000
0.50400000810623	0.44021710753441	-0.88185524940491	73.000000000000	0.0000000000000
0.50800001621246	0.43233335018158	-0.88537627458572	73.000000000000	0.0000000000000
0.51200002431870	0.42441070079803	-0.88882011175156	73.000000000000	0.0000000000000
0.51599997282028	0.41644969582558	-0.89218586683273	73.000000000000	0.0000000000000
0.51999998092651	0.40845096111298	-0.89547246694565	73.000000000000	0.0000000000000
0.52399998903275	0.40041464567184	-0.89867889881134	73.000000000000	0.0000000000000
0.52799999713898	0.39234182238579	-0.90180408954620	73.000000000000	0.0000000000000
0.53200000524521	0.38423278927803	-0.90484708547592	73.000000000000	0.0000000000000
0.53600001335144	0.37608861923218	-0.90780669450760	73.000000000000	0.0000000000000
0.54000002145767	0.36791002750397	-0.91068202257156	73.000000000000	0.0000000000000
0.54400002956390	0.35969808697701	-0.91347193717957	73.000000000000	0.0000000000000
0.54799997806549	0.35145321488380	-0.91617542505264	73.000000000000	0.0000000000000
0.55199998617172	0.34317657351494	-0.91879147291183	73.000000000000	0.0000000000000
0.55599999427795	0.33486899733543	-0.92131918668747	73.000000000000	0.0000000000000
0.56000000238419	0.32653191685677	-0.92375725507736	73.000000000000	0.0000000000000
0.56400001049042	0.31816619634628	-0.92610502243042	73.000000000000	0.0000000000000
0.56800001859665	0.30977281928062	-0.92836141586304	73.000000000000	0.0000000000000
0.57200002670288	0.30135333538055	-0.93052554130554	73.000000000000	0.0000000000000
0.57599997520447	0.29290887713432	-0.93259650468826	73.000000000000	0.0000000000000
0.57999998331070	0.28444054722786	-0.93457359075546	73.000000000000	0.0000000000000
0.58399999141693	0.27594974637032	-0.93645554780960	73.000000000000	0.0000000000000
0.58799999952316	0.26743811368942	-0.93824207782745	73.000000000000	0.0000000000000
0.59200000762939	0.25890663266182	-0.93993216753006	73.000000000000	0.0000000000000
0.59600001573563	0.25035700201988	-0.94152522087097	73.000000000000	0.0000000000000
0.60000002384186	0.24179060757160	-0.94302064180374	73.000000000000	0.0000000000000
0.60399997234344	0.23320920765400	-0.94441765546799	73.000000000000	0.0000000000000
0.60799998044968	0.22461365163326	-0.94571584463120	73.000000000000	0.0000000000000
0.61199998855591	0.21600668132305	-0.94691467285156	73.000000000000	0.0000000000000
0.61599999666214	0.20738863945007	-0.94801366329193	73.000000000000	0.0000000000000
0.62000000476837	0.19876173138618	-0.94901251792908	73.000000000000	0.0000000000000
0.62400001287460	0.19012784957886	-0.94991064071655	73.000000000000	0.0000000000000
0.62800002098083	0.18148811161518	-0.95070815086365	73.000000000000	0.0000000000000
0.63200002908707	0.17284451425076	-0.95140457153320	73.000000000000	0.0000000000000
0.63599997758865	0.16419850289822	-0.95199972391129	73.000000000000	0.0000000000000
0.63999998569489	0.15555144846439	-0.95249360799789	73.000000000000	0.0000000000000
0.64399999380112	0.14690557122231	-0.95288616418839	73.000000000000	0.0000000000000
0.64800000190735	0.13826224207878	-0.95317745208740	73.000000000000	0.0000000000000
0.65200001001358	0.12962317466736	-0.95336735248566	73.000000000000	0.0000000000000
0.65600001811981	0.12098973989487	-0.95345616340637	73.000000000000	0.0000000000000
0.66000002622604	0.11236372590065	-0.95344400405884	73.000000000000	0.0000000000000
0.66399997472763	0.10374689847231	-0.95333111286163	73.000000000000	0.0000000000000
0.66799998283386	0.095140144228935	-0.95311796665192	73.000000000000	0.0000000000000
0.67199999094009	0.086546123027802	-0.95280456542969	73.000000000000	0.0000000000000
0.67599999904633	0.077965252101421	-0.95239150524139	73.000000000000	0.0000000000000
0.68000000715256	0.069399274885654	-0.95187926292419	73.000000000000	0.0000000000000
0.68400001525879	0.060849934816360	-0.95126813650131	73.000000000000	0.0000000000000
0.68800002336502	0.052318517118692	-0.95055884122849	73.000000000000	0.0000000000000
0.69199997186661	0.043805830180645	-0.94975179433823	73.000000000000	0.0000000000000
0.69599997997284	0.035314027220011	-0.94884783029556	73.000000000000	0.0000000000000
0.69999998807907	0.026844343170524	-0.94784730672836	73.000000000000	0.0000000000000
0.70399999618530	0.018396649509668	-0.94675087928772	73.000000000000	0.0000000000000
0.70800000429153	0.0099735027179122	-0.94555938243866	73.000000000000	0.0000000000000
0.71200001239777	0.0015751924365759	-0.94427347183228	73.000000000000	0.0000000000000
0.71600002050400	-0.0067966594360769	-0.94289392232895	73.000000000000	0.0000000000000
0.72000002861023	-0.015140899457037	-0.94142127037048	73.000000000000	0.0000000000000
0.72399997711182	-0.023457285016775	-0.93985641002655	73.000000000000	0.0000000000000
0.72799998521805	-0.031745139509439	-0.93819993734360	73.000000000000	0.0000000000000
0.73199999332428	-0.040002916008234	-0.93645286560059	73.000000000000	0.0000000000000
0.73600000143051	-0.048229955136776	-0.93461561203003	73.000000000000	0.0000000000000
0.74000000953674	-0.056425649672747	-0.93268924951553	73.000000000000	0.0000000000000
0.74400001764297	-0.064589351415634	-0.93067413568497	73.000000000000	0.0000000000000
0.74800002574921	-0.072720922529697	-0.92857116460800	73.000000000000	0.0000000000000
0.75199997425079	-0.080818869173527	-0.92638081312180	73.000000000000	0.0000000000000
0.75599998235703	-0.088883489370346	-0.92410409450531	73.000000000000	0.0000000000000
0.75999999046326	-0.096914194524288	-0.92174124717712	73.000000000000	0.0000000000000
0.76399999856949	-0.10490954667330	-0.91929316520691	73.000000000000	0.0000000000000
0.76800000667572	-0.11287114024162	-0.91676008701324	73.000000000000	0.0000000000000
0.77200001478195	-0.12079666554928	-0.91414266824722	73.000000000000	0.0000000000000
0.77600002288818	-0.12868775427341	-0.91144132614136	73.000000000000	0.0000000000000
0.77999997138977	-0.13654206693172	-0.90865659713745	73.000000000000	0.0000000000000
0.78399997949600	-0.14436075091362	-0.90578848123550	73.000000000000	0.0000000000000
0.78799998760223	-0.15214364230633	-0.90283763408661	73.000000000000	0.0000000000000
0.79199999570847	-0.15989057719707	-0.89980393648148	73.000000000000	0.0000000000000
0.79600000381470	-0.16760006546974	-0.89668804407120	73.000000000000	0.0000000000000
0.80000001192093	-0.17527276277542	-0.89348965883255	73.000000000000	0.0000000000000
0.80400002002716	-0.18290972709656	-0.89020889997482	73.000000000000	0.0000000000000
0.80800002813339	-0.19050855934620	-0.88684588670731	73.000000000000	0.0000000000000
0.81199997663498	-0.19807109236717	-0.88340032100677	73.000000000000	0.0000000000000
0.81599998474121	-0.20559614896774	-0.87987214326859	73.000000000000	0.0000000000000
0.81999999284744	-0.21308340132236	-0.87626129388809	73.000000000000	0.0000000000000
0.82400000095367	-0.22053368389606	-0.87256705760956	73.000000000000	0.0000000000000
0.82800000905991	-0.22794532775879	-0.86878949403763	73.000000000000	0.0000000000000
0.83200001716614	-0.23531946539879	-0.86492770910263	73.000000000000	0.0000000000000
0.83600002527237	-0.24265478551388	-0.86098164319992	73.000000000000	0.0000000000000
0.83999997377396	-0.24995151162148	-0.85695034265518	73.000000000000	0.0000000000000
0.84399998188019	-0.25720855593681	-0.85283356904984	73.000000000000	0.0000000000000
0.84799998998642	-0.26442646980286	-0.84863013029099	73.000000000000	0.0000000000000
0.85199999809265	-0.27160412073135	-0.84433960914612	73.000000000000	0.0000000000000
0.85600000619888	-0.27874100208282	-0.83996105194092	73.000000000000	0.0000000000000
0.86000001430511	-0.28583660721779	-0.83549356460571	73.000000000000	0.0000000000000
0.86400002241135	-0.29288962483406	-0.83093643188477	73.000000000000	0.0000000000000
0.86799997091293	-0.29990020394325	-0.82628828287125	73.000000000000	0.0000000000000
0.87199997901917	-0.30686637759209	-0.82154852151871	73.000000000000	0.0000000000000
0.87599998712540	-0.31378811597824	-0.81671571731567	73.000000000000	0.0000000000000
0.87999999523163	-0.32066380977631	-0.81178903579712	73.000000000000	0.0000000000000
0.88400000333786	-0.32749238610268	-0.80676710605621	73.000000000000	0.0000000000000
0.88800001144409	-0.33427205681801	-0.80164915323257	73.000000000000	0.0000000000000
0.89200001955032	-0.34100204706192	-0.79643386602402	73.000000000000	0.0000000000000
0.89600002765656	-0.34768074750900	-0.79111993312836	73.000000000000	0.0000000000000
0.89999997615814	-0.35430595278740	-0.78570640087128	73.000000000000	0.0000000000000
0.90399998426437	-0.36087635159492	-0.78019201755524	73.000000000000	0.0000000000000
0.90799999237061	-0.36739030480385	-0.77457559108734	73.000000000000	0.0000000000000
0.91200000047684	-0.37384483218193	-0.76885634660721	73.000000000000	0.0000000000000
0.91600000858307	-0.38023883104324	-0.76303267478943	73.000000000000	0.0000000000000
0.92000001668930	-0.38656905293465	-0.75710403919220	73.000000000000	0.0000000000000
0.92400002479553	-0.39283397793770	-0.75106900930405	73.000000000000	0.0000000000000
0.92799997329712	-0.39903056621552	-0.74492692947388	73.000000000000	0.0000000000000
0.93199998140335	-0.40515595674515	-0.73867696523666	73.000000000000	0.0000000000000
