# Version 1.00
#
freq[Hz];re:Trc1_S22;im:Trc1_S22;
1.000000000000000E+008;6.936916769851415E-001;-6.719720184616043E-001;
1.110000000000000E+008;6.309107847664749E-001;-7.219676463329799E-001;
1.220000000000000E+008;5.687015711147546E-001;-7.704514037459141E-001;
1.330000000000000E+008;4.965327690091063E-001;-8.174693422104589E-001;
1.440000000000000E+008;4.217802510800331E-001;-8.523111920002489E-001;
1.550000000000000E+008;3.430274452778285E-001;-8.798344461962580E-001;
1.660000000000000E+008;2.618280363847147E-001;-9.015753242052975E-001;
1.770000000000000E+008;1.747940540445255E-001;-9.105236024273076E-001;
1.880000000000000E+008;9.019643930686530E-002;-9.008659166526075E-001;
1.990000000000000E+008;2.710530744889560E-002;-8.724886831292735E-001;
2.100000000000000E+008;-7.959516484897285E-003;-8.671424927728016E-001;
2.210000000000000E+008;-6.547587341149207E-002;-8.842632423373485E-001;
2.320000000000000E+008;-1.434430455228597E-001;-8.886440628225439E-001;
2.430000000000000E+008;-2.185361313051107E-001;-8.805545654984882E-001;
2.540000000000000E+008;-3.016520019939704E-001;-8.695750330779192E-001;
2.650000000000000E+008;-3.868143677068173E-001;-8.416783160102828E-001;
2.760000000000000E+008;-4.673289614456378E-001;-7.989270854738255E-001;
2.870000000000000E+008;-5.366013087299877E-001;-7.485520530976196E-001;
2.980000000000000E+008;-6.007888775818785E-001;-6.947616192224810E-001;
3.090000000000000E+008;-6.581836796463183E-001;-6.358508230883225E-001;
3.200000000000000E+008;-7.142906088671404E-001;-5.754818714545845E-001;
3.310000000000000E+008;-7.670848752186408E-001;-5.051431641703490E-001;
3.420000000000000E+008;-8.096676118856829E-001;-4.316174069226063E-001;
3.530000000000000E+008;-8.489463684922574E-001;-3.524841665773750E-001;
3.640000000000000E+008;-8.813067274841572E-001;-2.680648828296657E-001;
3.750000000000000E+008;-9.032889470697287E-001;-1.777760964403909E-001;
3.860000000000000E+008;-9.155505128178522E-001;-8.712861353201004E-002;
3.970000000000000E+008;-9.217166128663835E-001;5.820558566164337E-003;
4.080000000000000E+008;-9.154064696184748E-001;1.031580555147208E-001;
4.190000000000000E+008;-8.961405473170933E-001;1.976691846428829E-001;
4.300000000000000E+008;-8.683007011880631E-001;2.898947879857293E-001;
4.410000000000000E+008;-8.282234198380356E-001;3.791423310049773E-001;
4.520000000000000E+008;-7.790175620136464E-001;4.639077194144870E-001;
4.630000000000000E+008;-7.190834564170632E-001;5.444007035746575E-001;
4.740000000000000E+008;-6.471254454364275E-001;6.164825494412143E-001;
4.850000000000000E+008;-5.654288624540099E-001;6.767041745260815E-001;
4.960000000000000E+008;-4.795286125920868E-001;7.211411626867548E-001;
5.070000000000000E+008;-3.944746547924964E-001;7.563957661865838E-001;
5.180000000000000E+008;-3.057626407562797E-001;7.836729987007763E-001;
5.290000000000000E+008;-2.141767234530239E-001;7.977978692210015E-001;
5.400000000000000E+008;-1.233598424901988E-001;8.016907303070232E-001;
5.510000000000000E+008;-3.385389892917139E-002;7.948972440717776E-001;
5.620000000000000E+008;5.247136275480398E-002;7.692999437090284E-001;
5.730000000000000E+008;1.175752424891317E-001;7.353410981476732E-001;
5.840000000000000E+008;1.765883125518774E-001;7.132726728858013E-001;
5.950000000000000E+008;2.481895756607571E-001;6.865036885482373E-001;
6.060000000000000E+008;3.168119730578731E-001;6.431114209450001E-001;
6.170000000000000E+008;3.731155011916423E-001;5.905607823340872E-001;
6.280000000000000E+008;4.242401095985622E-001;5.371444002605537E-001;
6.390000000000000E+008;4.741246086316100E-001;4.714154422549599E-001;
6.500000000000000E+008;5.016240108132065E-001;3.960587741621674E-001;
6.610000000000000E+008;5.224789064965271E-001;3.278164805733357E-001;
6.720000000000000E+008;5.280766891604722E-001;2.499398309994140E-001;
6.830000000000000E+008;5.036691712790586E-001;1.811109858220417E-001;
6.940000000000000E+008;4.772511416299521E-001;1.486421822859783E-001;
7.050000000000000E+008;4.792114356643276E-001;1.149008036482966E-001;
7.160000000000000E+008;4.673967921312660E-001;6.466586654846745E-002;
7.270000000000000E+008;4.415366178501003E-001;2.019187338841903E-002;
7.380000000000000E+008;4.063538791407488E-001;-1.256094713201122E-002;
7.490000000000000E+008;3.664815116752592E-001;-3.460443659195688E-002;
7.600000000000000E+008;3.243844950285698E-001;-3.341338746576845E-002;
7.710000000000000E+008;3.059845651095119E-001;-3.188301462439421E-002;
7.820000000000000E+008;2.786649120559432E-001;-2.413312642908657E-002;
7.930000000000000E+008;2.635571608864156E-001;-3.314668884569591E-003;
8.040000000000000E+008;2.709912009138521E-001;1.607493014298722E-002;
8.150000000000000E+008;2.812276953644685E-001;2.115246877164378E-002;
8.260000000000000E+008;2.999145358081008E-001;2.548114314802538E-002;
8.370000000000000E+008;3.142764882628007E-001;1.547217660719296E-002;
8.480000000000000E+008;3.249973268087192E-001;1.105251270870509E-002;
8.590000000000000E+008;3.409536433310110E-001;3.558614674391246E-003;
8.700000000000000E+008;3.618467119589498E-001;-1.063031989484944E-002;
8.810000000000000E+008;3.760051564919095E-001;-3.079436864935681E-002;
8.920000000000000E+008;3.890706383811305E-001;-5.247160958459356E-002;
9.030000000000000E+008;3.997548624276347E-001;-7.689724482651210E-002;
9.140000000000000E+008;4.048221968935466E-001;-9.986383304714663E-002;
9.250000000000000E+008;4.138090414785807E-001;-1.180319035682005E-001;
9.360000000000000E+008;4.273356410223761E-001;-1.465755587308221E-001;
9.470000000000000E+008;4.349067304490822E-001;-1.770551819004590E-001;
9.580000000000000E+008;4.448813591953565E-001;-2.137993863687092E-001;
9.690000000000000E+008;4.427533383599713E-001;-2.579576726045630E-001;
9.800000000000000E+008;4.374001081934805E-001;-2.971324470659430E-001;
9.910000000000000E+008;4.287645523105744E-001;-3.424909310748719E-001;
1.002000000000000E+009;4.077682412767947E-001;-3.854909338578197E-001;
1.013000000000000E+009;3.841359322634902E-001;-4.229336131353926E-001;
1.024000000000000E+009;3.577178829758669E-001;-4.568943883198490E-001;
1.035000000000000E+009;3.337576221244965E-001;-4.875470720345048E-001;
1.046000000000000E+009;3.071787378019552E-001;-5.237173818157873E-001;
1.057000000000000E+009;2.728552528935938E-001;-5.577949301150681E-001;
1.068000000000000E+009;2.337352853548488E-001;-5.890663340561712E-001;
1.079000000000000E+009;1.897742507177593E-001;-6.132926079684374E-001;
1.090000000000000E+009;1.465952339938939E-001;-6.328902419570101E-001;
1.101000000000000E+009;9.965982559295356E-002;-6.513408438041470E-001;
1.112000000000000E+009;5.242289472065694E-002;-6.640259464031530E-001;
1.123000000000000E+009;2.241655535753070E-003;-6.742912717044121E-001;
1.134000000000000E+009;-4.925375229515806E-002;-6.789175251894561E-001;
1.145000000000000E+009;-1.016075359670610E-001;-6.794463123757013E-001;
1.156000000000000E+009;-1.526755672672956E-001;-6.753508487827749E-001;
1.167000000000000E+009;-2.037445847320156E-001;-6.679747902137680E-001;
1.178000000000000E+009;-2.541898492323624E-001;-6.576238248096957E-001;
1.189000000000000E+009;-3.055042551697603E-001;-6.436633187421009E-001;
1.200000000000000E+009;-3.540536739800426E-001;-6.237238036058307E-001;
1.211000000000000E+009;-4.010545878136535E-001;-6.031540260176902E-001;
1.222000000000000E+009;-4.490867173701257E-001;-5.793682007177733E-001;
1.233000000000000E+009;-4.968360123443803E-001;-5.480158531653699E-001;
1.244000000000000E+009;-5.410144252674897E-001;-5.116084403846993E-001;
1.255000000000000E+009;-5.810179955720151E-001;-4.707045578942480E-001;
1.266000000000000E+009;-6.162016659838341E-001;-4.256446595632063E-001;
1.277000000000000E+009;-6.465954797761900E-001;-3.793352971478510E-001;
1.288000000000000E+009;-6.742545943248490E-001;-3.320594847802688E-001;
1.299000000000000E+009;-6.993468498297814E-001;-2.817888284441518E-001;
1.310000000000000E+009;-7.211087164381579E-001;-2.289016539935503E-001;
1.321000000000000E+009;-7.377487612855671E-001;-1.730225661320393E-001;
1.332000000000000E+009;-7.479451920029125E-001;-1.172244097948432E-001;
1.343000000000000E+009;-7.550940645879695E-001;-6.404476420360211E-002;
1.354000000000000E+009;-7.621170143254052E-001;-9.678320253413279E-003;
1.365000000000000E+009;-7.645021564495304E-001;4.744298691031063E-002;
1.376000000000000E+009;-7.620140580047172E-001;1.051594790210851E-001;
1.387000000000000E+009;-7.543252111489072E-001;1.630663341936874E-001;
1.398000000000000E+009;-7.431094178624796E-001;2.201522447562105E-001;
1.409000000000000E+009;-7.262431153718233E-001;2.775765958655943E-001;
1.420000000000000E+009;-7.039327425831063E-001;3.337308799595369E-001;
1.431000000000000E+009;-6.760191312253624E-001;3.882478622702663E-001;
1.442000000000000E+009;-6.429589693464645E-001;4.396314228640110E-001;
1.453000000000000E+009;-6.066406171159426E-001;4.863183268186744E-001;
1.464000000000000E+009;-5.702697614846857E-001;5.318537109771857E-001;
1.475000000000000E+009;-5.282624248582242E-001;5.774441888023345E-001;
1.486000000000000E+009;-4.815794538024925E-001;6.220149083431485E-001;
1.497000000000000E+009;-4.272166605823114E-001;6.590469947348827E-001;
1.508000000000000E+009;-3.726013381977044E-001;6.903731091931298E-001;
1.519000000000000E+009;-3.160132932025248E-001;7.158848943339411E-001;
1.530000000000000E+009;-2.599343736526408E-001;7.378181588708683E-001;
1.541000000000000E+009;-2.023020553063689E-001;7.567422663211607E-001;
1.552000000000000E+009;-1.419480319734307E-001;7.729322207407265E-001;
1.563000000000000E+009;-7.895394104481315E-002;7.817213471064525E-001;
1.574000000000000E+009;-1.656553541889717E-002;7.871052432851450E-001;
1.585000000000000E+009;4.872769057582478E-002;7.875130826892732E-001;
1.596000000000000E+009;1.152808717980961E-001;7.808765319415617E-001;
1.607000000000000E+009;1.800111356693034E-001;7.670661095057874E-001;
1.618000000000000E+009;2.425598058204682E-001;7.474045569440830E-001;
1.629000000000000E+009;3.020367062305168E-001;7.243765593627456E-001;
1.640000000000000E+009;3.606121313110992E-001;6.967166242944080E-001;
1.651000000000000E+009;4.177623038854650E-001;6.642280902062030E-001;
1.662000000000000E+009;4.719244781423805E-001;6.252092908167367E-001;
1.673000000000000E+009;5.209159564438101E-001;5.826488706367982E-001;
1.684000000000000E+009;5.663489114329905E-001;5.363301090252064E-001;
1.695000000000000E+009;6.060170237105829E-001;4.871086377546339E-001;
1.706000000000000E+009;6.432326243390159E-001;4.363924142328447E-001;
1.717000000000000E+009;6.753159153968860E-001;3.827091812548679E-001;
1.728000000000000E+009;7.035284176361994E-001;3.271158248284246E-001;
1.739000000000000E+009;7.285411025398911E-001;2.696310670990805E-001;
1.750000000000000E+009;7.492386863830077E-001;2.072330080042628E-001;
1.761000000000000E+009;7.634887773565899E-001;1.433061782326701E-001;
1.772000000000000E+009;7.714999686920525E-001;7.856865007288842E-002;
1.783000000000000E+009;7.731189420700872E-001;1.395513388638530E-002;
1.794000000000000E+009;7.699010217094391E-001;-4.854383710270804E-002;
1.805000000000000E+009;7.623091647155742E-001;-1.100365982311415E-001;
1.816000000000000E+009;7.507583101911608E-001;-1.704298744253651E-001;
1.827000000000000E+009;7.343235324929489E-001;-2.291487964009319E-001;
1.838000000000000E+009;7.151497347060642E-001;-2.868757897822080E-001;
1.849000000000000E+009;6.898609995935500E-001;-3.452858494807317E-001;
1.860000000000000E+009;6.576870622148016E-001;-3.997023420194222E-001;
1.871000000000000E+009;6.215826618536098E-001;-4.491345701147099E-001;
1.882000000000000E+009;5.820982137559710E-001;-4.944407587408501E-001;
1.893000000000000E+009;5.417346102711302E-001;-5.352207502120221E-001;
1.904000000000000E+009;4.996545485988700E-001;-5.736806766761612E-001;
1.915000000000000E+009;4.546767638345673E-001;-6.105393802379613E-001;
1.926000000000000E+009;4.064926966120301E-001;-6.452822305446390E-001;
1.937000000000000E+009;3.535154464005451E-001;-6.750268002463461E-001;
1.948000000000000E+009;3.006429179997403E-001;-6.989926291635404E-001;
1.959000000000000E+009;2.460557350827851E-001;-7.196932094436174E-001;
1.970000000000000E+009;1.909695302562753E-001;-7.358071424355428E-001;
1.981000000000000E+009;1.349966757758897E-001;-7.474009073261358E-001;
1.992000000000000E+009;7.945354736203301E-002;-7.546236833409820E-001;
2.003000000000000E+009;2.476735653886068E-002;-7.580781887505842E-001;
2.014000000000000E+009;-3.031403403156108E-002;-7.583034278792955E-001;
2.025000000000000E+009;-8.608709995718465E-002;-7.547950216503756E-001;
2.036000000000000E+009;-1.426646380350687E-001;-7.455495246183078E-001;
2.047000000000000E+009;-1.964970733542439E-001;-7.307685170352262E-001;
2.058000000000000E+009;-2.490035614456519E-001;-7.123190036742998E-001;
2.069000000000000E+009;-2.962045384840519E-001;-6.889562047933937E-001;
2.080000000000000E+009;-3.409367583463527E-001;-6.678796834507684E-001;
2.091000000000000E+009;-3.876020304740418E-001;-6.418865114709053E-001;
2.102000000000000E+009;-4.336334647105613E-001;-6.111859405699859E-001;
2.113000000000000E+009;-4.728873137993023E-001;-5.787406462685797E-001;
2.124000000000000E+009;-5.114891203293818E-001;-5.448272969523424E-001;
2.135000000000000E+009;-5.475254572387431E-001;-5.072616436802595E-001;
2.146000000000000E+009;-5.798307122916505E-001;-4.673219038407713E-001;
2.157000000000000E+009;-6.085439782221753E-001;-4.265760796567242E-001;
2.168000000000000E+009;-6.350506668329630E-001;-3.839925304941643E-001;
2.179000000000000E+009;-6.579494219680304E-001;-3.398013683588980E-001;
2.190000000000000E+009;-6.778465381697985E-001;-2.926881074909712E-001;
2.201000000000000E+009;-6.920437685302417E-001;-2.457463109337295E-001;
2.212000000000000E+009;-7.048559182692801E-001;-1.987209207592875E-001;
2.223000000000000E+009;-7.130849653525978E-001;-1.505478880258941E-001;
2.234000000000000E+009;-7.176159656113939E-001;-1.032510370677717E-001;
2.245000000000000E+009;-7.186835831630157E-001;-5.704484994431469E-002;
2.256000000000000E+009;-7.185107057900984E-001;-1.259742410824553E-002;
2.267000000000000E+009;-7.161175434574991E-001;3.208203910735542E-002;
2.278000000000000E+009;-7.109426069824949E-001;7.731240065756791E-002;
2.289000000000000E+009;-7.016406222003324E-001;1.213467679365116E-001;
2.300000000000000E+009;-6.902240353901652E-001;1.639519931330949E-001;
2.311000000000000E+009;-6.769979527613841E-001;2.053834827331664E-001;
2.322000000000000E+009;-6.610218423929304E-001;2.463697727889466E-001;
2.333000000000000E+009;-6.423807453985656E-001;2.854566535566659E-001;
2.344000000000000E+009;-6.218468929859335E-001;3.233343913804392E-001;
2.355000000000000E+009;-5.984816669264061E-001;3.603437470166079E-001;
2.366000000000000E+009;-5.727378186198973E-001;3.951292223558651E-001;
2.377000000000000E+009;-5.440574974799404E-001;4.268210828527627E-001;
2.388000000000000E+009;-5.164149631351820E-001;4.559372961250477E-001;
2.399000000000000E+009;-4.870536066804809E-001;4.849507577124944E-001;
2.410000000000000E+009;-4.557626578272910E-001;5.113936875354102E-001;
2.421000000000000E+009;-4.235273305581969E-001;5.359168416944401E-001;
2.432000000000000E+009;-3.902066302012561E-001;5.582711908086242E-001;
2.443000000000000E+009;-3.569911531487623E-001;5.790038137524143E-001;
2.454000000000000E+009;-3.216908535350749E-001;5.986761758805833E-001;
2.465000000000000E+009;-2.860965924476009E-001;6.157551365204131E-001;
2.476000000000000E+009;-2.483211395161230E-001;6.314361901335850E-001;
2.487000000000000E+009;-2.104680230998036E-001;6.447637962245031E-001;
2.498000000000000E+009;-1.705627891848997E-001;6.563424727286581E-001;
2.509000000000000E+009;-1.295715558805377E-001;6.646058914133080E-001;
2.520000000000000E+009;-8.988069773161285E-002;6.719444495409502E-001;
2.531000000000000E+009;-4.707824194761699E-002;6.758782323294459E-001;
2.542000000000000E+009;-7.465950691180800E-003;6.776826434192124E-001;
2.553000000000000E+009;3.461118224958137E-002;6.782567559603613E-001;
2.564000000000000E+009;7.677601556115148E-002;6.770859058635946E-001;
2.575000000000000E+009;1.207202639144422E-001;6.725922103369284E-001;
2.586000000000000E+009;1.638669450318334E-001;6.638881144406684E-001;
2.597000000000000E+009;2.056189390447182E-001;6.538026053683138E-001;
2.608000000000000E+009;2.484948484018728E-001;6.405921454505087E-001;
2.619000000000000E+009;2.900578574281951E-001;6.245324720361883E-001;
2.630000000000000E+009;3.314551877407767E-001;6.051608730831350E-001;
2.641000000000000E+009;3.706475841750324E-001;5.829413061135115E-001;
2.652000000000000E+009;4.084612658800679E-001;5.581785273742165E-001;
2.663000000000000E+009;4.451877381644860E-001;5.319536929650534E-001;
2.674000000000000E+009;4.818947787333345E-001;5.027890374242517E-001;
2.685000000000000E+009;5.177841968052854E-001;4.691872984437633E-001;
2.696000000000000E+009;5.504559161589140E-001;4.329312514471546E-001;
2.707000000000000E+009;5.809294089613423E-001;3.936744256831667E-001;
2.718000000000000E+009;6.087619821866758E-001;3.527813598817847E-001;
2.729000000000000E+009;6.345561844796730E-001;3.092657864930254E-001;
2.740000000000000E+009;6.567897280380516E-001;2.633929079204925E-001;
2.751000000000000E+009;6.754648510096708E-001;2.158195978216733E-001;
2.762000000000000E+009;6.900411500667730E-001;1.662577036719828E-001;
2.773000000000000E+009;7.009291680021823E-001;1.164504764753378E-001;
2.784000000000000E+009;7.093002460839436E-001;6.528271701780185E-002;
2.795000000000000E+009;7.134312587367780E-001;1.285359280393066E-002;
2.806000000000000E+009;7.138681353534878E-001;-3.956652723634516E-002;
2.817000000000000E+009;7.109024179308309E-001;-9.315014403645643E-002;
2.828000000000000E+009;7.033673173462909E-001;-1.468760856703720E-001;
2.839000000000000E+009;6.913846767653400E-001;-2.004696276629898E-001;
2.850000000000000E+009;6.750416627658156E-001;-2.524853372933457E-001;
2.861000000000000E+009;6.548792407078358E-001;-3.039325254539836E-001;
2.872000000000000E+009;6.305666309103314E-001;-3.535803423622502E-001;
2.883000000000000E+009;6.026331598385375E-001;-4.014496062584066E-001;
2.894000000000000E+009;5.707574339495876E-001;-4.472354771584827E-001;
2.905000000000000E+009;5.356552301293864E-001;-4.901726687086844E-001;
2.916000000000000E+009;4.968288144114709E-001;-5.311100285716857E-001;
2.927000000000000E+009;4.557559169890448E-001;-5.677878611522044E-001;
2.938000000000000E+009;4.117645959987090E-001;-6.027565454052060E-001;
2.949000000000000E+009;3.650104001094514E-001;-6.325918944645091E-001;
2.960000000000000E+009;3.166220091867502E-001;-6.601891041599951E-001;
2.971000000000000E+009;2.635466475639241E-001;-6.833888701597206E-001;
2.982000000000000E+009;2.116050873885197E-001;-7.029070363552489E-001;
2.993000000000000E+009;1.562534793376956E-001;-7.190194357781108E-001;
3.004000000000000E+009;1.020653528721061E-001;-7.301513406032244E-001;
3.015000000000000E+009;4.603250699615095E-002;-7.372755946254880E-001;
3.026000000000000E+009;-1.060479171295600E-002;-7.391816129064621E-001;
3.037000000000000E+009;-6.603459492102065E-002;-7.373869154655477E-001;
3.048000000000000E+009;-1.224037836873924E-001;-7.314047397960832E-001;
3.059000000000000E+009;-1.768352330212735E-001;-7.209260548742037E-001;
3.070000000000000E+009;-2.308207399948352E-001;-7.065761848307318E-001;
3.081000000000000E+009;-2.837138605486662E-001;-6.891661590153798E-001;
3.092000000000000E+009;-3.367346844567400E-001;-6.669269140549523E-001;
3.103000000000000E+009;-3.865015967732133E-001;-6.402871950989302E-001;
3.114000000000000E+009;-4.341555987102495E-001;-6.107532684175568E-001;
3.125000000000000E+009;-4.791371459017575E-001;-5.773747329443487E-001;
3.136000000000000E+009;-5.215954855486698E-001;-5.424218720417278E-001;
3.147000000000000E+009;-5.615509847658590E-001;-5.021630592729172E-001;
3.158000000000000E+009;-5.969380397835959E-001;-4.602428098435183E-001;
3.169000000000000E+009;-6.302788398212171E-001;-4.150831491782357E-001;
