# Version 1.00
#
freq[Hz];re:Trc1_S22;im:Trc1_S22;
1.000000000000000E+008;7.123910603430111E-001;-6.621694691537250E-001;
1.110000000000000E+008;6.513881919077694E-001;-7.133639187237333E-001;
1.220000000000000E+008;5.926868455765285E-001;-7.613190801545974E-001;
1.330000000000000E+008;5.248526955103697E-001;-8.096743996309291E-001;
1.440000000000000E+008;4.528759131331046E-001;-8.446361010735629E-001;
1.550000000000000E+008;3.790309659101043E-001;-8.768109142540368E-001;
1.660000000000000E+008;3.015237211686705E-001;-9.019255493603563E-001;
1.770000000000000E+008;2.178474338687546E-001;-9.160396384276935E-001;
1.880000000000000E+008;1.368620173870416E-001;-9.148802062417119E-001;
1.990000000000000E+008;6.961762185934743E-002;-8.995928637078910E-001;
2.100000000000000E+008;2.047488609672938E-002;-8.965120753957931E-001;
2.210000000000000E+008;-4.210656169855653E-002;-9.071498294460879E-001;
2.320000000000000E+008;-1.160358000380437E-001;-9.078594295566294E-001;
2.430000000000000E+008;-1.891987614570111E-001;-8.974033542986485E-001;
2.540000000000000E+008;-2.627502790133304E-001;-8.871057969465991E-001;
2.650000000000000E+008;-3.414664872540971E-001;-8.694527020388447E-001;
2.760000000000000E+008;-4.236068610067295E-001;-8.376742358203613E-001;
2.870000000000000E+008;-4.969057773187853E-001;-7.934871395304979E-001;
2.980000000000000E+008;-5.634741968724216E-001;-7.447080475740224E-001;
3.090000000000000E+008;-6.237116534388902E-001;-6.919146352832070E-001;
3.200000000000000E+008;-6.828200375361369E-001;-6.369277346131046E-001;
3.310000000000000E+008;-7.394195236266088E-001;-5.725205037536335E-001;
3.420000000000000E+008;-7.862496469452291E-001;-5.036772429054357E-001;
3.530000000000000E+008;-8.291841282872041E-001;-4.297841215954315E-001;
3.640000000000000E+008;-8.644932889469842E-001;-3.526207909395300E-001;
3.750000000000000E+008;-8.929966911224918E-001;-2.710942254302640E-001;
3.860000000000000E+008;-9.134761314767472E-001;-1.898423435311324E-001;
3.970000000000000E+008;-9.318409126033849E-001;-1.062497546811038E-001;
4.080000000000000E+008;-9.421713712160209E-001;-1.556834214959009E-002;
4.190000000000000E+008;-9.408299726367638E-001;7.760119974243028E-002;
4.300000000000000E+008;-9.288667667017801E-001;1.702491071193848E-001;
4.410000000000000E+008;-9.063374903881695E-001;2.611401401239246E-001;
4.520000000000000E+008;-8.750902300241701E-001;3.498419797401247E-001;
4.630000000000000E+008;-8.340642609667989E-001;4.348953327394511E-001;
4.740000000000000E+008;-7.839908574832074E-001;5.156057138391125E-001;
4.850000000000000E+008;-7.254479186895987E-001;5.905871079279661E-001;
4.960000000000000E+008;-6.578963857104232E-001;6.581195237715963E-001;
5.070000000000000E+008;-5.849764571796688E-001;7.166873913085596E-001;
5.180000000000000E+008;-5.073709416087354E-001;7.676331897580100E-001;
5.290000000000000E+008;-4.244317542357383E-001;8.104843390725195E-001;
5.400000000000000E+008;-3.381666440617203E-001;8.443975213079465E-001;
5.510000000000000E+008;-2.477585778965175E-001;8.681708810225437E-001;
5.620000000000000E+008;-1.565621887431969E-001;8.785310401041058E-001;
5.730000000000000E+008;-7.151916182260755E-002;8.777973667063204E-001;
5.840000000000000E+008;8.093061899840267E-003;8.741016308544481E-001;
5.950000000000000E+008;9.128785995438571E-002;8.669219626917158E-001;
6.060000000000000E+008;1.741016237364244E-001;8.486081346437886E-001;
6.170000000000000E+008;2.525072615196178E-001;8.232076533853170E-001;
6.280000000000000E+008;3.324493190783435E-001;7.934293457454119E-001;
6.390000000000000E+008;4.112781503885800E-001;7.489954991478407E-001;
6.500000000000000E+008;4.798395493352200E-001;6.943151754509542E-001;
6.610000000000000E+008;5.405428956849984E-001;6.370900657689003E-001;
6.720000000000000E+008;5.944205452200504E-001;5.717098791303680E-001;
6.830000000000000E+008;6.368873498650175E-001;5.033466947940243E-001;
6.940000000000000E+008;6.684495840528894E-001;4.346684068622195E-001;
7.050000000000000E+008;6.978814487014368E-001;3.717230605172855E-001;
7.160000000000000E+008;7.261605457535197E-001;3.008226275016066E-001;
7.270000000000000E+008;7.438582889909334E-001;2.239448382668021E-001;
7.380000000000000E+008;7.483743527932069E-001;1.438373727207461E-001;
7.490000000000000E+008;7.413713187115083E-001;7.071864828510874E-002;
7.600000000000000E+008;7.241496936160284E-001;-4.330730424190876E-005;
7.710000000000000E+008;7.048938211245807E-001;-6.191361530864238E-002;
7.820000000000000E+008;6.792373992772763E-001;-1.266076088497823E-001;
7.930000000000000E+008;6.392874669782437E-001;-1.837889044663646E-001;
8.040000000000000E+008;5.987939759801912E-001;-2.243982690140980E-001;
8.150000000000000E+008;5.646271301955530E-001;-2.602247528041586E-001;
8.260000000000000E+008;5.278211247278478E-001;-2.965624072774690E-001;
8.370000000000000E+008;4.875652276638186E-001;-3.299379958601146E-001;
8.480000000000000E+008;4.399918273961450E-001;-3.564281972945199E-001;
8.590000000000000E+008;3.932494501258376E-001;-3.712904614915870E-001;
8.700000000000000E+008;3.529139390482515E-001;-3.733686729066844E-001;
8.810000000000000E+008;3.230841289029973E-001;-3.779215362559334E-001;
8.920000000000000E+008;2.969136239981652E-001;-3.891170768145147E-001;
9.030000000000000E+008;2.590752114802377E-001;-4.006627495788361E-001;
9.140000000000000E+008;2.150064624588624E-001;-3.993068051638663E-001;
9.250000000000000E+008;1.758032249071727E-001;-3.891698295466084E-001;
9.360000000000000E+008;1.471584357720250E-001;-3.658232398415951E-001;
9.470000000000000E+008;1.265997888182676E-001;-3.468535416845612E-001;
9.580000000000000E+008;1.157568052046780E-001;-3.219476345609665E-001;
9.690000000000000E+008;1.128591088351681E-001;-3.054379618059792E-001;
9.800000000000000E+008;1.120788612709340E-001;-2.898017632036239E-001;
9.910000000000000E+008;1.273110227012657E-001;-2.755944653262480E-001;
1.002000000000000E+009;1.390458937436482E-001;-2.849185919370690E-001;
1.013000000000000E+009;1.420334257691821E-001;-2.936461336594750E-001;
1.024000000000000E+009;1.429515686616923E-001;-3.027141509750233E-001;
1.035000000000000E+009;1.433260610897963E-001;-3.048496301851888E-001;
1.046000000000000E+009;1.606566413064035E-001;-3.145214595131547E-001;
1.057000000000000E+009;1.734664828247542E-001;-3.443479202129077E-001;
1.068000000000000E+009;1.680297480854036E-001;-3.874672315431642E-001;
1.079000000000000E+009;1.392899389984171E-001;-4.172146232125877E-001;
1.090000000000000E+009;1.182128740626783E-001;-4.306236904462606E-001;
1.101000000000000E+009;1.048602811695643E-001;-4.477480474135732E-001;
1.112000000000000E+009;8.653126614861390E-002;-4.730658081348593E-001;
1.123000000000000E+009;6.057927388668553E-002;-4.999491348180716E-001;
1.134000000000000E+009;2.672425112284805E-002;-5.224786865947401E-001;
1.145000000000000E+009;-1.360980778158899E-002;-5.386304784461823E-001;
1.156000000000000E+009;-4.961981276741084E-002;-5.479834446315185E-001;
1.167000000000000E+009;-8.821278084305080E-002;-5.623715999732394E-001;
1.178000000000000E+009;-1.344449566916414E-001;-5.696381969119159E-001;
1.189000000000000E+009;-1.796152393828384E-001;-5.716280505572775E-001;
1.200000000000000E+009;-2.245450865712297E-001;-5.670608642697330E-001;
1.211000000000000E+009;-2.668475268396869E-001;-5.656267356812701E-001;
1.222000000000000E+009;-3.172778734245030E-001;-5.608678991396787E-001;
1.233000000000000E+009;-3.709012299227588E-001;-5.457982709459873E-001;
1.244000000000000E+009;-4.221757336247970E-001;-5.213399660481812E-001;
1.255000000000000E+009;-4.690227000564378E-001;-4.882724652359586E-001;
1.266000000000000E+009;-5.053426131304101E-001;-4.520550487667083E-001;
1.277000000000000E+009;-5.397855573929329E-001;-4.177423684302469E-001;
1.288000000000000E+009;-5.730119089798796E-001;-3.820443450665678E-001;
1.299000000000000E+009;-6.085715994417000E-001;-3.435767010636829E-001;
1.310000000000000E+009;-6.405898044017185E-001;-2.939374901900985E-001;
1.321000000000000E+009;-6.615230789883507E-001;-2.444698352926139E-001;
1.332000000000000E+009;-6.806540888208849E-001;-1.981385669626772E-001;
1.343000000000000E+009;-7.004319685997592E-001;-1.493205639739216E-001;
1.354000000000000E+009;-7.170847808830182E-001;-9.748867999257517E-002;
1.365000000000000E+009;-7.274753595823943E-001;-4.148003551580099E-002;
1.376000000000000E+009;-7.334098430080687E-001;1.355210390726894E-002;
1.387000000000000E+009;-7.350612727945980E-001;6.980642656859734E-002;
1.398000000000000E+009;-7.348173442608701E-001;1.267672495126051E-001;
1.409000000000000E+009;-7.277853195767783E-001;1.863201888961626E-001;
1.420000000000000E+009;-7.141951534642124E-001;2.469022752580192E-001;
1.431000000000000E+009;-6.921333831703983E-001;3.058724063593472E-001;
1.442000000000000E+009;-6.631666300134159E-001;3.603667925924718E-001;
1.453000000000000E+009;-6.307419928493111E-001;4.068471806284340E-001;
1.464000000000000E+009;-6.036427573153662E-001;4.527284296799736E-001;
1.475000000000000E+009;-5.705813246025616E-001;5.041486823459640E-001;
1.486000000000000E+009;-5.290039913660474E-001;5.545945664088466E-001;
1.497000000000000E+009;-4.792539893862279E-001;5.970913666034742E-001;
1.508000000000000E+009;-4.282114843376221E-001;6.314445746961502E-001;
1.519000000000000E+009;-3.787028335078808E-001;6.615138166712020E-001;
1.530000000000000E+009;-3.279789825864773E-001;6.921558166648969E-001;
1.541000000000000E+009;-2.723412820015292E-001;7.182797632357593E-001;
1.552000000000000E+009;-2.155560821357813E-001;7.416050700943185E-001;
1.563000000000000E+009;-1.524094049670417E-001;7.599185857654377E-001;
1.574000000000000E+009;-8.897849521958511E-002;7.705570867277685E-001;
1.585000000000000E+009;-2.340281785813966E-002;7.766238545207109E-001;
1.596000000000000E+009;4.206582798610518E-002;7.761606989892707E-001;
1.607000000000000E+009;1.079290359551021E-001;7.700615228420679E-001;
1.618000000000000E+009;1.741004053397941E-001;7.569220417447118E-001;
1.629000000000000E+009;2.365809724603345E-001;7.375148314212274E-001;
1.640000000000000E+009;2.975458050377882E-001;7.130860935555076E-001;
1.651000000000000E+009;3.551645927860063E-001;6.845548607005827E-001;
1.662000000000000E+009;4.114690675481336E-001;6.506052992168059E-001;
1.673000000000000E+009;4.628126513782284E-001;6.110798670419688E-001;
1.684000000000000E+009;5.084522394789818E-001;5.698458975737225E-001;
1.695000000000000E+009;5.516086514823940E-001;5.262789998601326E-001;
1.706000000000000E+009;5.930876767220720E-001;4.805020121575481E-001;
1.717000000000000E+009;6.295848496224394E-001;4.295867986076821E-001;
1.728000000000000E+009;6.615013884888671E-001;3.765179176864293E-001;
1.739000000000000E+009;6.888491674946530E-001;3.212430294995468E-001;
1.750000000000000E+009;7.121893713409448E-001;2.628836643456354E-001;
1.761000000000000E+009;7.299079721317234E-001;2.038508984379855E-001;
1.772000000000000E+009;7.427575081620594E-001;1.438204999763043E-001;
1.783000000000000E+009;7.513125697483710E-001;8.306410637715905E-002;
1.794000000000000E+009;7.545586050229133E-001;2.271599144161940E-002;
1.805000000000000E+009;7.528565028886789E-001;-3.711941857735416E-002;
1.816000000000000E+009;7.475523718097660E-001;-9.562307377200312E-002;
1.827000000000000E+009;7.381053298593803E-001;-1.527052041065597E-001;
1.838000000000000E+009;7.259675580844816E-001;-2.087499707457725E-001;
1.849000000000000E+009;7.091417263564571E-001;-2.662986069330820E-001;
1.860000000000000E+009;6.867316812291860E-001;-3.200926729583652E-001;
1.871000000000000E+009;6.620819776539719E-001;-3.726253768568006E-001;
1.882000000000000E+009;6.314903621746744E-001;-4.242218479033125E-001;
1.893000000000000E+009;5.976049693458808E-001;-4.710473047967433E-001;
1.904000000000000E+009;5.605919146197825E-001;-5.151016714774626E-001;
1.915000000000000E+009;5.207091240107182E-001;-5.561403955674491E-001;
1.926000000000000E+009;4.806319130768780E-001;-5.955786441390270E-001;
1.937000000000000E+009;4.341524562846375E-001;-6.339367528293434E-001;
1.948000000000000E+009;3.845402903097083E-001;-6.662927416612438E-001;
1.959000000000000E+009;3.338314999065431E-001;-6.945251633021602E-001;
1.970000000000000E+009;2.825873073761952E-001;-7.186480340607382E-001;
1.981000000000000E+009;2.299095322580207E-001;-7.407064087513098E-001;
1.992000000000000E+009;1.749225982715333E-001;-7.584824715290578E-001;
2.003000000000000E+009;1.183974682480661E-001;-7.711698931432056E-001;
2.014000000000000E+009;6.285852519309719E-002;-7.787469737135095E-001;
2.025000000000000E+009;7.781360479709590E-003;-7.845575600164733E-001;
2.036000000000000E+009;-5.098743248789850E-002;-7.855830931795605E-001;
2.047000000000000E+009;-1.078243945876752E-001;-7.806386472393316E-001;
2.058000000000000E+009;-1.651664608803454E-001;-7.724821695563787E-001;
2.069000000000000E+009;-2.196737313768997E-001;-7.578048957612840E-001;
2.080000000000000E+009;-2.711723364678073E-001;-7.424206472426491E-001;
2.091000000000000E+009;-3.233502782076552E-001;-7.234552712861964E-001;
2.102000000000000E+009;-3.776915875742927E-001;-7.004527851970843E-001;
2.113000000000000E+009;-4.259161232877996E-001;-6.725534788801092E-001;
2.124000000000000E+009;-4.722805595859553E-001;-6.422551483583212E-001;
2.135000000000000E+009;-5.168578025991586E-001;-6.095449110150463E-001;
2.146000000000000E+009;-5.588176770080144E-001;-5.734422052393126E-001;
2.157000000000000E+009;-5.991877783816226E-001;-5.348692576448260E-001;
2.168000000000000E+009;-6.353192287053019E-001;-4.916119379878809E-001;
2.179000000000000E+009;-6.667134681314285E-001;-4.474497869761309E-001;
2.190000000000000E+009;-6.959594852188389E-001;-4.012127150534745E-001;
2.201000000000000E+009;-7.211663674251161E-001;-3.535881087219296E-001;
2.212000000000000E+009;-7.434137849962419E-001;-3.045513303844726E-001;
2.223000000000000E+009;-7.622141928372236E-001;-2.543139217455798E-001;
2.234000000000000E+009;-7.780548424614725E-001;-2.032613500950421E-001;
2.245000000000000E+009;-7.904664751579246E-001;-1.507045305283296E-001;
2.256000000000000E+009;-7.988466532524832E-001;-9.804592147665578E-002;
2.267000000000000E+009;-8.035766373081775E-001;-4.548050909398959E-002;
2.278000000000000E+009;-8.057544603872310E-001;7.434322250287769E-003;
2.289000000000000E+009;-8.033318113985447E-001;6.061014357917981E-002;
2.300000000000000E+009;-7.981711524965200E-001;1.129756340309367E-001;
2.311000000000000E+009;-7.911020348427070E-001;1.651119700113491E-001;
2.322000000000000E+009;-7.794457221842120E-001;2.185123656258583E-001;
2.333000000000000E+009;-7.633140906610736E-001;2.708371039796315E-001;
2.344000000000000E+009;-7.429305901633116E-001;3.211644609376620E-001;
2.355000000000000E+009;-7.189847686676055E-001;3.695158729477157E-001;
2.366000000000000E+009;-6.934639780155273E-001;4.155928110120957E-001;
2.377000000000000E+009;-6.636992528548018E-001;4.610383639846128E-001;
2.388000000000000E+009;-6.314613584804343E-001;5.035426697104987E-001;
2.399000000000000E+009;-5.964407480463837E-001;5.443268410261397E-001;
2.410000000000000E+009;-5.587270699725221E-001;5.829753370572154E-001;
2.421000000000000E+009;-5.176296797421731E-001;6.188862641613971E-001;
2.432000000000000E+009;-4.741816089977562E-001;6.508335073896445E-001;
2.443000000000000E+009;-4.306930659421123E-001;6.796736063716119E-001;
2.454000000000000E+009;-3.841583576702765E-001;7.077000984862272E-001;
2.465000000000000E+009;-3.358931421162753E-001;7.320341890416767E-001;
2.476000000000000E+009;-2.841983002995122E-001;7.529832053805550E-001;
2.487000000000000E+009;-2.320324556081149E-001;7.695038477347435E-001;
2.498000000000000E+009;-1.779589994325672E-001;7.834788232658817E-001;
2.509000000000000E+009;-1.215844814578931E-001;7.929972501119180E-001;
2.520000000000000E+009;-6.549711024698962E-002;7.985243035290465E-001;
2.531000000000000E+009;-7.712869236964111E-003;7.982257177241333E-001;
2.542000000000000E+009;4.670293819302839E-002;7.949399985569208E-001;
2.553000000000000E+009;1.031139912936041E-001;7.873314727203855E-001;
2.564000000000000E+009;1.573346645504093E-001;7.758574635321276E-001;
2.575000000000000E+009;2.115767950539603E-001;7.607587065648649E-001;
2.586000000000000E+009;2.646490313621960E-001;7.412887420069686E-001;
2.597000000000000E+009;3.158013204222562E-001;7.177147287209501E-001;
2.608000000000000E+009;3.642112840243053E-001;6.895987917671366E-001;
2.619000000000000E+009;4.090826720803524E-001;6.601113914525644E-001;
2.630000000000000E+009;4.532774804095335E-001;6.283590352821952E-001;
2.641000000000000E+009;4.962912390600693E-001;5.929200904883878E-001;
2.652000000000000E+009;5.361586599811999E-001;5.526938819972493E-001;
2.663000000000000E+009;5.717926154563283E-001;5.098644472667119E-001;
2.674000000000000E+009;6.046183509576110E-001;4.650341976919199E-001;
2.685000000000000E+009;6.342095271422867E-001;4.174066166837205E-001;
2.696000000000000E+009;6.603842504201987E-001;3.682612947112013E-001;
2.707000000000000E+009;6.828713119025954E-001;3.159484301089566E-001;
2.718000000000000E+009;7.001301357917070E-001;2.633590063323293E-001;
2.729000000000000E+009;7.146131680706422E-001;2.104762613906350E-001;
2.740000000000000E+009;7.250928225432241E-001;1.563750399995439E-001;
2.751000000000000E+009;7.313327146456715E-001;1.017809059136634E-001;
2.762000000000000E+009;7.336760109932843E-001;4.617918309948597E-002;
2.773000000000000E+009;7.306472568072386E-001;-1.028802106840758E-002;
2.784000000000000E+009;7.215432046584566E-001;-6.488491562810453E-002;
2.795000000000000E+009;7.096946229507367E-001;-1.168708011245497E-001;
2.806000000000000E+009;6.947728963033466E-001;-1.680658384899643E-001;
2.817000000000000E+009;6.758128977661169E-001;-2.184746770290531E-001;
2.828000000000000E+009;6.523966600206681E-001;-2.668131152661844E-001;
2.839000000000000E+009;6.251398925669993E-001;-3.118222332657322E-001;
2.850000000000000E+009;5.951987558006306E-001;-3.523069802389234E-001;
2.861000000000000E+009;5.653670009943769E-001;-3.905890806606183E-001;
2.872000000000000E+009;5.333236099914152E-001;-4.282020159584830E-001;
2.883000000000000E+009;4.982680848685893E-001;-4.630922661308333E-001;
2.894000000000000E+009;4.601269787739949E-001;-4.947634451063413E-001;
2.905000000000000E+009;4.217842838128451E-001;-5.221396268181783E-001;
2.916000000000000E+009;3.827500119410749E-001;-5.481399394818468E-001;
2.927000000000000E+009;3.423362120596948E-001;-5.707186960506492E-001;
2.938000000000000E+009;3.012028776958191E-001;-5.913127464888496E-001;
2.949000000000000E+009;2.585338028525414E-001;-6.078885675810307E-001;
2.960000000000000E+009;2.160984443053303E-001;-6.220044555913368E-001;
2.971000000000000E+009;1.721010204530007E-001;-6.331503954960535E-001;
2.982000000000000E+009;1.299093606472060E-001;-6.432841802148301E-001;
2.993000000000000E+009;8.504143244041000E-002;-6.516522874177102E-001;
3.004000000000000E+009;4.119642182384727E-002;-6.562227423729956E-001;
3.015000000000000E+009;-2.960695945060355E-003;-6.579694926473314E-001;
3.026000000000000E+009;-4.742037231152232E-002;-6.576011514883966E-001;
3.037000000000000E+009;-9.206215424511521E-002;-6.540108702536881E-001;
3.048000000000000E+009;-1.372000366888276E-001;-6.477920719252643E-001;
3.059000000000000E+009;-1.813890633463444E-001;-6.385793003198148E-001;
3.070000000000000E+009;-2.250966085083640E-001;-6.259369184592253E-001;
3.081000000000000E+009;-2.683765139363815E-001;-6.109948433978768E-001;
3.092000000000000E+009;-3.107633834683473E-001;-5.923623623046999E-001;
3.103000000000000E+009;-3.514092579523164E-001;-5.710116323883920E-001;
3.114000000000000E+009;-3.905456633330681E-001;-5.475652480354032E-001;
3.125000000000000E+009;-4.276972671754019E-001;-5.216898795656103E-001;
3.136000000000000E+009;-4.631141726906682E-001;-4.952604079443568E-001;
3.147000000000000E+009;-4.981767957340722E-001;-4.656547987716415E-001;
3.158000000000000E+009;-5.307511343756174E-001;-4.336300607718254E-001;
3.169000000000000E+009;-5.627361448310648E-001;-3.991853818828528E-001;
