# Version 1.00
#
freq[Hz];re:Trc1_S22;im:Trc1_S22;
1.000000000000000E+008;7.117536136541675E-001;-6.721112060727416E-001;
1.110000000000000E+008;6.486464405321147E-001;-7.270962987885176E-001;
1.220000000000000E+008;5.842869973116310E-001;-7.752060952410134E-001;
1.330000000000000E+008;5.144557379493407E-001;-8.214590193682834E-001;
1.440000000000000E+008;4.392790602211821E-001;-8.563321851631608E-001;
1.550000000000000E+008;3.643531800236647E-001;-8.862973365218888E-001;
1.660000000000000E+008;2.860210964123562E-001;-9.108893875894880E-001;
1.770000000000000E+008;2.014306589849693E-001;-9.261439572775927E-001;
1.880000000000000E+008;1.152978616777820E-001;-9.300098823239813E-001;
1.990000000000000E+008;3.356869236127554E-002;-9.149729009217864E-001;
2.100000000000000E+008;-2.791579564197545E-002;-8.919653619390899E-001;
2.210000000000000E+008;-7.855618163647467E-002;-8.817330746192758E-001;
2.320000000000000E+008;-1.367252553676830E-001;-8.812160652882376E-001;
2.430000000000000E+008;-2.012547285780810E-001;-8.819514323324822E-001;
2.540000000000000E+008;-2.835449878348888E-001;-8.762065444988999E-001;
2.650000000000000E+008;-3.681302266482671E-001;-8.524970210614268E-001;
2.760000000000000E+008;-4.467087715534558E-001;-8.124272185517506E-001;
2.870000000000000E+008;-5.146970943059198E-001;-7.666019917408788E-001;
2.980000000000000E+008;-5.772916687623396E-001;-7.184307931649043E-001;
3.090000000000000E+008;-6.362894813794549E-001;-6.689020530849702E-001;
3.200000000000000E+008;-6.992891043390103E-001;-6.145611105313089E-001;
3.310000000000000E+008;-7.588098066111382E-001;-5.474718297244016E-001;
3.420000000000000E+008;-8.092059846372268E-001;-4.747151477328793E-001;
3.530000000000000E+008;-8.539542361233269E-001;-3.944240000470219E-001;
3.640000000000000E+008;-8.898800078365651E-001;-3.089018351381837E-001;
3.750000000000000E+008;-9.170636410825077E-001;-2.189281735445471E-001;
3.860000000000000E+008;-9.346161145010928E-001;-1.255827552762164E-001;
3.970000000000000E+008;-9.430262898738934E-001;-2.950751189735993E-002;
4.080000000000000E+008;-9.390248724962170E-001;6.849093698184013E-002;
4.190000000000000E+008;-9.245657451682786E-001;1.638484795305447E-001;
4.300000000000000E+008;-9.010296751146918E-001;2.582583328258306E-001;
4.410000000000000E+008;-8.651863215679631E-001;3.513494075214926E-001;
4.520000000000000E+008;-8.194760623701763E-001;4.403218796543178E-001;
4.630000000000000E+008;-7.621185687255044E-001;5.237850410112052E-001;
4.740000000000000E+008;-6.942378680226508E-001;5.986872899609598E-001;
4.850000000000000E+008;-6.200106300770699E-001;6.662653149375878E-001;
4.960000000000000E+008;-5.342366519435347E-001;7.209402106864534E-001;
5.070000000000000E+008;-4.502729673987380E-001;7.618604175216484E-001;
5.180000000000000E+008;-3.614465590793513E-001;7.993709967186915E-001;
5.290000000000000E+008;-2.678388490729851E-001;8.226788527040873E-001;
5.400000000000000E+008;-1.726701553124455E-001;8.379944753864778E-001;
5.510000000000000E+008;-7.599821164096313E-002;8.394043460026424E-001;
5.620000000000000E+008;2.149272376499921E-002;8.248550326348811E-001;
5.730000000000000E+008;1.032361924442606E-001;7.912417217673513E-001;
5.840000000000000E+008;1.712102770528559E-001;7.675493477949346E-001;
5.950000000000000E+008;2.529581138035776E-001;7.428558948806824E-001;
6.060000000000000E+008;3.362295453308242E-001;6.975515958022779E-001;
6.170000000000000E+008;4.106334296773794E-001;6.353117797665638E-001;
6.280000000000000E+008;4.678676501484158E-001;5.636235627785070E-001;
6.390000000000000E+008;5.227502270675249E-001;4.828345430898929E-001;
6.500000000000000E+008;5.401435630034960E-001;3.858193025953189E-001;
6.610000000000000E+008;5.437423690352711E-001;3.206852443084123E-001;
6.720000000000000E+008;5.547999525416523E-001;2.483674883257076E-001;
6.830000000000000E+008;5.459524617072896E-001;1.724781136605043E-001;
6.940000000000000E+008;5.189683788751174E-001;1.100556462839400E-001;
7.050000000000000E+008;5.058848324815980E-001;6.394256254574177E-002;
7.160000000000000E+008;4.771041592520759E-001;-5.313622235815686E-003;
7.270000000000000E+008;4.176140634273078E-001;-5.243628621953849E-002;
7.380000000000000E+008;3.586339801172335E-001;-7.099692939236035E-002;
7.490000000000000E+008;3.208715223657652E-001;-7.374379106076792E-002;
7.600000000000000E+008;2.743931548407156E-001;-9.447367219740495E-002;
7.710000000000000E+008;2.084746550715476E-001;-8.902377269103753E-002;
7.820000000000000E+008;1.435717130611060E-001;-4.716581307338350E-002;
7.930000000000000E+008;1.203708977065572E-001;3.638048008665971E-002;
8.040000000000000E+008;1.585904636684716E-001;9.100731475553152E-002;
8.150000000000000E+008;1.924083132448659E-001;1.125164074954232E-001;
8.260000000000000E+008;2.215856407748570E-001;1.257170564630423E-001;
8.370000000000000E+008;2.495192071816613E-001;1.426010620911075E-001;
8.480000000000000E+008;2.870550762833961E-001;1.541471022475648E-001;
8.590000000000000E+008;3.394376172258756E-001;1.582866377947285E-001;
8.700000000000000E+008;3.914514037678092E-001;1.424798381476089E-001;
8.810000000000000E+008;4.463141369928830E-001;1.082459321215224E-001;
8.920000000000000E+008;4.691347293944609E-001;5.723638654215189E-002;
9.030000000000000E+008;4.881517252702156E-001;3.079588641565246E-002;
9.140000000000000E+008;5.225901815720738E-001;-2.531274725551473E-003;
9.250000000000000E+008;5.475874632190558E-001;-5.161217482883179E-002;
9.360000000000000E+008;5.672742728708682E-001;-1.077725519090572E-001;
9.470000000000000E+008;5.664812468088952E-001;-1.599058668813992E-001;
9.580000000000000E+008;5.757201555690712E-001;-2.068323204491812E-001;
9.690000000000000E+008;5.786582841132913E-001;-2.692492004372605E-001;
9.800000000000000E+008;5.692056282678846E-001;-3.301820993406839E-001;
9.910000000000000E+008;5.511821734739247E-001;-3.942838088728224E-001;
1.002000000000000E+009;5.168994932996099E-001;-4.531260528904849E-001;
1.013000000000000E+009;4.795356362476393E-001;-5.002599694396503E-001;
1.024000000000000E+009;4.413352175731554E-001;-5.421291359329112E-001;
1.035000000000000E+009;4.060095907051473E-001;-5.764074444033628E-001;
1.046000000000000E+009;3.723450793978209E-001;-6.214037678378936E-001;
1.057000000000000E+009;3.235988513332820E-001;-6.651336515665749E-001;
1.068000000000000E+009;2.656874947752729E-001;-6.998265721163496E-001;
1.079000000000000E+009;2.057638525512816E-001;-7.239262545795884E-001;
1.090000000000000E+009;1.465514857049784E-001;-7.372988366149209E-001;
1.101000000000000E+009;9.183972015968436E-002;-7.462652322952433E-001;
1.112000000000000E+009;4.068061003050873E-002;-7.555495481066040E-001;
1.123000000000000E+009;-1.687287423762980E-002;-7.653355016811096E-001;
1.134000000000000E+009;-7.551340639672670E-002;-7.643471133153666E-001;
1.145000000000000E+009;-1.323448622245552E-001;-7.650141549935934E-001;
1.156000000000000E+009;-1.930354203218868E-001;-7.601190976802761E-001;
1.167000000000000E+009;-2.580797515031414E-001;-7.492905741348316E-001;
1.178000000000000E+009;-3.189144171947156E-001;-7.262804055561696E-001;
1.189000000000000E+009;-3.734778960061704E-001;-7.003719077770326E-001;
1.200000000000000E+009;-4.243730456236966E-001;-6.710113401750225E-001;
1.211000000000000E+009;-4.739381857555370E-001;-6.414597717226828E-001;
1.222000000000000E+009;-5.205992284431633E-001;-6.060101730723995E-001;
1.233000000000000E+009;-5.637822105260291E-001;-5.692116697672872E-001;
1.244000000000000E+009;-6.080222081178821E-001;-5.318385119597889E-001;
1.255000000000000E+009;-6.530356418323455E-001;-4.831958303465161E-001;
1.266000000000000E+009;-6.863842419485819E-001;-4.289871306462181E-001;
1.277000000000000E+009;-7.144428034049085E-001;-3.758363883206308E-001;
1.288000000000000E+009;-7.373244359236379E-001;-3.208763656465319E-001;
1.299000000000000E+009;-7.564031447161305E-001;-2.680809994952278E-001;
1.310000000000000E+009;-7.749419298458293E-001;-2.140588999571396E-001;
1.321000000000000E+009;-7.906697155120968E-001;-1.577883170001956E-001;
1.332000000000000E+009;-8.043026628793911E-001;-9.963583211561328E-002;
1.343000000000000E+009;-8.124953985643928E-001;-3.574826225146314E-002;
1.354000000000000E+009;-8.127646873347666E-001;2.751687651477729E-002;
1.365000000000000E+009;-8.067111664222961E-001;8.933131775710285E-002;
1.376000000000000E+009;-7.960994967884978E-001;1.480438614758826E-001;
1.387000000000000E+009;-7.832692124123634E-001;2.062224085248365E-001;
1.398000000000000E+009;-7.660110069170624E-001;2.632840739793361E-001;
1.409000000000000E+009;-7.458817052456757E-001;3.187553605183102E-001;
1.420000000000000E+009;-7.223864966282747E-001;3.767256277692502E-001;
1.431000000000000E+009;-6.905416495839780E-001;4.342425264051304E-001;
1.442000000000000E+009;-6.500299375039722E-001;4.876336847408813E-001;
1.453000000000000E+009;-6.062043759028992E-001;5.334033862061637E-001;
1.464000000000000E+009;-5.624201785528801E-001;5.739050701801884E-001;
1.475000000000000E+009;-5.184574637216420E-001;6.140835506699841E-001;
1.486000000000000E+009;-4.708403700179082E-001;6.553894362656987E-001;
1.497000000000000E+009;-4.172955498339915E-001;6.900428625680870E-001;
1.508000000000000E+009;-3.621570873429388E-001;7.216672790951290E-001;
1.519000000000000E+009;-3.039603543802236E-001;7.484396964173485E-001;
1.530000000000000E+009;-2.428236438864662E-001;7.728752976343981E-001;
1.541000000000000E+009;-1.773076763943800E-001;7.886418400622272E-001;
1.552000000000000E+009;-1.136410147065670E-001;7.987679297065642E-001;
1.563000000000000E+009;-4.814071643180069E-002;8.038165566734866E-001;
1.574000000000000E+009;1.552652547892260E-002;8.030561863212762E-001;
1.585000000000000E+009;8.093872147495314E-002;7.994133963325990E-001;
1.596000000000000E+009;1.462812515283900E-001;7.890275093647052E-001;
1.607000000000000E+009;2.114155929971668E-001;7.735616206479860E-001;
1.618000000000000E+009;2.755260174201122E-001;7.503429719074322E-001;
1.629000000000000E+009;3.347874524727604E-001;7.209802321405480E-001;
1.640000000000000E+009;3.904170784396774E-001;6.879354995318682E-001;
1.651000000000000E+009;4.416559228021900E-001;6.526712517633011E-001;
1.662000000000000E+009;4.929655752969019E-001;6.153331691724709E-001;
1.673000000000000E+009;5.405844406520026E-001;5.710848261569758E-001;
1.684000000000000E+009;5.832444427254611E-001;5.263306018182397E-001;
1.695000000000000E+009;6.239042356602459E-001;4.770975178944906E-001;
1.706000000000000E+009;6.599521683525067E-001;4.260422969302274E-001;
1.717000000000000E+009;6.940776084684115E-001;3.720114914431515E-001;
1.728000000000000E+009;7.219230556632933E-001;3.124636817939953E-001;
1.739000000000000E+009;7.434126339048834E-001;2.521001812942004E-001;
1.750000000000000E+009;7.609739752431128E-001;1.905622809817658E-001;
1.761000000000000E+009;7.731068917179845E-001;1.277981927785912E-001;
1.772000000000000E+009;7.802994008287094E-001;6.532404449535127E-002;
1.783000000000000E+009;7.847733732748033E-001;2.028719268409024E-003;
1.794000000000000E+009;7.821316356383150E-001;-6.334145717833753E-002;
1.805000000000000E+009;7.741999565927634E-001;-1.260080940876010E-001;
1.816000000000000E+009;7.617043190434956E-001;-1.893588338003197E-001;
1.827000000000000E+009;7.430669821303974E-001;-2.501858555900885E-001;
1.838000000000000E+009;7.194563065343806E-001;-3.082233750065704E-001;
1.849000000000000E+009;6.914904472145260E-001;-3.630117945319731E-001;
1.860000000000000E+009;6.613116417797332E-001;-4.150966921239079E-001;
1.871000000000000E+009;6.277421152257897E-001;-4.648076338485006E-001;
1.882000000000000E+009;5.900009064918325E-001;-5.137879098940044E-001;
1.893000000000000E+009;5.475030074847118E-001;-5.589285445968697E-001;
1.904000000000000E+009;5.004080023320707E-001;-5.985899056493269E-001;
1.915000000000000E+009;4.520293007271146E-001;-6.332475692260287E-001;
1.926000000000000E+009;4.034519451693533E-001;-6.659764085254263E-001;
1.937000000000000E+009;3.506891557147259E-001;-6.947323614917764E-001;
1.948000000000000E+009;2.978538052917636E-001;-7.192605074510957E-001;
1.959000000000000E+009;2.416375332484635E-001;-7.407592026431086E-001;
1.970000000000000E+009;1.869916064369818E-001;-7.562665328189829E-001;
1.981000000000000E+009;1.296892425871551E-001;-7.705532182834871E-001;
1.992000000000000E+009;7.148516519318228E-002;-7.787010543407209E-001;
2.003000000000000E+009;1.219767078447293E-002;-7.829995665169582E-001;
2.014000000000000E+009;-4.761501978834507E-002;-7.796700996513822E-001;
2.025000000000000E+009;-1.036567641430648E-001;-7.712263669895954E-001;
2.036000000000000E+009;-1.578749979933036E-001;-7.598817882648090E-001;
2.047000000000000E+009;-2.113456279534149E-001;-7.466152469598051E-001;
2.058000000000000E+009;-2.648788286888896E-001;-7.286984439427430E-001;
2.069000000000000E+009;-3.154956504428667E-001;-7.064805555188561E-001;
2.080000000000000E+009;-3.651748286896084E-001;-6.819126280609135E-001;
2.091000000000000E+009;-4.120601648151370E-001;-6.510858886042319E-001;
2.102000000000000E+009;-4.579504389866266E-001;-6.176223370283223E-001;
2.113000000000000E+009;-4.974639970761347E-001;-5.817569522924230E-001;
2.124000000000000E+009;-5.346685411931705E-001;-5.445750503244199E-001;
2.135000000000000E+009;-5.688720675744882E-001;-5.055156367871663E-001;
2.146000000000000E+009;-6.019275612471629E-001;-4.639955263669620E-001;
2.157000000000000E+009;-6.301040319875808E-001;-4.198004669128748E-001;
2.168000000000000E+009;-6.542173267345285E-001;-3.731747944078935E-001;
2.179000000000000E+009;-6.738796391570288E-001;-3.268009051796537E-001;
2.190000000000000E+009;-6.898631676361733E-001;-2.790478693771118E-001;
2.201000000000000E+009;-7.018193955899218E-001;-2.310996912073793E-001;
2.212000000000000E+009;-7.102578111597772E-001;-1.840926905716266E-001;
2.223000000000000E+009;-7.146199916708298E-001;-1.376783640856586E-001;
2.234000000000000E+009;-7.178966988367062E-001;-9.337264264529847E-002;
2.245000000000000E+009;-7.192693957752209E-001;-4.769618949951275E-002;
2.256000000000000E+009;-7.172922408039631E-001;-2.522634292599691E-003;
2.267000000000000E+009;-7.121644707920258E-001;4.231428302851282E-002;
2.278000000000000E+009;-7.039011552097875E-001;8.643577852305225E-002;
2.289000000000000E+009;-6.914762893994445E-001;1.285926781961259E-001;
2.300000000000000E+009;-6.768564063245578E-001;1.686968501797169E-001;
2.311000000000000E+009;-6.614340974076460E-001;2.049593014321658E-001;
2.322000000000000E+009;-6.454046729742531E-001;2.413999998792066E-001;
2.333000000000000E+009;-6.288312621666915E-001;2.761058760353755E-001;
2.344000000000000E+009;-6.098661977076388E-001;3.118130985707998E-001;
2.355000000000000E+009;-5.876985133839144E-001;3.455843108776427E-001;
2.366000000000000E+009;-5.641475793482301E-001;3.770290881658754E-001;
2.377000000000000E+009;-5.390212320095082E-001;4.064750508664705E-001;
2.388000000000000E+009;-5.140572452206639E-001;4.334308290532637E-001;
2.399000000000000E+009;-4.880010850703992E-001;4.602456662856973E-001;
2.410000000000000E+009;-4.613615518801551E-001;4.841308686513882E-001;
2.421000000000000E+009;-4.359248131494513E-001;5.078982456499950E-001;
2.432000000000000E+009;-4.094823974560967E-001;5.327004073641155E-001;
2.443000000000000E+009;-3.807039860691926E-001;5.573347973595968E-001;
2.454000000000000E+009;-3.495231291340554E-001;5.810519056633025E-001;
2.465000000000000E+009;-3.166653604709337E-001;6.034630702973743E-001;
2.476000000000000E+009;-2.813883061634427E-001;6.247832071876611E-001;
2.487000000000000E+009;-2.436058401215537E-001;6.449314310623198E-001;
2.498000000000000E+009;-2.016136206608916E-001;6.621683551767117E-001;
2.509000000000000E+009;-1.584265528184707E-001;6.752671413743077E-001;
2.520000000000000E+009;-1.154779305209724E-001;6.861124919504800E-001;
2.531000000000000E+009;-7.014646938452664E-002;6.934156988246502E-001;
2.542000000000000E+009;-2.669267861839900E-002;6.979339676313907E-001;
2.553000000000000E+009;1.878317731279877E-002;7.003485472375930E-001;
2.564000000000000E+009;6.436657670126890E-002;7.003621259343619E-001;
2.575000000000000E+009;1.113059663888723E-001;6.969493425239171E-001;
2.586000000000000E+009;1.576957636975288E-001;6.899005540548076E-001;
2.597000000000000E+009;2.043345560606949E-001;6.814273675800256E-001;
2.608000000000000E+009;2.528071273430725E-001;6.674765307497224E-001;
2.619000000000000E+009;2.990825098092611E-001;6.498469370404391E-001;
2.630000000000000E+009;3.443984610483279E-001;6.279033579507530E-001;
2.641000000000000E+009;3.875168707726557E-001;6.034107078608100E-001;
2.652000000000000E+009;4.292482383414299E-001;5.750198628957201E-001;
2.663000000000000E+009;4.683915847347590E-001;5.431722614226846E-001;
2.674000000000000E+009;5.044085501071940E-001;5.093908966002263E-001;
2.685000000000000E+009;5.396498923303238E-001;4.736563210807451E-001;
2.696000000000000E+009;5.727887153933243E-001;4.354928154892669E-001;
2.707000000000000E+009;6.042060902040993E-001;3.934746533380495E-001;
2.718000000000000E+009;6.325407917124374E-001;3.492227474183582E-001;
2.729000000000000E+009;6.572587325087868E-001;3.022645258765539E-001;
2.740000000000000E+009;6.807518017255509E-001;2.480606198410884E-001;
2.751000000000000E+009;6.968844418222403E-001;1.975045186485936E-001;
2.762000000000000E+009;7.088645161379623E-001;1.456399260651967E-001;
2.773000000000000E+009;7.173447263896431E-001;9.345429370870967E-002;
2.784000000000000E+009;7.221711554221566E-001;4.059127970945548E-002;
2.795000000000000E+009;7.233656170305297E-001;-1.285460682325313E-002;
2.806000000000000E+009;7.208998414187650E-001;-6.645712133813239E-002;
2.817000000000000E+009;7.141500528101089E-001;-1.203524311432029E-001;
2.828000000000000E+009;7.033728632439313E-001;-1.734424456235659E-001;
2.839000000000000E+009;6.892771117323135E-001;-2.255412407303703E-001;
2.850000000000000E+009;6.710330180021430E-001;-2.771548520492750E-001;
2.861000000000000E+009;6.490937886607142E-001;-3.280776743744789E-001;
2.872000000000000E+009;6.225006707461918E-001;-3.775383809408555E-001;
2.883000000000000E+009;5.923380257926544E-001;-4.241983276068808E-001;
2.894000000000000E+009;5.582532669732271E-001;-4.690325841017288E-001;
2.905000000000000E+009;5.206493886534759E-001;-5.108483915801668E-001;
2.916000000000000E+009;4.794014481112999E-001;-5.493288295303811E-001;
2.927000000000000E+009;4.371727705829962E-001;-5.831754225763645E-001;
2.938000000000000E+009;3.920765579601184E-001;-6.160005496363259E-001;
2.949000000000000E+009;3.442627613586771E-001;-6.430145939164320E-001;
2.960000000000000E+009;2.957973529293095E-001;-6.678615576772676E-001;
2.971000000000000E+009;2.426497304548739E-001;-6.883143750057404E-001;
2.982000000000000E+009;1.911570406073211E-001;-7.047816752675988E-001;
2.993000000000000E+009;1.374624870268029E-001;-7.176853276707094E-001;
3.004000000000000E+009;8.591937295889786E-002;-7.265798093023413E-001;
3.015000000000000E+009;3.306831815126336E-002;-7.333025228206106E-001;
3.026000000000000E+009;-2.183257258927361E-002;-7.360688488639342E-001;
3.037000000000000E+009;-7.722917758442539E-002;-7.342491647335424E-001;
3.048000000000000E+009;-1.325994583980557E-001;-7.274321571329774E-001;
3.059000000000000E+009;-1.861723329908268E-001;-7.169527584802876E-001;
3.070000000000000E+009;-2.395389146025660E-001;-7.012554118063431E-001;
3.081000000000000E+009;-2.903357841610786E-001;-6.833809516032171E-001;
3.092000000000000E+009;-3.410217562608552E-001;-6.618233742914370E-001;
3.103000000000000E+009;-3.902509123232508E-001;-6.364106337781943E-001;
3.114000000000000E+009;-4.378725187763612E-001;-6.070992344105455E-001;
3.125000000000000E+009;-4.821043194149118E-001;-5.737252446244167E-001;
3.136000000000000E+009;-5.235020320873423E-001;-5.388281856860313E-001;
3.147000000000000E+009;-5.628041840533603E-001;-4.994141506587107E-001;
3.158000000000000E+009;-5.979582025774819E-001;-4.579910925693398E-001;
3.169000000000000E+009;-6.312359467137102E-001;-4.133927572975735E-001;
