# Version 1.00
#
freq[Hz];re:Trc1_S22;im:Trc1_S22;
1.000000000000000E+008;7.150241395317947E-001;-6.595084765802339E-001;
1.110000000000000E+008;6.566570645180796E-001;-7.123705281209474E-001;
1.220000000000000E+008;5.955740011125879E-001;-7.597929945535865E-001;
1.330000000000000E+008;5.294789364978985E-001;-8.077559726279058E-001;
1.440000000000000E+008;4.597616060588921E-001;-8.413088727996226E-001;
1.550000000000000E+008;3.876994546413518E-001;-8.739495716125664E-001;
1.660000000000000E+008;3.124621661348991E-001;-9.024260440326851E-001;
1.770000000000000E+008;2.288288753504949E-001;-9.193635779900786E-001;
1.880000000000000E+008;1.459780096898256E-001;-9.218917006657543E-001;
1.990000000000000E+008;7.611016572260781E-002;-9.080726426353759E-001;
2.100000000000000E+008;2.343709243626613E-002;-9.034286453030144E-001;
2.210000000000000E+008;-3.861559214674303E-002;-9.122145849428951E-001;
2.320000000000000E+008;-1.103195190214154E-001;-9.117335901395227E-001;
2.430000000000000E+008;-1.851438570497775E-001;-9.057206908212971E-001;
2.540000000000000E+008;-2.638074256899735E-001;-8.915286441904865E-001;
2.650000000000000E+008;-3.381933394595874E-001;-8.689688218609275E-001;
2.760000000000000E+008;-4.161147892291169E-001;-8.384333787178138E-001;
2.870000000000000E+008;-4.868365511426488E-001;-7.968225743476893E-001;
2.980000000000000E+008;-5.512801209095667E-001;-7.515317960600403E-001;
3.090000000000000E+008;-6.121858335723723E-001;-7.036687925050683E-001;
3.200000000000000E+008;-6.746977939888291E-001;-6.522955460899627E-001;
3.310000000000000E+008;-7.346852455708700E-001;-5.883062124229647E-001;
3.420000000000000E+008;-7.843765189549367E-001;-5.194559977225022E-001;
3.530000000000000E+008;-8.293878442234786E-001;-4.447662404725899E-001;
3.640000000000000E+008;-8.660754489021698E-001;-3.655625771645168E-001;
3.750000000000000E+008;-8.930685948171823E-001;-2.828929779329794E-001;
3.860000000000000E+008;-9.118474097808428E-001;-2.025922821954084E-001;
3.970000000000000E+008;-9.298354230209516E-001;-1.224568686440396E-001;
4.080000000000000E+008;-9.427923624432119E-001;-3.468054141042990E-002;
4.190000000000000E+008;-9.447799769346469E-001;5.739536342521894E-002;
4.300000000000000E+008;-9.354560425769334E-001;1.497435297742662E-001;
4.410000000000000E+008;-9.156689443563377E-001;2.400687207892037E-001;
4.520000000000000E+008;-8.875630538215582E-001;3.286905944968380E-001;
4.630000000000000E+008;-8.496565304462516E-001;4.142761778238481E-001;
4.740000000000000E+008;-8.027769491169949E-001;4.956511073122036E-001;
4.850000000000000E+008;-7.475321557641418E-001;5.718136855353821E-001;
4.960000000000000E+008;-6.837462887988502E-001;6.411704867522839E-001;
5.070000000000000E+008;-6.141602177503671E-001;7.030114500295744E-001;
5.180000000000000E+008;-5.384469357174249E-001;7.574954038932309E-001;
5.290000000000000E+008;-4.573229537068205E-001;8.031267094776048E-001;
5.400000000000000E+008;-3.728191352652415E-001;8.402889654476206E-001;
5.510000000000000E+008;-2.849903936311987E-001;8.678076796696644E-001;
5.620000000000000E+008;-1.956837317782240E-001;8.845497489071604E-001;
5.730000000000000E+008;-1.082433307536847E-001;8.895299606501937E-001;
5.840000000000000E+008;-2.703556322185586E-002;8.887994696518539E-001;
5.950000000000000E+008;5.641145130905140E-002;8.847412911470732E-001;
6.060000000000000E+008;1.393034404667366E-001;8.710022353099415E-001;
6.170000000000000E+008;2.199440022636252E-001;8.500992587709640E-001;
6.280000000000000E+008;3.009819581476408E-001;8.236330948861792E-001;
6.390000000000000E+008;3.812037387527995E-001;7.852623542331269E-001;
6.500000000000000E+008;4.546469198872041E-001;7.349140650731142E-001;
6.610000000000000E+008;5.172088317928131E-001;6.802349618532059E-001;
6.720000000000000E+008;5.734149861395778E-001;6.217135987006235E-001;
6.830000000000000E+008;6.222571938815797E-001;5.589381137150278E-001;
6.940000000000000E+008;6.616901099297873E-001;4.948666989303450E-001;
7.050000000000000E+008;6.989833966200754E-001;4.337453278483526E-001;
7.160000000000000E+008;7.353260193987717E-001;3.643773542490131E-001;
7.270000000000000E+008;7.601324225266397E-001;2.878592093083195E-001;
7.380000000000000E+008;7.730757973617400E-001;2.091239476834413E-001;
7.490000000000000E+008;7.754789406892784E-001;1.371796146836203E-001;
7.600000000000000E+008;7.702528847604168E-001;6.464898591748211E-002;
7.710000000000000E+008;7.628125294108572E-001;-8.813326839473437E-004;
7.820000000000000E+008;7.498938403859037E-001;-7.176555762494911E-002;
7.930000000000000E+008;7.236617716032495E-001;-1.385149735168063E-001;
8.040000000000000E+008;6.933423909313250E-001;-1.934092522284374E-001;
8.150000000000000E+008;6.653024873259777E-001;-2.473956390207335E-001;
8.260000000000000E+008;6.302905558232443E-001;-3.005853348797925E-001;
8.370000000000000E+008;5.888857061337856E-001;-3.503502023294643E-001;
8.480000000000000E+008;5.377514046984512E-001;-3.939863379773076E-001;
8.590000000000000E+008;4.863933444395615E-001;-4.234565650824188E-001;
8.700000000000000E+008;4.349532162939355E-001;-4.451946646383583E-001;
8.810000000000000E+008;3.878474546246364E-001;-4.589268437544541E-001;
8.920000000000000E+008;3.482351895611920E-001;-4.729631339498442E-001;
9.030000000000000E+008;3.009491099515234E-001;-4.882261118555729E-001;
9.140000000000000E+008;2.476305533201473E-001;-4.913899787044970E-001;
9.250000000000000E+008;2.007582029720631E-001;-4.863658619670195E-001;
9.360000000000000E+008;1.588503942034633E-001;-4.710816879796057E-001;
9.470000000000000E+008;1.243732820273996E-001;-4.554134060775820E-001;
9.580000000000000E+008;9.530660342907898E-002;-4.350151573541703E-001;
9.690000000000000E+008;7.340135473199023E-002;-4.155249977324957E-001;
9.800000000000000E+008;5.177669481649227E-002;-3.956523879634389E-001;
9.910000000000000E+008;4.715928968491789E-002;-3.672760246533094E-001;
1.002000000000000E+009;4.728074599292929E-002;-3.627472443146943E-001;
1.013000000000000E+009;3.831775912309658E-002;-3.556309680726114E-001;
1.024000000000000E+009;2.801091271970132E-002;-3.464054768495631E-001;
1.035000000000000E+009;2.033820067739126E-002;-3.272539159853967E-001;
1.046000000000000E+009;3.896784322507584E-002;-3.088099616530524E-001;
1.057000000000000E+009;6.025046909470777E-002;-3.174573903594699E-001;
1.068000000000000E+009;6.930793592206261E-002;-3.408576282761023E-001;
1.079000000000000E+009;6.063596405954552E-002;-3.649118520150667E-001;
1.090000000000000E+009;4.576194377431789E-002;-3.777903740789949E-001;
1.101000000000000E+009;3.723276830365572E-002;-3.879049908428517E-001;
1.112000000000000E+009;2.827113871712640E-002;-4.013183990862120E-001;
1.123000000000000E+009;1.672004614209794E-002;-4.234102513356439E-001;
1.134000000000000E+009;-6.108799315322958E-003;-4.444311877153783E-001;
1.145000000000000E+009;-3.466444505358007E-002;-4.598694847382958E-001;
1.156000000000000E+009;-6.206463801765878E-002;-4.693078361776147E-001;
1.167000000000000E+009;-8.957167258213271E-002;-4.825788828906273E-001;
1.178000000000000E+009;-1.226196496504028E-001;-4.931407909520495E-001;
1.189000000000000E+009;-1.590603835973584E-001;-5.006668706927202E-001;
1.200000000000000E+009;-1.962830376854169E-001;-5.006113290925549E-001;
1.211000000000000E+009;-2.301175806753060E-001;-5.052827135828638E-001;
1.222000000000000E+009;-2.747823931368978E-001;-5.083814818825008E-001;
1.233000000000000E+009;-3.221544402396635E-001;-5.002055083630441E-001;
1.244000000000000E+009;-3.697801210729946E-001;-4.872946592288644E-001;
1.255000000000000E+009;-4.187192745241807E-001;-4.624044568843495E-001;
1.266000000000000E+009;-4.544524536259105E-001;-4.297278128142251E-001;
1.277000000000000E+009;-4.854755203652462E-001;-4.024591014542606E-001;
1.288000000000000E+009;-5.199598635024064E-001;-3.766387748034044E-001;
1.299000000000000E+009;-5.595245182183700E-001;-3.448611299054663E-001;
1.310000000000000E+009;-5.959826048671471E-001;-3.005660355739699E-001;
1.321000000000000E+009;-6.216843472895073E-001;-2.531432580600482E-001;
1.332000000000000E+009;-6.428687491444710E-001;-2.073746745032150E-001;
1.343000000000000E+009;-6.628162578765372E-001;-1.608185393218151E-001;
1.354000000000000E+009;-6.803470352296873E-001;-1.132965188584273E-001;
1.365000000000000E+009;-6.936381285611418E-001;-6.155811702956471E-002;
1.376000000000000E+009;-7.038260496732259E-001;-9.201269699326307E-003;
1.387000000000000E+009;-7.090931167022417E-001;4.543079536497042E-002;
1.398000000000000E+009;-7.113053107020229E-001;1.007683914554676E-001;
1.409000000000000E+009;-7.075946728222651E-001;1.580602427558157E-001;
1.420000000000000E+009;-6.981483845093219E-001;2.186849356090592E-001;
1.431000000000000E+009;-6.781816857843931E-001;2.786836537180472E-001;
1.442000000000000E+009;-6.498804480886624E-001;3.312398646880438E-001;
1.453000000000000E+009;-6.212791377956569E-001;3.764139089687959E-001;
1.464000000000000E+009;-5.969900381302297E-001;4.211676351449951E-001;
1.475000000000000E+009;-5.690079393736819E-001;4.722882965662832E-001;
1.486000000000000E+009;-5.303713216420678E-001;5.250733803829187E-001;
1.497000000000000E+009;-4.826301174457503E-001;5.685644668294640E-001;
1.508000000000000E+009;-4.332979731797177E-001;6.034938901250935E-001;
1.519000000000000E+009;-3.865397347437534E-001;6.337050512298710E-001;
1.530000000000000E+009;-3.384960295035333E-001;6.654051719759483E-001;
1.541000000000000E+009;-2.853358361971875E-001;6.928659409349596E-001;
1.552000000000000E+009;-2.315999402084200E-001;7.177956786214891E-001;
1.563000000000000E+009;-1.709253475314025E-001;7.384147392515690E-001;
1.574000000000000E+009;-1.094437112401750E-001;7.519816781558549E-001;
1.585000000000000E+009;-4.557268438279095E-002;7.610713346962061E-001;
1.596000000000000E+009;1.967948959409165E-002;7.642614679557511E-001;
1.607000000000000E+009;8.558261966296039E-002;7.606218266342878E-001;
1.618000000000000E+009;1.517687143853036E-001;7.494070541072965E-001;
1.629000000000000E+009;2.137884395407057E-001;7.326400078404097E-001;
1.640000000000000E+009;2.751495229156983E-001;7.108660531978107E-001;
1.651000000000000E+009;3.331856631465264E-001;6.853847410934448E-001;
1.662000000000000E+009;3.924755101380992E-001;6.543304858826514E-001;
1.673000000000000E+009;4.456283015507500E-001;6.134625921263148E-001;
1.684000000000000E+009;4.904178164024371E-001;5.731594185852934E-001;
1.695000000000000E+009;5.340109595741536E-001;5.320012654567696E-001;
1.706000000000000E+009;5.772232537741888E-001;4.878430260669602E-001;
1.717000000000000E+009;6.151883712101816E-001;4.377991603224506E-001;
1.728000000000000E+009;6.490680555462036E-001;3.848161433367511E-001;
1.739000000000000E+009;6.770742915942971E-001;3.290809464475946E-001;
1.750000000000000E+009;7.009702674498498E-001;2.705281920856302E-001;
1.761000000000000E+009;7.182890481165948E-001;2.114890850260285E-001;
1.772000000000000E+009;7.312906399385710E-001;1.528234604722104E-001;
1.783000000000000E+009;7.402702405154010E-001;9.217046959260392E-002;
1.794000000000000E+009;7.434380373477125E-001;3.287778840694195E-002;
1.805000000000000E+009;7.424877750700036E-001;-2.666327306083549E-002;
1.816000000000000E+009;7.362979406225665E-001;-8.404285512436548E-002;
1.827000000000000E+009;7.271560698039049E-001;-1.387435003697788E-001;
1.838000000000000E+009;7.168848911079557E-001;-1.925301163585807E-001;
1.849000000000000E+009;7.029527404019099E-001;-2.490194090951553E-001;
1.860000000000000E+009;6.805227330659389E-001;-3.043882319597879E-001;
1.871000000000000E+009;6.563780451382790E-001;-3.547406176486791E-001;
1.882000000000000E+009;6.285606556156468E-001;-4.043617694551374E-001;
1.893000000000000E+009;5.982633353656146E-001;-4.507728729959874E-001;
1.904000000000000E+009;5.640068898815844E-001;-4.958583711603392E-001;
1.915000000000000E+009;5.259989362085280E-001;-5.381984547504020E-001;
1.926000000000000E+009;4.872019353886761E-001;-5.786349586299572E-001;
1.937000000000000E+009;4.424968461095314E-001;-6.177526970306536E-001;
1.948000000000000E+009;3.943111931580741E-001;-6.514937066432459E-001;
1.959000000000000E+009;3.446128529752052E-001;-6.808219614525917E-001;
1.970000000000000E+009;2.946853979290319E-001;-7.061365881627360E-001;
1.981000000000000E+009;2.432318504047671E-001;-7.302082473951210E-001;
1.992000000000000E+009;1.884477531770350E-001;-7.496895693406760E-001;
2.003000000000000E+009;1.318496505789257E-001;-7.636902760373997E-001;
2.014000000000000E+009;7.653742416187484E-002;-7.720109324203708E-001;
2.025000000000000E+009;2.225555476137232E-002;-7.785002320224118E-001;
2.036000000000000E+009;-3.544759208353484E-002;-7.813011641212062E-001;
2.047000000000000E+009;-9.254289469132826E-002;-7.783596942048625E-001;
2.058000000000000E+009;-1.499451908244043E-001;-7.713061913919858E-001;
2.069000000000000E+009;-2.051203344519102E-001;-7.581990860952246E-001;
2.080000000000000E+009;-2.571267302900614E-001;-7.430778943318533E-001;
2.091000000000000E+009;-3.086408747294980E-001;-7.249294012436481E-001;
2.102000000000000E+009;-3.630702715597589E-001;-7.036849037753200E-001;
2.113000000000000E+009;-4.115148870042233E-001;-6.773392394464630E-001;
2.124000000000000E+009;-4.590354842833933E-001;-6.488015662636567E-001;
2.135000000000000E+009;-5.051855195506457E-001;-6.163117587892274E-001;
2.146000000000000E+009;-5.478156450198874E-001;-5.803239524667648E-001;
2.157000000000000E+009;-5.878251541796873E-001;-5.420104883425253E-001;
2.168000000000000E+009;-6.240844601959295E-001;-4.998436363743800E-001;
2.179000000000000E+009;-6.556636559953117E-001;-4.569289143469297E-001;
2.190000000000000E+009;-6.855522326208543E-001;-4.123227179983646E-001;
2.201000000000000E+009;-7.121344896310531E-001;-3.656507595371829E-001;
2.212000000000000E+009;-7.353068549413757E-001;-3.177189583757450E-001;
2.223000000000000E+009;-7.555924664367906E-001;-2.686654322752346E-001;
2.234000000000000E+009;-7.731232712763612E-001;-2.180805731679544E-001;
2.245000000000000E+009;-7.871857268897184E-001;-1.655325298405824E-001;
2.256000000000000E+009;-7.966028539148702E-001;-1.129363129008416E-001;
2.267000000000000E+009;-8.023168898747098E-001;-6.066198222482942E-002;
2.278000000000000E+009;-8.061235817569386E-001;-8.606764900021375E-003;
2.289000000000000E+009;-8.065299765150837E-001;4.501815129016702E-002;
2.300000000000000E+009;-8.023679110485934E-001;9.927201675670788E-002;
2.311000000000000E+009;-7.952150202477758E-001;1.517544425861420E-001;
2.322000000000000E+009;-7.844858851690035E-001;2.051488577757064E-001;
2.333000000000000E+009;-7.692853894319461E-001;2.574526382075708E-001;
2.344000000000000E+009;-7.502950963678982E-001;3.080333580668436E-001;
2.355000000000000E+009;-7.277134433531268E-001;3.571441654223823E-001;
2.366000000000000E+009;-7.032599405206106E-001;4.039486391512285E-001;
2.377000000000000E+009;-6.746024534127367E-001;4.504645325694520E-001;
2.388000000000000E+009;-6.428621108363350E-001;4.939292354127782E-001;
2.399000000000000E+009;-6.089305927923818E-001;5.350398714317548E-001;
2.410000000000000E+009;-5.726150807856905E-001;5.749192661817694E-001;
2.421000000000000E+009;-5.324518439439022E-001;6.125027614271404E-001;
2.432000000000000E+009;-4.892020479245327E-001;6.461459047524965E-001;
2.443000000000000E+009;-4.455196251395365E-001;6.764657911478735E-001;
2.454000000000000E+009;-3.991120991089419E-001;7.048368953021895E-001;
2.465000000000000E+009;-3.512680917658506E-001;7.299047877247801E-001;
2.476000000000000E+009;-3.001410384930519E-001;7.520147180192268E-001;
2.487000000000000E+009;-2.485693449725674E-001;7.698780707680749E-001;
2.498000000000000E+009;-1.944713574035269E-001;7.850837175347827E-001;
2.509000000000000E+009;-1.384627605838732E-001;7.954002259045925E-001;
2.520000000000000E+009;-8.328776666435929E-002;8.020877452927485E-001;
2.531000000000000E+009;-2.655994917191674E-002;8.040890613684399E-001;
2.542000000000000E+009;2.795149092441295E-002;8.035234836481133E-001;
2.553000000000000E+009;8.495362806735461E-002;7.981154834321890E-001;
2.564000000000000E+009;1.398363751093404E-001;7.889267436151918E-001;
2.575000000000000E+009;1.949880111606392E-001;7.763826458969271E-001;
2.586000000000000E+009;2.496254635930200E-001;7.593352013775153E-001;
2.597000000000000E+009;3.027704616667693E-001;7.379026265816265E-001;
2.608000000000000E+009;3.536917225320096E-001;7.115853705478679E-001;
2.619000000000000E+009;4.012885220934679E-001;6.836055623761371E-001;
2.630000000000000E+009;4.481944902852248E-001;6.523240482341394E-001;
2.641000000000000E+009;4.932447014013444E-001;6.175903147539349E-001;
2.652000000000000E+009;5.354708735740603E-001;5.783306877706671E-001;
2.663000000000000E+009;5.743616741432032E-001;5.364759881331259E-001;
2.674000000000000E+009;6.107775724629063E-001;4.914753296494694E-001;
2.685000000000000E+009;6.433689923900208E-001;4.429639642257869E-001;
2.696000000000000E+009;6.723841747150137E-001;3.933646062035091E-001;
2.707000000000000E+009;6.980221112740427E-001;3.398917524068040E-001;
2.718000000000000E+009;7.183104861883904E-001;2.856274371234691E-001;
2.729000000000000E+009;7.350829901458140E-001;2.306247335152665E-001;
2.740000000000000E+009;7.480395305388564E-001;1.742739455795415E-001;
2.751000000000000E+009;7.558867410730829E-001;1.168773242660405E-001;
2.762000000000000E+009;7.589000354812688E-001;5.924463110116611E-002;
2.773000000000000E+009;7.576522272263566E-001;1.587973406911904E-003;
2.784000000000000E+009;7.513313299995788E-001;-5.556722487755068E-002;
2.795000000000000E+009;7.409953231961932E-001;-1.110472667648625E-001;
2.806000000000000E+009;7.269046561862070E-001;-1.654885402189387E-001;
2.817000000000000E+009;7.090767829801176E-001;-2.186959628702354E-001;
2.828000000000000E+009;6.876834937638960E-001;-2.702811819961834E-001;
2.839000000000000E+009;6.621629775056317E-001;-3.207749883483814E-001;
2.850000000000000E+009;6.322801702291723E-001;-3.674159109344227E-001;
2.861000000000000E+009;6.005368293096653E-001;-4.116011009550175E-001;
2.872000000000000E+009;5.663009596787195E-001;-4.542770473036982E-001;
2.883000000000000E+009;5.279402335492379E-001;-4.944991321247337E-001;
2.894000000000000E+009;4.860923200730673E-001;-5.311677913456687E-001;
2.905000000000000E+009;4.426745906385011E-001;-5.629458615914275E-001;
2.916000000000000E+009;3.978567808369562E-001;-5.919949613677539E-001;
2.927000000000000E+009;3.519753112023903E-001;-6.173589747283103E-001;
2.938000000000000E+009;3.042022520138495E-001;-6.410686323162368E-001;
2.949000000000000E+009;2.529113531669675E-001;-6.588986812603366E-001;
2.960000000000000E+009;2.017779902954347E-001;-6.715550675087806E-001;
2.971000000000000E+009;1.499782879502273E-001;-6.800224602871418E-001;
2.982000000000000E+009;1.007318540560554E-001;-6.854164800591205E-001;
2.993000000000000E+009;5.070154135080122E-002;-6.887795171108501E-001;
3.004000000000000E+009;1.553562713063376E-003;-6.882664311088519E-001;
3.015000000000000E+009;-4.734849962517994E-002;-6.833803544689752E-001;
3.026000000000000E+009;-9.464454628252070E-002;-6.748646310672838E-001;
3.037000000000000E+009;-1.402426224680308E-001;-6.639547851132430E-001;
3.048000000000000E+009;-1.854707894636232E-001;-6.504074693591263E-001;
3.059000000000000E+009;-2.287138883711860E-001;-6.342716039570444E-001;
3.070000000000000E+009;-2.707243748996457E-001;-6.145200888903105E-001;
3.081000000000000E+009;-3.104538029298933E-001;-5.924393375867572E-001;
3.092000000000000E+009;-3.475847653862261E-001;-5.687975152967749E-001;
3.103000000000000E+009;-3.830805271662207E-001;-5.437031620226688E-001;
3.114000000000000E+009;-4.169219668495429E-001;-5.180784977517537E-001;
3.125000000000000E+009;-4.494343985233670E-001;-4.907702648671163E-001;
3.136000000000000E+009;-4.811953157531647E-001;-4.633131965825874E-001;
3.147000000000000E+009;-5.118849429025463E-001;-4.320236244084850E-001;
3.158000000000000E+009;-5.402406686704410E-001;-3.994595027335440E-001;
3.169000000000000E+009;-5.678649917781978E-001;-3.648369700228491E-001;
